# Hz S MA R 50.0 
!freq magS11 angS11 magS21 angS21 magS12 angS12 magS22 angS22
0.0 0.9822102099503999 179.01677995876733 0.22075174527814126 21.36725066288945 0.2207517452781413 21.36725066288935 0.9822288127448767 -0.9821697710488124
300000000.0 0.07402140741327873 -26.436336743159607 0.9969344871517606 -0.8241079355715625 0.9969344871517604 -0.8241079355715621 0.06733887967979317 157.1226632216559
600000000.0 0.06266114424482676 -4.695087854617897 0.9959779369330987 -1.8354319861820958 0.9959779369330989 -1.8354319861820962 0.06033750873042889 -170.5749203390938
900000000.0 0.06457285465558568 -12.559943338906006 0.995550920060722 -2.696859223856986 0.9955509200607224 -2.696859223856986 0.0608914755051696 -171.56169556529895
1200000000.0 0.06474181857348163 -15.97817796316638 0.9952557049155323 -3.576218535454342 0.9952557049155316 -3.5762185354543448 0.06175074366798757 -167.75060455021654
1500000000.0 0.06638093290141542 -20.99090567376775 0.9950131046999797 -4.447195062767989 0.9950131046999793 -4.447195062767988 0.06268860476034165 -166.17701431069096
1800000000.0 0.06754590911587717 -24.83070597083238 0.9947742984863109 -5.324073612724896 0.9947742984863116 -5.3240736127248915 0.0641002547722753 -163.50388873551333
2100000000.0 0.0695865178651927 -28.876409683251758 0.9945267166860625 -6.1979459201598655 0.9945267166860627 -6.197945920159866 0.06573521916269567 -161.70220619047277
2400000000.0 0.07140037950484288 -32.43543724385004 0.9942648884011392 -7.074145758887857 0.9942648884011392 -7.074145758887862 0.06765902237159221 -159.6058318115949
2700000000.0 0.07381017560372474 -35.88149577947196 0.9939781492698442 -7.948009315630016 0.9939781492698438 -7.94800931563002 0.06979521032970232 -158.06284171182403
3000000000.0 0.07607177140364448 -39.066620501099976 0.9936762306309184 -8.822827675525847 0.9936762306309186 -8.822827675525854 0.0720900206857111 -156.4570729450952
3300000000.0 0.0787663440372995 -42.03800479815161 0.9933447021981776 -9.695298134522476 0.9933447021981772 -9.695298134522478 0.07456997903560758 -155.27298582418342
3600000000.0 0.0813417144758803 -44.85332383130319 0.9930004500588155 -10.56809367288801 0.9930004500588152 -10.568093672888015 0.07712309779452396 -154.09529817281245
3900000000.0 0.08423939681348619 -47.428375962466504 0.9926260096602134 -11.438374400936205 0.9926260096602132 -11.438374400936205 0.0798302408005811 -153.2635652259195
4200000000.0 0.0870286190802409 -49.908800740475066 0.9922420249406382 -12.308656049437651 0.9922420249406377 -12.308656049437657 0.08255307435165879 -152.45209788818968
4500000000.0 0.09005810899131195 -52.151925787637516 0.9918292141292632 -13.176223468492333 0.9918292141292631 -13.17622346849233 0.08539866983429147 -151.93366055179231
4800000000.0 0.09298284683329039 -54.34123761301956 0.9914100816332286 -14.0436272825369 0.9914100816332287 -14.043627282536896 0.08822086087506811 -151.43004065917526
5100000000.0 0.09608394982081184 -56.307874827557114 0.990964540497235 -14.908123367909782 0.9909645404972348 -14.908123367909782 0.09113606976412074 -151.17879607083398
5400000000.0 0.09908139392574203 -58.249285471706585 0.9905157377338049 -15.772381436181494 0.9905157377338047 -15.772381436181483 0.09400116443636898 -150.93136151161542
5700000000.0 0.10220374517086428 -59.98646502828573 0.9900435634079371 -16.633559127490145 0.9900435634079371 -16.63355912749015 0.09693172729364463 -150.90365214474005
6000000000.0 0.1052227675124691 -61.71879937131838 0.9895709588033503 -17.494483819235263 0.9895709588033506 -17.494483819235267 0.09979399947439511 -150.86848460211561
6300000000.0 0.10832433695260267 -63.26567543770199 0.989078399365383 -18.35218456349781 0.9890783993653829 -18.35218456349783 0.10269656269244255 -151.0262516507025
6600000000.0 0.11132265900211881 -64.82221042647062 0.9885879906665564 -19.209651113916685 0.9885879906665572 -19.20965111391667 0.1055185006885216 -151.16690418526835
6900000000.0 0.11436819505285534 -66.21100793854487 0.988081255403421 -20.063789987970065 0.988081255403421 -20.06378998797007 0.10835789533124061 -151.47817578697757
7200000000.0 0.11731068662603837 -67.6196746109274 0.9875790202398629 -20.917741331741656 0.9875790202398631 -20.91774133174166 0.11110846647738537 -151.76473842252057
7500000000.0 0.12027042122272838 -68.87667182685789 0.9870641902946586 -21.76829182406739 0.9870641902946586 -21.768291824067393 0.11385571652591557 -152.20318744847538
7800000000.0 0.12312731669094237 -70.16060459336343 0.9865559594275735 -22.61871946788344 0.9865559594275729 -22.618719467883448 0.11650886483888137 -152.61127640732582
8100000000.0 0.125975921075058 -71.30723631338174 0.9860389007041931 -23.4657162286687 0.9860389007041933 -23.4657162286687 0.11914000777379327 -153.15532192228972
8400000000.0 0.1287219605986985 -72.48555203858102 0.9855303428470069 -24.31266163779062 0.9855303428470074 -24.312661637790626 0.1216735878947676 -153.66505514480926
8700000000.0 0.13143775424066648 -73.53931185956442 0.9850166915072084 -25.156182574860534 0.9850166915072086 -25.156182574860527 0.12416829637955624 -154.29710896240124
9000000000.0 0.13405131199565187 -74.62784397203913 0.9845132150896106 -25.999738224710743 0.9845132150896113 -25.999738224710722 0.12656348668867523 -154.89222207217594
9300000000.0 0.1366155783329939 -75.60309241156908 0.9840083078552613 -26.83990972877536 0.9840083078552612 -26.83990972877536 0.12890461822018662 -155.59788595647092
9600000000.0 0.1390780283420657 -76.61499046691527 0.9835150716823645 -27.680210905214054 0.9835150716823645 -27.680210905214047 0.13114520026675608 -156.2650274085894
9900000000.0 0.14147464008664196 -77.52359315739231 0.9830239513879174 -28.517200358432355 0.9830239513879172 -28.51720035843236 0.1333180245463577 -157.03250180833152
10200000000.0 0.14376985446479915 -78.46986686185558 0.9825458249547003 -29.354425718099858 0.9825458249547004 -29.354425718099833 0.1353900445596685 -157.76063322182063
10500000000.0 0.1459847983305256 -79.32173069472339 0.9820731890803386 -30.188445694720926 0.9820731890803384 -30.188445694720954 0.13738208692395573 -158.58016120287266
10800000000.0 0.14809874572359527 -80.2116878614723 0.9816147136483755 -31.022811749457755 0.9816147136483758 -31.022811749457755 0.139273436858303 -159.36010171608686
11100000000.0 0.15011993550137304 -81.01517730243452 0.9811649280894466 -31.85411312329094 0.9811649280894467 -31.854113123290922 0.141073911690103 -160.22357590618884
11400000000.0 0.15204038921650564 -81.85677358452212 0.9807303064655845 -32.68587624722741 0.9807303064655846 -32.6858762472274 0.142774192696531 -161.04761328770275
11700000000.0 0.15385725523285226 -82.61906888223247 0.9803073364956587 -33.51474963324641 0.9803073364956583 -33.514749633246396 0.14437398566349266 -161.9482062331096
12000000000.0 0.15557374598662954 -83.41924533210612 0.9799003912333083 -34.34421028598673 0.9799003912333085 -34.344210285986726 0.14587429316752665 -162.8097781686912
12300000000.0 0.15717711151836267 -84.14661126863628 0.9795078133848352 -35.17098235234136 0.9795078133848348 -35.170982352341355 0.14726564194825462 -163.74167135447954
12600000000.0 0.15868042282041492 -84.91153246700932 0.9791319593010178 -35.998477958724955 0.9791319593010178 -35.99847795872497 0.14855849448487923 -164.6350870250525
12900000000.0 0.16006238124836067 -85.6096136054502 0.9787729072216981 -36.82351809711417 0.9787729072216979 -36.823518097114174 0.14973502270608455 -165.59318728393546
13200000000.0 0.16134459204303464 -86.34492957830874 0.9784311108635363 -37.649427904286625 0.9784311108635357 -37.64942790428665 0.1508142393607938 -166.51338245096673
13500000000.0 0.16249829456761042 -87.01899605770795 0.9781082350254663 -38.473147814186405 0.9781082350254662 -38.47314781418642 0.1517709245351797 -167.4930740098333
13800000000.0 0.16355263934483166 -87.73012413663773 0.9778029577474965 -39.297900762893285 0.9778029577474967 -39.297900762893285 0.1526317826248693 -168.43533963195753
14100000000.0 0.16447223161434973 -88.38537336298721 0.9775183506404066 -40.12076108429562 0.9775183506404063 -40.120761084295616 0.15336502607619207 -169.43221477981302
14400000000.0 0.1652928496998617 -89.07782603604814 0.9772514655931108 -40.94483726829875 0.9772514655931105 -40.94483726829872 0.1540043550449518 -170.39188438981196
14700000000.0 0.16597338125020925 -89.7197798079317 0.9770065738504857 -41.76736061542391 0.9770065749105632 -41.767360615423925 0.15451231563068474 -171.40136908958263
15000000000.0 0.16655532297449308 -90.39965314723997 0.9767792178257794 -42.5913134626005 0.976779217825779 -42.59131346260049 0.1549290475678774 -172.37339737889718
15300000000.0 0.16699259171593478 -91.03477762815784 0.9765746363368795 -43.41410591374525 0.9765746363368794 -43.41410591374526 0.15521230661180946 -173.3902293796682
15600000000.0 0.16733166325498305 -91.70954975805651 0.9763869510308854 -44.238590939338536 0.9763869510308851 -44.238590939338536 0.15540839752306085 -174.36851703661668
15900000000.0 0.16752198279539593 -92.34633297939473 0.9762220157273722 -45.062387033004214 0.9762220157273722 -45.062387033004214 0.15547148919778334 -175.38587654632428
16200000000.0 0.16761438424434624 -93.02638779829657 0.9760725366303273 -45.888225100532196 0.9760725366303269 -45.88822510053222 0.1554541996206465 -176.36208415573714
16500000000.0 0.16755423537989977 -93.67747984504886 0.9759444292714607 -46.71398061799374 0.9759444292714602 -46.71398061799376 0.1553088786427031 -177.36997023363955
16800000000.0 0.16739568490852288 -94.37922211154468 0.9758286955732446 -47.54228837128267 0.9758286955732445 -47.54228837128267 0.15509595484631628 -178.3312305562526
17100000000.0 0.16708007683413717 -95.06616827885836 0.9757300726813234 -48.371379015486255 0.975730072681324 -48.371379015486255 0.1547694673015903 -179.3132060816712
17400000000.0 0.16666298031701546 -95.81941643870394 0.9756366652074596 -49.20387454290783 0.9756366652074596 -49.20387454290784 0.15440268035576507 179.76269384240476
17700000000.0 0.1660799344204999 -96.58457040886374 0.9755483646941451 -50.03858573246145 0.9755483646941455 -50.038585732461456 0.15396076932800226 178.83655558963406
18000000000.0 0.16538151560082745 -97.45262358692526 0.9754456182187669 -50.87835219618322 0.9754456182187666 -50.87835219618322 0.15354660064128847 177.99201522404755
18300000000.0 0.16448757054739152 -98.39496694206689 0.9753082761473979 -51.72318453856334 0.9753082761473983 -51.72318453856334 0.1531685158667655 177.18089362010164
18600000000.0 0.16341186482191736 -99.54136903080949 0.9750848567420664 -52.57682462311508 0.9750848567420664 -52.57682462311508 0.1530273119029934 176.5017142626381
18900000000.0 0.16199486926730322 -100.95947374915903 0.9746318289225039 -53.44153865820438 0.9746318289225039 -53.44153865820441 0.15329654759714811 175.9168141193503
19200000000.0 0.15990177853178997 -102.9860738572214 0.9736637785010793 -54.31698747258125 0.9736637785010792 -54.316987472581225 0.1545576288549309 175.54909211149362
19500000000.0 0.15532665131336673 -106.14869251083057 0.9718169090889863 -55.16028925630692 0.9718169090889859 -55.160289256306925 0.15789895612254268 175.5031011921001
19800000000.0 0.14290504469209653 -111.0427308013231 0.9694565839464795 -55.95932896964508 0.9694565839464795 -55.95932896964506 0.16928357585291112 175.20935241022065
20100000000.0 0.10765303289723538 -112.24390148367999 0.9659931790412701 -56.600183289073534 0.9659931790412704 -56.60018328907352 0.19217970858963715 168.05885209057055
20400000000.0 0.10306169933506745 -87.59428523131201 0.9683076230839648 -57.067428273253526 0.9683076230839646 -57.067428273253526 0.17736337016816625 154.03095601613626
20700000000.0 0.12871279800993507 -84.94448356104988 0.973068753273477 -57.86718828438415 0.9730687532734773 -57.86718828438415 0.14872305879475495 150.8076440741754
21000000000.0 0.13981398514475105 -86.56250982090606 0.9754272041033466 -58.78097008650506 0.9754272041033464 -58.78097008650506 0.13311291343652612 150.94968247957675
21300000000.0 0.1495935790349795 -87.62204031674996 0.9765866365493007 -59.69716139609539 0.9765866365493004 -59.697161396095375 0.11893903014287954 152.01566854154137
21600000000.0 0.16161892394863692 -91.10910763141047 0.9768640186853509 -60.61724087171088 0.9768640186853509 -60.61724087171088 0.10789568555615703 158.13323017586117
21900000000.0 0.15970635991338153 -97.35698241884937 0.9763664327205869 -61.47215592103071 0.9763664327205865 -61.472155921030726 0.11617980084920099 163.06922555277097
22200000000.0 0.150932870194892 -100.44347932686054 0.9766398471034576 -62.29825867211183 0.9766398471034573 -62.298258672111835 0.1226976929383424 161.5054548142223
22500000000.0 0.14436471295883316 -101.32501498433882 0.9771819807063169 -63.146059045069066 0.9771819807063171 -63.14605904506907 0.12279822394985412 159.08009329415933
22800000000.0 0.13944334359283297 -101.83460449486208 0.9776750121150245 -64.00264051257336 0.9776750121150241 -64.00264051257336 0.12106275049716184 157.04282508542508
23100000000.0 0.13542393265221123 -102.21750992043238 0.9781036978494694 -64.86307736356527 0.9781036978494696 -64.86307736356527 0.11845342640149108 155.29526963546016
23400000000.0 0.13171967092887907 -102.59725815942899 0.9785022718270405 -65.72597206137829 0.9785022718270405 -65.7259720613783 0.11554465698065743 153.6923414837053
23700000000.0 0.12813958629149516 -102.95045214161202 0.9788769881075935 -66.59060789517535 0.978876988107593 -66.59060789517535 0.11239175254882913 152.15402226837725
24000000000.0 0.12459084103924165 -103.31064789381492 0.9792407448938916 -67.4574950704878 0.9792407448938913 -67.4574950704878 0.10911159815606061 150.661110052444
24300000000.0 0.12098708107372727 -103.6399359926777 0.9795943197378132 -68.32635934588531 0.979594319737813 -68.3263593458853 0.1056761561374341 149.15934586086127
24600000000.0 0.11734052155121953 -103.96854104850706 0.9799429109686052 -69.19774020719787 0.9799429109686052 -69.19774020719787 0.10214284109874926 147.66706069271203
24900000000.0 0.11358656552901639 -104.25794807091042 0.9802845667134131 -70.0714694851255 0.9802845667134128 -70.07146948512549 0.09847421550914473 146.13522604735854
25200000000.0 0.10976653731032937 -104.53737600848834 0.9806224748945975 -70.94796126315858 0.9806224748945973 -70.94796126315856 0.0947143290155617 144.5927707437458
25500000000.0 0.10582238588263375 -104.76877407731689 0.980952795350381 -71.82710753095196 0.980952795350381 -71.82710753095198 0.0908272832755212 142.99069550253793
25800000000.0 0.1018053314378724 -104.97849650763888 0.9812786500312614 -72.70921330938879 0.9812786500312617 -72.70921330938882 0.0868511679133713 141.35973225418067
26100000000.0 0.0976604795791113 -105.12882715417747 0.9815945277402064 -73.59420682298956 0.9815945277402066 -73.59420682298956 0.08275447987957527 139.6485537160596
26400000000.0 0.09344301958561274 -105.24115466599609 0.9819042449717816 -74.48231882698006 0.9819042449717815 -74.48231882698006 0.07857046490492958 137.8853081257364
26700000000.0 0.08910039402642177 -105.27747477670364 0.9822006834038481 -75.37348854068767 0.9822006834038476 -75.37348854068767 0.07427358569017747 136.0136530659292
27000000000.0 0.08469010770742856 -105.25144816991178 0.9824886751988154 -76.26791109360605 0.9824886751988154 -76.26791109360605 0.06989219673227264 134.0549422845053
27300000000.0 0.08016164518780608 -105.12335012399785 0.982759532679306 -77.16550094449097 0.9827595326793063 -77.16550094449097 0.06540844860233645 131.94286064169256
27600000000.0 0.07557537306293748 -104.89462455067715 0.9830192279564377 -78.06646798906488 0.9830192279564377 -78.06646798906488 0.06084573890640095 129.68503684085246
27900000000.0 0.07088244715964957 -104.52074124768218 0.9832575440795847 -78.97065330009488 0.9832575440795853 -78.97065330009488 0.05619663285304899 127.1945396466263
28200000000.0 0.06614873132363282 -103.98265608124468 0.983481610870267 -79.87833692403377 0.9834816108702672 -79.87833692403377 0.05148050791348047 124.45006730388371
28500000000.0 0.061326593499077146 -103.22413603725744 0.9836797548060728 -80.78922155463997 0.9836797548060727 -80.78922155463998 0.0467057376516812 121.31873255568576
28800000000.0 0.05649353671102313 -102.18905374571455 0.9838601926884696 -81.70373921420543 0.9838601926884702 -81.70373921420543 0.0418920036658075 117.71129523107903
29100000000.0 0.05160287154724077 -100.79316816586413 0.9840099500431175 -82.62135369860161 0.9840099500431175 -82.62135369860162 0.037077102198989756 113.38098320761638
29400000000.0 0.04675756022996195 -98.90761804243859 0.9841381245215661 -83.54277563141272 0.9841381245215659 -83.54277563141272 0.03229788825158624 108.05719736938046
29700000000.0 0.04191351811768259 -96.37985431764832 0.9842307394234041 -84.46706454152805 0.9842307394234048 -84.46706454152803 0.02766463213809787 101.18059635546189
30000000000.0 0.037232492866323304 -92.930273537085 0.9842972758195803 -85.39543012788369 0.9842972758195799 -85.39543012788369 0.02330101553070813 91.9689460971945
