# Hz S MA R 50.0 
!freq magS11 angS11 magS21 angS21 magS12 angS12 magS22 angS22
0.0 0.9822288127426152 -0.9821757579975787 0.22075174517904161 21.36724769301729 0.22075174517904045 21.36724769301729 0.9822102090688478 179.0167800125632
300000000.0 0.0672381439209689 157.46158860321924 0.9968691978312194 -0.8490899762547447 0.9968691978312194 -0.8490899762547451 0.07415393832252766 -26.785502661829003
600000000.0 0.06034079653338057 -169.62102345669194 0.9962236536007444 -1.89545959479999 0.9962236536007444 -1.8954595947999915 0.06301937136959757 -5.685952648628001
900000000.0 0.06086891331838699 -169.84525797025736 0.9960507077491794 -2.805198008220509 0.996050707749179 -2.8051980082205086 0.06553685235081513 -14.184177350766666
1200000000.0 0.06207575567402969 -165.30001055871486 0.9958954793589041 -3.7359297371535467 0.9958954793589043 -3.735929737153545 0.06623053585691781 -18.29785742535214
1500000000.0 0.06344941402783565 -163.07447206606008 0.9957149588242088 -4.658338671971532 0.995714958824209 -4.658338671971532 0.06850402491989196 -23.858358467143667
1800000000.0 0.06548998130697875 -159.8934545154847 0.9955035975044075 -5.585658409146386 0.9955035975044071 -5.585658409146387 0.07031667933407341 -28.201469868143683
2100000000.0 0.06779915587755808 -157.6897115849054 0.9952533458448906 -6.509132329118521 0.9952533458448902 -6.509132329118522 0.07307827346029527 -32.61579792179897
2400000000.0 0.07049918897197972 -155.31801444844922 0.9949786263264994 -7.434117964756064 0.9949786263264991 -7.434117964756062 0.07564514810330741 -36.48681945652596
2700000000.0 0.07342907791061114 -153.58419652340703 0.9946623381619747 -8.356109129024068 0.9946623381619749 -8.356109129024071 0.07884703717416651 -40.146081636952985
3000000000.0 0.07657338367818897 -151.87857834060767 0.9943267040422029 -9.278450210018711 0.9943267040422031 -9.278450210018706 0.0819281299761397 -43.495525884179045
3300000000.0 0.07990178845952688 -150.65210966537398 0.9939491092817478 -10.197880716902084 0.9939491092817481 -10.197880716902084 0.08545551562022607 -46.566407551434
3600000000.0 0.08333388172175643 -149.49241695526842 0.9935561323487492 -11.117105887663655 0.9935561323487494 -11.117105887663655 0.08888281476005225 -49.443677445058924
3900000000.0 0.08690676073169423 -148.71308887378623 0.99312246822216 -12.033258982835552 0.99312246822216 -12.033258982835557 0.09262855884002419 -52.04254532047013
4200000000.0 0.09051173940888671 -147.9928870362167 0.9926768806947357 -12.948893803872416 0.9926768806947357 -12.948893803872416 0.09627786443617807 -54.51904455999153
4500000000.0 0.09421856773578101 -147.58318712091685 0.9921930444073458 -13.86121581979869 0.9921930444073457 -13.861215819798693 0.10015272344668565 -56.739090998613996
4800000000.0 0.09791010406753228 -147.2135647425186 0.9917004751547542 -14.772819718933855 0.991700475154754 -14.772819718933858 0.1039292671698771 -58.8845244119728
5100000000.0 0.1016690778080166 -147.10224626470682 0.9911729340233094 -15.680856589921794 0.9911729340233096 -15.680856589921797 0.10786087040865158 -60.80079021837808
5400000000.0 0.10538084874017385 -147.01189109764124 0.990639666219343 -16.58804190621722 0.9906396662193434 -16.58804190621723 0.11169086766606968 -62.675524981687595
5700000000.0 0.10912980472325504 -147.13966408310998 0.9900753036759619 -17.491423303645732 0.9900753036759616 -17.49142330364573 0.11562063558361695 -64.3475944999642
6000000000.0 0.11280968720880423 -147.27252395049476 0.9895080762429962 -18.393859453755454 0.9895080762429962 -18.393859453755454 0.11944543610069956 -66.00123982151244
6300000000.0 0.11650011852728286 -147.59198626205014 0.9889140505108478 -19.292285537837802 0.988914050510848 -19.2922855378378 0.12332553500488028 -67.47589298379911
6600000000.0 0.12010637038830582 -147.9043094198259 0.9883198921477306 -20.189707135499688 0.98831989214773 -20.18970713549968 0.1270976799325661 -68.94827683795685
6900000000.0 0.12369946494357158 -148.37807722693233 0.987703546357192 -21.082944035094076 0.987703546357192 -21.08294403509408 0.13088856708850247 -70.2621172576631
7200000000.0 0.12719777358594578 -148.83575284540237 0.9870896646813374 -21.975138259260163 0.9870896646813373 -21.975138259260156 0.13456888457944227 -71.58487716539074
7500000000.0 0.13066191304446406 -149.43446805029726 0.9864584106000023 -22.86301927496435 0.986458410600002 -22.863019274964355 0.13823759132922608 -72.76656006147215
7800000000.0 0.1340238353125279 -150.01073066167982 0.9858321007760704 -23.749840042558485 0.9858321007760704 -23.74984004255849 0.14179340570400592 -73.96482013452672
8100000000.0 0.13733281480639864 -150.71126634118176 0.9851933215050622 -24.632256064816488 0.9851933215050624 -24.632256064816495 0.14531190018931955 -75.036865773779
8400000000.0 0.14053431455111726 -151.38500672227485 0.9845618538060869 -25.51361723676291 0.9845618538060869 -25.513617236762908 0.1487156712609115 -76.13065550563078
8700000000.0 0.14366614292772237 -152.16905614693695 0.983922843385939 -26.390525821142305 0.983922843385939 -26.390525821142298 0.1520602735309462 -77.11092443486605
9000000000.0 0.14668672286583057 -152.923475005177 0.9832934106799599 -27.266396701602172 0.98329341067996 -27.266396701602183 0.15528845683638828 -78.11628654034686
9300000000.0 0.14962283244852898 -153.77644488527548 0.9826612823928267 -28.1378133610453 0.9826612823928269 -28.1378133610453 0.1584387871158455 -79.01904062021372
9600000000.0 0.15244493446952634 -154.5980716066351 0.9820408931519811 -29.008223161554422 0.982040893151981 -29.008223161554422 0.16147125506671697 -79.9489619710026
9900000000.0 0.15516947390512476 -155.50825562292758 0.98142252821075 -29.874222672919885 0.98142252821075 -29.874222672919885 0.1644099078911636 -80.78572101171008
10200000000.0 0.1577780247048128 -156.38619462901525 0.980817926632004 -30.739257173725246 0.9808179266320038 -30.739257173725264 0.16722930728116273 -81.65082564007209
10500000000.0 0.16027749078201367 -157.34412024153508 0.9802198845428155 -31.599966807605014 0.9802198845428157 -31.599966807604993 0.16994113724336582 -82.4309949523128
10800000000.0 0.16265956033248594 -158.26946675702274 0.9796375076840195 -32.45977057041804 0.979637507684019 -32.45977057041803 0.1725325815830196 -83.24008531066588
11100000000.0 0.16492235268712854 -159.2674065768975 0.9790659850637747 -33.315372372428854 0.9790659850637748 -33.31537237242887 0.17500462777265416 -83.97146946535631
11400000000.0 0.16706689396879698 -160.23282949769356 0.9785118666264212 -34.170143458817094 0.9785118666264211 -34.170143458817094 0.17735523134233844 -84.73194025208119
11700000000.0 0.16908320030564003 -161.26439731421908 0.9779726266228864 -35.020870607022424 0.9779726266228866 -35.020870607022424 0.17957620729228224 -85.42111621400336
12000000000.0 0.1709806364013261 -162.26377406569244 0.9774523900548542 -35.8708539897162 0.9774523900548542 -35.8708539897162 0.18167484391205732 -86.13928377999568
12300000000.0 0.17274217031684136 -163.32362988978713 0.9769507102435485 -36.71699113295256 0.9769507102435484 -36.71699113295256 0.18363505388449886 -86.7919141673662
12600000000.0 0.17438453228767523 -164.35175410471118 0.9764694540491948 -37.562484769235766 0.9764694540491952 -37.56248476923576 0.1854720489302561 -87.4733212434656
12900000000.0 0.17588434333362976 -165.4353168829399 0.976010085313151 -38.4043612566913 0.9760100853131511 -38.40436125669129 0.18716302409487254 -88.09442202421715
13200000000.0 0.17726496358612825 -166.48763894081188 0.9755723750927355 -39.245710209500864 0.9755723750927353 -39.24571020950085 0.18873000380840071 -88.74406799949222
13500000000.0 0.1784974192746514 -167.59083739256778 0.9751594832557781 -40.08370112475116 0.9751594832557781 -40.08370112475116 0.19014430378408062 -89.338255356005
13800000000.0 0.179610885154565 -168.66320469973675 0.9747692957210816 -40.921293473243615 0.9747692957210814 -40.92129347324361 0.1914338377588337 -89.96085118225281
14100000000.0 0.18057160922841944 -169.7821971856607 0.974406441300248 -41.75581875037167 0.9744064413002483 -41.755818750371674 0.19256484410369698 -90.53260234841504
14400000000.0 0.18141394325657736 -170.870543002362 0.9740670958043016 -42.59009275226939 0.9740670958043015 -42.590092752269406 0.19357027156367568 -91.13287832251845
14700000000.0 0.18209992209447154 -172.00137452063703 0.9737571609635998 -43.42161668931945 0.9737571609635998 -43.42161668931945 0.19441183838489776 -91.6868752120956
15000000000.0 0.18266868804233977 -173.10130417149685 0.9734712750616425 -44.25305682298502 0.9734712750616425 -44.25305682298502 0.19512679385926218 -92.26997455243583
15300000000.0 0.18307867311221887 -174.23938531221296 0.9732164010056621 -45.0820946240078 0.9732164010056623 -45.0820946240078 0.19567279447524463 -92.81161126598309
15600000000.0 0.18337356628864715 -175.34551661484926 0.9729857966200754 -45.911241285724074 0.9729857966200754 -45.91124128572407 0.19609066226826247 -93.38374652614586
15900000000.0 0.183508995736447 -176.48474839638314 0.9727872650754479 -46.73836846435399 0.9727872650754482 -46.738368464354004 0.19633405193342346 -93.91999539614852
16200000000.0 0.18353331374242307 -177.58950045348192 0.9726128143443659 -47.565833980871616 0.972612814344366 -47.565833980871616 0.19644665744659828 -94.48965082981809
16500000000.0 0.18340037603655712 -178.72058390800268 0.9724708702224083 -48.391707512041044 0.9724708702224086 -48.39170751204104 0.19637767618089016 -95.0307278607708
16800000000.0 0.18316458869312036 -179.81175968867774 0.9723521612097358 -49.2182097618568 0.9723521612097356 -49.2182097618568 0.19617239153578353 -95.6110971234366
17100000000.0 0.18278008909374907 179.08141797254098 0.972265592721788 -50.043618599370774 0.9722655927217876 -50.043618599370774 0.19577379359786987 -96.17407301961083
17400000000.0 0.18231165081103937 178.02615743692002 0.9722002975049095 -50.87005216748558 0.9722002975049099 -50.87005216748558 0.1952256708720488 -96.78861192089602
17700000000.0 0.18172015282581935 176.97527530068925 0.9721656668773997 -51.6960169099661 0.9721656668773994 -51.69601690996609 0.19445859502134116 -97.40606425935418
18000000000.0 0.18109594294368728 176.0026124532407 0.9721480980718736 -52.52362898781394 0.9721480980718736 -52.52362898781394 0.19350472060590942 -98.1028318036949
18300000000.0 0.18043238783053284 175.07950283449924 0.9721591070080329 -53.35166386393779 0.9721591070080325 -53.35166386393779 0.1922579232810516 -98.84659458023572
18600000000.0 0.17991203341061712 174.3030043355333 0.9721789617271104 -54.182467808311564 0.9721789617271103 -54.182467808311564 0.19069024097021708 -99.74042991471251
18900000000.0 0.17971056153699955 173.70593154452098 0.9722511700767669 -55.01574337929735 0.9722511700767668 -55.01574337929733 0.1885509343647404 -100.7897860391837
19200000000.0 0.18064003561142103 173.47213528890106 0.9723638046468208 -55.859916264614554 0.9723638046468207 -55.859916264614576 0.18552799016506602 -102.19198803189094
19500000000.0 0.1850807533022722 173.5775771980253 0.9722128560105192 -56.74559009979051 0.9722128560105192 -56.74559009979052 0.18078492506355676 -104.24153188538807
19800000000.0 0.19774151907856422 172.99884968267955 0.9702731585923644 -57.62885090286733 0.9702731585923644 -57.628850902867335 0.16869855929490846 -107.77681830464005
20100000000.0 0.2211110808911145 166.76350021762687 0.9676434664846281 -58.312939663907855 0.9676434664846278 -58.312939663907855 0.13399809752200006 -106.93994598519811
20400000000.0 0.20811947156340782 154.30780249083674 0.9690811728103408 -58.94862678143675 0.969081172810341 -58.94862678143674 0.13597398304381975 -87.94359262941407
20700000000.0 0.17974952558793905 150.93942046702554 0.9715218144242351 -59.75289528585748 0.9715218144242349 -59.75289528585748 0.1614587048813375 -86.92900381837445
21000000000.0 0.16379708696167 150.4421584814774 0.9727735281042286 -60.62601827108234 0.9727735281042281 -60.62601827108234 0.17166606457301042 -88.5673703462118
21300000000.0 0.14913605583455955 150.62090680182376 0.9730472483065722 -61.5038761403543 0.9730472483065724 -61.5038761403543 0.1806010482900748 -89.67414036616941
21600000000.0 0.13667201978273547 154.6679064263014 0.9725060302879477 -62.353111374940376 0.9725060302879474 -62.35311137494039 0.19122333958211127 -92.762252709648
21900000000.0 0.14308888158169647 158.57762050580197 0.9724163596935373 -63.1255633852688 0.9724163596935372 -63.1255633852688 0.18775420784901217 -97.85181881086999
22200000000.0 0.1491306337915317 157.30956692383026 0.9733179886467401 -63.91647277388468 0.9733179886467401 -63.916472773884664 0.1782145327329169 -100.17646806875129
22500000000.0 0.1490661615669999 155.0659814996801 0.9741946276748314 -64.74698733239208 0.9741946276748317 -64.74698733239207 0.1712856608539507 -100.72434847626732
22800000000.0 0.1470920090580756 153.06392599529434 0.9749015663343471 -65.58627840961962 0.9749015663343474 -65.58627840961962 0.16601970112605074 -101.00512625172394
23100000000.0 0.14418069893648985 151.26147769506753 0.9754830823429456 -66.42840329292994 0.9754830823429456 -66.42840329292994 0.16164184710285012 -101.2046831173995
23400000000.0 0.14092524484536118 149.5637029909846 0.9760164591164201 -67.27156510763254 0.9760164591164203 -67.27156510763254 0.15755054269488844 -101.40700748706584
23700000000.0 0.1374002843610601 147.90531928124588 0.9765146680207514 -68.11567608863452 0.9765146680207516 -68.11567608863452 0.15356912066417894 -101.58764359291185
24000000000.0 0.13372072025823112 146.27590080180272 0.9769995756082316 -68.9608677881151 0.9769995756082316 -68.96086778811508 0.14959570723133767 -101.77068426511151
24300000000.0 0.12987387254195124 144.62781487709623 0.9774715743433231 -69.8074799303087 0.9774715743433231 -69.8074799303087 0.14555909584109314 -101.92220634617841
24600000000.0 0.12590775767363976 142.97900326755146 0.9779391661645201 -70.65551383086017 0.9779391661645201 -70.65551383086017 0.14145949159496266 -102.06673600786921
24900000000.0 0.12180003046558813 141.28527692032495 0.9783986062877146 -71.50542721728245 0.9783986062877145 -71.50542721728246 0.13724783358265588 -102.1700771193582
25200000000.0 0.11758261461091421 139.5728438694365 0.9788551596569425 -72.35700791792483 0.9788551596569428 -72.35700791792483 0.13295186014528299 -102.25684524425968
25500000000.0 0.11323547451318919 137.79695379942666 0.979302719914203 -73.21081542147371 0.9793027199142033 -73.21081542147371 0.1285298105873056 -102.2929591829733
25800000000.0 0.10878309405360696 135.98529445166778 0.9797462339380723 -74.0664519885418 0.9797462339380719 -74.0664519885418 0.12401828732898307 -102.30107578861012
26100000000.0 0.10421113643313182 134.09061515260694 0.9801776613623592 -74.92458023472805 0.9801776613623588 -74.92458023472805 0.11937977516277513 -102.24691516668693
26400000000.0 0.09953803187522053 132.13871975979336 0.9806026767452718 -75.78463905643507 0.980602676745272 -75.78463905643508 0.11465389506364289 -102.14939113085897
26700000000.0 0.0947572556476017 130.0777052579669 0.9810114191209306 -76.64739943713282 0.9810114191209308 -76.64739943713282 0.10980697337879405 -101.9733555967492
27000000000.0 0.08988094295238175 127.92849753089358 0.981410731494515 -77.51214417000995 0.981410731494515 -77.51214417000995 0.10487974344280845 -101.73192540834935
27300000000.0 0.08491280778542498 125.63092958028203 0.9817889576679383 -78.37975731006173 0.981788957667938 -78.37975731006172 0.09984265884848974 -101.38780103294603
27600000000.0 0.07985807660893526 123.19667475086362 0.9821543245091933 -79.24936760397898 0.9821543245091929 -79.24936760397898 0.0947375810843941 -100.94525397896751
27900000000.0 0.07473447101093225 120.55047333583225 0.982493369605875 -80.12198665435828 0.9824933696058746 -80.12198665435827 0.08953964641864941 -100.36240918048998
28200000000.0 0.06953997743521892 117.68643828381761 0.9828158242355995 -80.99656555136221 0.9828158242355995 -80.99656555136221 0.08429340165963098 -99.62955327982006
28500000000.0 0.06431296073109276 114.50052178302958 0.9831063806890713 -81.87428013680334 0.9831063806890712 -81.87428013680334 0.07897965908682383 -98.69554948001809
28800000000.0 0.05904524573986007 110.95159986188816 0.9833763848399192 -82.75385630877997 0.9833763848399186 -82.75385630877999 0.07364956865336403 -97.52742738797936
29100000000.0 0.05380923947995429 106.87798102929656 0.9836085477297543 -83.63670210836074 0.9836085477297545 -83.63670210836074 0.06829144734845195 -96.05558941881321
29400000000.0 0.048596412752560936 102.1637641154961 0.9838160592350449 -84.52121896970445 0.9838160592350449 -84.52121896970445 0.06297163710280186 -94.20653820149319
29700000000.0 0.04354380646529541 96.53000920699425 0.983979307439202 -85.40918655203453 0.9839793074392018 -85.40918655203453 0.05768990393591781 -91.87434309771095
30000000000.0 0.038663126519774424 89.70465055740134 0.9841139142910473 -86.29847171320536 0.9841139142910476 -86.29847171320536 0.052546661192093086 -88.91414776211334
