! Created Thu Feb 13 09:01:00 2025
! List of port names and net name(s): example Port n = <port_name> <net_name1> <net_name2> ...
! Port 1 = P1 N__8 N__7 N_gnd 
! Port 2 = P4 N__9 N__11 N__10 
# hz S ma R 50
! 2 Port Network Data from data block
! freq  magS11  angS11  magS21  angS21  magS12  angS12  magS22  angS22  
!     
                 0     0.00113132175    -0.000887254661        0.998868678    -9.40797754e-06        0.998868678    -9.40797754e-06      0.00113132175    -0.000887257997
         300000000      0.0135033119        -78.5468355        0.996685394        -2.36876394        0.996685394        -2.36876394       0.0135020486        -78.5432268
         600000000       0.028013124        -86.4939056        0.995626571         -4.6490805        0.995626571         -4.6490805        0.028008602        -86.4816482
         900000000      0.0425295383        -91.0499836        0.994710385        -6.92704544        0.994710385        -6.92704544       0.0425205576        -91.0278675
           1.2e+09      0.0569577585        -94.5712719        0.993710021          -9.204162        0.993710021          -9.204162       0.0569436994        -94.5388046
           1.5e+09      0.0712663353        -97.6286657        0.992556083        -11.4792688        0.992556083        -11.4792688       0.0712468942         -97.585748
           1.8e+09      0.0854328051        -100.434559        0.991223132        -13.7510634        0.991223132        -13.7510634       0.0854077784        -100.381244
           2.1e+09      0.0994362985        -103.086973        0.989703027        -16.0183533        0.989703027        -16.0183533       0.0994054853        -103.023355
           2.4e+09       0.113256291        -105.637517        0.987995973        -18.2800684        0.987995973        -18.2800684         0.11321946         -105.56369
           2.7e+09        0.12687254        -108.115897        0.986106856        -20.5352458        0.986106856        -20.5352458        0.126829427        -108.031945
             3e+09        0.14026526        -110.540349        0.984043507        -22.7830147        0.984043507        -22.7830147        0.140215568        -110.446344
           3.3e+09       0.153415313        -112.922616        0.981815784        -25.0225869        0.981815784        -25.0225869        0.153358724         -112.81862
           3.6e+09       0.166304388         -115.27055        0.979435019        -27.2532512        0.979435019        -27.2532512        0.166240567        -115.156618
           3.9e+09       0.178915132        -117.589557        0.976913655        -29.4743696        0.976913655        -29.4743696        0.178843739        -117.465742
           4.2e+09       0.191231258        -119.883458        0.974264986        -31.6853757        0.974264986        -31.6853757        0.191151954        -119.749809
           4.5e+09       0.203237626        -122.155007        0.971502944        -33.8857741        0.971502944        -33.8857741        0.203150081        -122.011576
           4.8e+09       0.214920296        -124.406235        0.968641926        -36.0751391        0.968641926        -36.0751391         0.21482419        -124.253075
           5.1e+09       0.226266558        -126.638669        0.965696643        -38.2531148        0.965696643        -38.2531148        0.226161592        -126.475839
           5.4e+09       0.237264947        -128.853486        0.962681979        -40.4194145        0.962681979        -40.4194145        0.237150845        -128.681047
           5.7e+09       0.247905239        -131.051615        0.959612871        -42.5738196        0.959612871        -42.5738196         0.24778175        -130.869638
             6e+09        0.25817843        -133.233815        0.956504194        -44.7161784        0.956504194        -44.7161784        0.258045336        -133.042376
           6.3e+09       0.268076705        -135.400727         0.95337066        -46.8464053         0.95337066        -46.8464053        0.267933817        -135.199909
           6.6e+09       0.277593392         -137.55291        0.950226727        -48.9644785        0.950226727        -48.9644785        0.277440558        -137.342808
           6.9e+09       0.286722912        -139.690876        0.947086516        -51.0704383        0.947086516        -51.0704383        0.286560012        -139.471593
           7.2e+09        0.29546071        -141.815106        0.943963742        -53.1643849        0.943963742        -53.1643849        0.295287661        -141.586755
           7.5e+09       0.303803192        -143.926065        0.940871651        -55.2464755        0.940871651        -55.2464755        0.303619949        -143.688772
           7.8e+09       0.311747653        -146.024218        0.937822969         -57.316922        0.937822969         -57.316922        0.311554205        -145.778119
           8.1e+09       0.319292197        -148.110035        0.934829857        -59.3759882        0.934829857        -59.3759882         0.31908857        -147.855279
           8.4e+09        0.32643566        -150.183996         0.93190388        -61.4239864         0.93190388        -61.4239864        0.326221914        -149.920745
           8.7e+09       0.333177534        -152.246597        0.929055978         -63.461275        0.929055978         -63.461275        0.332953766        -151.975028
             9e+09       0.339517886        -154.298352        0.926296447        -65.4882551        0.926296447        -65.4882551        0.339284224        -154.018656
           9.3e+09       0.345457284        -156.339795         0.92363493        -67.5053677         0.92363493        -67.5053677        0.345213889        -156.052178
           9.6e+09       0.350996717        -158.371479        0.921080406        -69.5130908        0.921080406        -69.5130908        0.350743781        -158.076165
           9.9e+09       0.356137527        -160.393978        0.918641191        -71.5119365        0.918641191        -71.5119365        0.355875272        -160.091207
          1.02e+10       0.360881337        -162.407887        0.916324941        -73.5024482        0.916324941        -73.5024482        0.360610015        -162.097916
          1.05e+10       0.365229986        -164.413818         0.91413866        -75.4851984         0.91413866        -75.4851984        0.364949875        -164.096926
          1.08e+10       0.369185461        -166.412404        0.912088708        -77.4607862        0.912088708        -77.4607862        0.368896866        -166.088889
          1.11e+10       0.372749839        -168.404293        0.910180816        -79.4298352        0.910180816        -79.4298352         0.37245309        -168.074476
          1.14e+10       0.375925226        -170.390153        0.908420101        -81.3929915        0.908420101        -81.3929915        0.375620678        -170.054377
          1.17e+10         0.3787137        -172.370663        0.906811084        -83.3509227        0.906811084        -83.3509227        0.378401728        -172.029298
           1.2e+10       0.381117248        -174.346522        0.905357706        -85.3043168        0.905357706        -85.3043168        0.380798254        -173.999962
          1.23e+10       0.383137713        -176.318438        0.904063351        -87.2538811        0.904063351        -87.2538811        0.382812116        -175.967109
          1.26e+10       0.384776724        -178.287137        0.902930868        -89.2003432        0.902930868        -89.2003432        0.384444965        -177.931494
          1.29e+10       0.386035624         179.746647        0.901962589        -91.1444515        0.901962589        -91.1444515        0.385698165        -179.893888
          1.32e+10        0.38691539         177.782161        0.901160362        -93.0869777        0.901160362        -93.0869777        0.386572708          178.14492
          1.35e+10       0.387416522         175.818643        0.900525569        -95.0287205        0.900525569        -95.0287205        0.387069113         176.184126
          1.38e+10       0.387538907         173.855311        0.900059162         -96.970512        0.900059162         -96.970512        0.387187282         174.222902
          1.41e+10       0.387281638          171.89137        0.899761691        -98.9132272        0.899761691        -98.9132272        0.386926321         172.260401
          1.44e+10       0.386642746         169.926003        0.899633342        -100.857799        0.899633342        -100.857799        0.386284272         170.295747
          1.47e+10       0.385618825         167.958371        0.899673973        -102.805239        0.899673973        -102.805239         0.38525773         168.328034
           1.5e+10       0.384204455         165.987611        0.899883151        -104.756677        0.899883151        -104.756677         0.38384127         166.356316
          1.53e+10       0.382391311         164.012832        0.900260176        -106.713411        0.900260176        -106.713411        0.382026544         164.379607
          1.56e+10        0.38016672         162.033126        0.900804064        -108.676999        0.900804064        -108.676999        0.379800828         162.396879
          1.59e+10       0.377511253         160.047594        0.901513404        -110.649414        0.901513404        -110.649414        0.377144581         160.407076
          1.62e+10       0.374394478         158.055433        0.902385886        -112.633308        0.902385886        -112.633308        0.374027143         158.409182
          1.65e+10        0.37076709         156.056183        0.903416906        -114.632513        0.903416906        -114.632513        0.370398725         156.402426
          1.68e+10       0.366545344         154.050446        0.904595446        -116.653032        0.904595446        -116.653032        0.366174451         154.386925
          1.71e+10        0.36157776         152.042119        0.905891239        -118.705157        0.905891239        -118.705157        0.361199849         152.365741
          1.74e+10       0.355567359         150.046146        0.907210117        -120.808462        0.907210117        -120.808462        0.355168365         150.352406
          1.77e+10       0.347874361         148.120464        0.908212334        -123.004411        0.908212334        -123.004411        0.347408163         148.404635
           1.8e+10       0.337060396         146.535951        0.907409232        -125.387331        0.907409232        -125.387331        0.336480834         146.801401
          1.83e+10        0.32289957         146.836988        0.896461616        -128.024677        0.896461616        -128.024677        0.322049944         147.079237
          1.86e+10       0.340810681          149.14431        0.870793517        -128.728237        0.870793517        -128.728237        0.339642667         149.484954
          1.89e+10       0.354253106         144.000725        0.889843561        -129.367982        0.889843561        -129.367982        0.353556563          144.35507
          1.92e+10       0.347004193         140.236949        0.902678658          -131.4381        0.902678658          -131.4381        0.346506729         140.556258
          1.95e+10       0.338528738         137.472161           0.909206        -133.603231           0.909206        -133.603231        0.338110901          137.75899
          1.98e+10       0.330378265         135.051426        0.913540076         -135.74334        0.913540076         -135.74334        0.330003544         135.307576
          2.01e+10       0.322424321         132.769576        0.916985372        -137.863527        0.916985372        -137.863527        0.322079047         132.994805
          2.04e+10       0.314505393         130.551167        0.920013085        -139.973693        0.920013085        -139.973693        0.314183724         130.743965
          2.07e+10       0.306520205         128.363284        0.922821566        -142.080539        0.922821566        -142.080539        0.306219556          128.52129
           2.1e+10        0.29840974         126.189563        0.925503401        -144.188286        0.925503401        -144.188286        0.298129098         126.309764
          2.13e+10       0.290140457         124.021027        0.928104189        -146.299621        0.928104189        -146.299621        0.289879668         124.099829
          2.16e+10       0.281694334         121.852363        0.930646349        -148.416296        0.930646349        -148.416296        0.281453757         121.885606
          2.19e+10       0.273063208         119.680231        0.933139896        -150.539462        0.933139896        -150.539462        0.272843544         119.663165
          2.22e+10       0.264245515         117.502425        0.935587785        -152.669881        0.935587785        -152.669881        0.264047717         117.429662
          2.25e+10       0.255244351          115.31743        0.937988774        -154.808039        0.937988774        -154.808039        0.255069571         115.182867
          2.28e+10       0.246066275         113.124164        0.940339049        -156.954224        0.940339049        -156.954224        0.245915844         112.920886
          2.31e+10       0.236720554         110.921819        0.942633224        -159.108577        0.942633224        -159.108577        0.236595971          110.64198
          2.34e+10       0.227218659         108.709762        0.944864964        -161.271123        0.944864964        -161.271123        0.227121596         108.344434
          2.37e+10       0.217573924         106.487461        0.947027417        -163.441794        0.947027417        -163.441794        0.217506241         106.026444
           2.4e+10       0.207801304         104.254426        0.949113513        -165.620448        0.949113513        -165.620448        0.207765068         103.686022
          2.43e+10       0.197917192         102.010155        0.951116183         -167.80688        0.951116183         -167.80688        0.197914715          101.32088
          2.46e+10       0.187939279         99.7540861        0.953028527        -170.000837        0.953028527        -170.000837        0.187973163         98.9283108
          2.49e+10       0.177886438         97.4855312        0.954843942        -172.202021        0.954843942        -172.202021        0.177959641         96.5050332
          2.52e+10       0.167778629         95.2036076        0.956556218        -174.410106        0.956556218        -174.410106        0.167894543         94.0469953
          2.55e+10       0.157636808         92.9071421        0.958159614        -176.624738        0.958159614        -176.624738        0.157799377         91.5491165
          2.58e+10       0.147482858         90.5945438        0.959648902         -178.84555        0.959648902         -178.84555        0.147696725         89.0049376
          2.61e+10       0.137339514         88.2636266        0.961019399         178.927835        0.961019399         178.927835        0.137610231         86.4061375
          2.64e+10       0.127230311         85.9113553        0.962266966         176.695793        0.962266966         176.695793        0.127564623          83.741851
          2.67e+10       0.117179535         83.5334713        0.963387985          174.45869        0.963387985          174.45869        0.117585787         80.9976865
           2.7e+10       0.107212198         81.1239267        0.964379301         172.216876        0.964379301         172.216876         0.10770091         78.1542784
          2.73e+10       0.097354033         78.6740052        0.965238129         169.970672        0.965238129         169.970672       0.0979387478         75.1851032
          2.76e+10       0.087631531         76.1709107        0.965961916         167.720362        0.965961916         167.720362       0.0883300849         72.0530939
          2.79e+10      0.0780720367         73.5954216        0.966548143         165.466183        0.966548143         165.466183       0.0789085192         68.7052406
          2.82e+10      0.0687039524         70.9178254         0.96699405         163.208312         0.96699405         163.208312       0.0697118256         65.0636947
          2.85e+10      0.0595571392         68.0905196         0.96729626         160.946857         0.96729626         160.946857       0.0607843801         61.0106033
          2.88e+10      0.0506637205         65.0337145        0.967450258         158.681842        0.967450258         158.681842       0.0521816474         56.3613183
          2.91e+10      0.0420597944         61.6056836        0.967449652         156.413196        0.967449652         156.413196       0.0439788875         50.8155404
          2.94e+10      0.0337894479         57.5347274        0.967285082         154.140744        0.967285082         154.140744       0.0362889303         43.8669871
          2.97e+10      0.0259154743          52.243205         0.96694239         151.864194         0.96694239         151.864194        0.029299955         34.6446378
             3e+10       0.018553245          44.313243        0.966398669         149.583186        0.966398669         149.583186       0.0233544962         21.7128777
