! Created Thu Feb 13 09:01:06 2025
! List of port names and net name(s): example Port n = <port_name> <net_name1> <net_name2> ...
! Port 1 = P1 N__11 P2 N__10 
! Port 2 = P4 N__11 N__10 P2 
# hz S ma R 50
! 2 Port Network Data from data block
! freq  magS11  angS11  magS21  angS21  magS12  angS12  magS22  angS22  
!     
                 0      0.0011876927     -0.00173859324        0.998812307    -1.11670518e-05        0.998812307    -1.11670518e-05       0.0011876927     -0.00173862162
         300000000      0.0205021087         -82.771357        0.996218847        -2.80786389        0.996218847        -2.80786389       0.0205080469        -82.7742982
         600000000      0.0421048601          -89.64019        0.994791159        -5.52342238        0.994791159        -5.52342238       0.0421244345        -89.6620272
         900000000      0.0636137713        -93.9786489        0.993229091        -8.23506201        0.993229091        -8.23506201       0.0636502375         -94.021247
           1.2e+09      0.0849230139        -97.5612549        0.991328228        -10.9414428        0.991328228        -10.9414428       0.0849779813        -97.6250661
           1.5e+09       0.105969449        -100.804295         0.98903542         -13.640014         0.98903542         -13.640014        0.106043825        -100.889248
           1.8e+09       0.126698981        -103.859417        0.986340376        -16.3282398        0.986340376        -16.3282398        0.126793503         -103.96529
           2.1e+09       0.147061439        -106.795372         0.98325153        -19.0037668         0.98325153        -19.0037668        0.147176885         -106.92193
           2.4e+09        0.16700984        -109.647658        0.979787523        -21.6644511        0.979787523        -21.6644511        0.167147096        -109.794699
           2.7e+09       0.186500568        -112.436242         0.97597337        -24.3083604         0.97597337        -24.3083604        0.186660627        -112.603595
             3e+09       0.205493705        -115.173038        0.971838387         -26.933772        0.971838387         -26.933772         0.20567765        -115.360566
           3.3e+09       0.223953314        -117.865483        0.967414872        -29.5391719        0.967414872        -29.5391719        0.224162287        -118.073069
           3.6e+09       0.241847622        -120.518392        0.962737163        -32.1232535        0.962737163        -32.1232535        0.242082805        -120.745932
           3.9e+09        0.25914911        -123.134989        0.957840889        -34.6849164        0.957840889        -34.6849164        0.259411695        -123.382388
           4.2e+09       0.275834506        -125.717519        0.952762354        -37.2232633        0.952762354        -37.2232633        0.276125675        -125.984683
           4.5e+09       0.291884696        -128.267617        0.947538009         -39.737597        0.947538009         -39.737597        0.292205599        -128.554451
           4.8e+09       0.307284558        -130.786547        0.942203992        -42.2274144        0.942203992        -42.2274144        0.307636299        -131.092948
           5.1e+09       0.322022751        -133.275351         0.93679574        -44.6924004         0.93679574        -44.6924004        0.322406373        -133.601207
           5.4e+09        0.33609145        -135.734952        0.931347661        -47.1324191        0.931347661        -47.1324191        0.336507924         -136.08014
           5.7e+09       0.349486051         -138.16622         0.92589286        -49.5475052         0.92589286        -49.5475052        0.349936265        -138.530601
             6e+09       0.362204856        -140.570015        0.920462925        -51.9378534        0.920462925        -51.9378534        0.362689613        -140.953433
           6.3e+09       0.374248745        -142.947216        0.915087756         -54.303808        0.915087756         -54.303808        0.374768754        -143.349496
           6.6e+09       0.385620843        -145.298738         0.90979545         -56.645851         0.90979545         -56.645851        0.386176721        -145.719683
           6.9e+09       0.396326194        -147.625544        0.904612221        -58.9645912        0.904612221        -58.9645912        0.396918463        -148.064935
           7.2e+09       0.406371443        -149.928647        0.899562359        -61.2607528        0.899562359        -61.2607528        0.407000531        -150.386241
           7.5e+09       0.415764532        -152.209118        0.894668224        -63.5351637        0.894668224        -63.5351637        0.416430776        -152.684642
           7.8e+09       0.424514418        -154.468077        0.889950265        -65.7887452        0.889950265        -65.7887452        0.425218065        -154.961233
           8.1e+09       0.432630803        -156.706698        0.885427059        -68.0225013        0.885427059        -68.0225013        0.433372014        -157.217155
           8.4e+09       0.440123895        -158.926199        0.881115375        -70.2375095        0.881115375        -70.2375095        0.440902751        -159.453595
           8.7e+09       0.447004184        -161.127844        0.877030244         -72.434911        0.877030244         -72.434911        0.447820686        -161.671782
             9e+09        0.45328224        -163.312934        0.873185042        -74.6159035        0.873185042        -74.6159035        0.454136319        -163.872981
           9.3e+09        0.45896854        -165.482808        0.869591582         -76.781733        0.869591582         -76.781733        0.459860055        -166.058492
           9.6e+09         0.4640733        -167.638832        0.866260204        -78.9336874        0.866260204        -78.9336874        0.465002046         -168.22964
           9.9e+09       0.468606336        -169.782402         0.86319987        -81.0730912         0.86319987        -81.0730912        0.469572047        -170.387776
          1.02e+10       0.472576938        -171.914937        0.860418262        -83.2013002        0.860418262        -83.2013002        0.473579289        -172.534274
          1.05e+10       0.475993748        -174.037877        0.857921868        -85.3196981        0.857921868        -85.3196981        0.477032361        -174.670523
          1.08e+10       0.478864659        -176.152681        0.855716078         -87.429694        0.855716078         -87.429694        0.479939103         -176.79793
          1.11e+10       0.481196708        -178.260828        0.853805266        -89.5327204        0.853805266        -89.5327204        0.482306501        -178.917917
          1.14e+10       0.482995972         179.636189        0.852192879        -91.6302338        0.852192879        -91.6302338        0.484140583         178.968083
          1.17e+10       0.484267452         177.536855        0.850881515        -93.7237162        0.850881515        -93.7237162        0.485446301          176.85862
           1.2e+10        0.48501494         175.439637        0.849873009          -95.81468        0.849873009          -95.81468        0.486227401          174.75223
          1.23e+10       0.485240851         173.342978        0.849168518        -97.9046746        0.849168518        -97.9046746        0.486486244          172.64743
          1.26e+10       0.484945986         171.245292        0.848768614        -99.9953001        0.848768614        -99.9953001        0.486223582         170.542713
          1.29e+10       0.484129214         169.144954        0.848673389        -102.088226        0.848673389        -102.088226        0.485438226         168.436539
          1.32e+10       0.482786981          167.04029        0.848882578        -104.185221        0.848882578        -104.185221        0.484126561         166.327322
          1.35e+10       0.480912563         164.929557        0.849395722        -106.288205        0.849395722        -106.288205        0.482281793         164.213414
          1.38e+10       0.478494871         162.810919        0.850212368        -108.399323        0.850212368        -108.399323         0.47989275         162.093078
          1.41e+10       0.475516464         160.682415        0.851332326        -110.521078        0.851332326        -110.521078        0.476941889         159.964454
          1.44e+10       0.471950115         158.541919        0.852755979        -112.656559        0.852755979        -112.656559        0.473401849         157.825514
          1.47e+10       0.467752537         156.387106        0.854484543         -114.80985        0.854484543         -114.80985        0.469229166         155.674022
           1.5e+10       0.462852225         154.215483        0.856519868        -116.986831        0.856519868        -116.986831        0.464352073         153.507549
          1.53e+10       0.457123979         152.024719         0.85886213        -119.196849         0.85886213        -119.196849        0.458644977         151.323763
          1.56e+10       0.450330072         149.814248        0.861498474        -121.456575        0.861498474        -121.456575        0.451869557          149.12194
          1.59e+10        0.44196688         147.592888        0.864349801        -123.800068        0.864349801        -123.800068        0.443521454         146.910263
          1.62e+10       0.430806687         145.421067        0.866983019        -126.309052        0.866983019        -126.309052        0.432371868          144.74635
          1.65e+10       0.413577251         143.726136        0.866551595        -129.207763        0.866551595        -129.207763        0.415082015         143.041496
          1.68e+10       0.394316809         145.836782        0.840693141        -132.429123        0.840693141        -132.429123        0.395110228         145.157586
          1.71e+10       0.437742773         145.053149        0.827444503        -131.252043        0.827444503        -131.252043        0.438814393         144.531341
          1.74e+10       0.435356927         139.650159        0.854989213        -132.976548        0.854989213        -132.976548        0.436856655         139.154156
          1.77e+10       0.423881876         136.255652        0.867390204        -135.413363        0.867390204        -135.413363        0.425490141         135.786501
           1.8e+10       0.412695278         133.463798        0.874966853        -137.831089        0.874966853        -137.831089        0.414345403         133.031753
          1.83e+10       0.401826423         130.874008        0.880881583        -140.218268        0.880881583        -140.218268        0.403498084         130.487738
          1.86e+10       0.390997095         128.361795        0.886098077        -142.592358        0.886098077        -142.592358        0.392681246         128.029484
          1.89e+10       0.380035075         125.878188        0.890977145        -144.965095        0.890977145        -144.965095        0.381726253         125.608239
          1.92e+10       0.368844413         123.400215        0.895672568        -147.343493        0.895672568        -147.343493        0.370538478         123.201634
          1.95e+10       0.357372895         120.915554        0.900253277        -149.731795        0.900253277        -149.731795         0.35906621         120.798225
          1.98e+10       0.345593944         118.416832        0.904748574        -152.132616        0.904748574        -152.132616        0.347283026         118.391746
          2.01e+10       0.333497001         115.899185        0.909167347        -154.547564        0.909167347        -154.547564        0.335178344         115.978683
          2.04e+10       0.321082282          113.35909        0.913507201        -156.977588        0.913507201        -156.977588        0.322752261         113.557128
          2.07e+10       0.308357808         110.793742        0.917759212        -159.423172        0.917759212        -159.423172        0.310012608         111.126201
           2.1e+10       0.295337655         108.200684        0.921910615        -161.884459        0.921910615        -161.884459        0.296973216         108.685748
          2.13e+10       0.282040875          105.57755        0.925946461        -164.361327        0.925946461        -164.361327        0.283652836         106.236163
          2.16e+10       0.268490794         102.921868        0.929850698        -166.853436        0.929850698        -166.853436        0.270074434         103.778309
          2.19e+10       0.254714528         100.230861        0.933606957        -169.360272        0.933606957        -169.360272        0.256264694         101.313467
          2.22e+10       0.240742627         97.5012456        0.937199126        -171.881168        0.937199126        -171.881168        0.242253642         98.8433315
          2.25e+10       0.226608783         94.7289785        0.940611823        -174.415333        0.940611823        -174.415333        0.228074331         96.3700304
          2.28e+10       0.212349585         91.9089364        0.943830773         -176.96187        0.943830773         -176.96187        0.213762552         93.8961736
          2.31e+10       0.198004298          89.034484        0.946843121        -179.519799        0.946843121        -179.519799        0.199356557          91.424938
          2.34e+10       0.183614672         86.0968724        0.949637693         177.911929        0.949637693         177.911929        0.184896795         88.9602007
          2.37e+10       0.169224788          83.084377        0.952205204         175.334406        0.952205204         175.334406        0.170425625          86.506742
           2.4e+10       0.154880969         79.9810239        0.954538406         172.748749        0.954538406         172.748749        0.155987058         84.0705578
          2.43e+10       0.140631796         76.7646554        0.956632194         170.156081        0.956632194         170.156081        0.141626481         81.6593442
          2.46e+10       0.126528311           73.40389        0.958483641         167.557505        0.958483641         167.557505        0.127390426         79.2832719
          2.49e+10       0.112624564         69.8531733        0.960091981         164.954085        0.960091981         164.954085        0.113326366         76.9562636
          2.52e+10      0.0989787463         66.0443788        0.961458515         162.346819        0.961458515         162.346819       0.0994825802         74.6981943
          2.55e+10      0.0856554846         61.8718627        0.962586444         159.736616        0.962586444         159.736616       0.0859081462         72.5388909
          2.58e+10      0.0727304637         57.1643856        0.963480603         157.124263        0.963480603         157.124263       0.0726531387          70.525917
          2.61e+10      0.0603001388         51.6289859         0.96414709         154.510401         0.96414709         154.510401       0.0597692605         68.7411133
          2.64e+10      0.0485036205         44.7310926        0.964592733         151.895484        0.964592733         151.895484       0.0473114767         67.3400749
          2.67e+10      0.0375765377         35.4239535        0.964824346         149.279737        0.964824346         149.279737       0.0353425583         66.6628636
           2.7e+10      0.0279947494         21.5568722         0.96484765         146.663105         0.96484765         146.663105       0.0239488921         67.6289571
          2.73e+10      0.0208374264       -0.778508993        0.964665624         144.045181        0.964665624         144.045181       0.0133251423         73.8508434
          2.76e+10      0.0180951887        -33.0888975        0.964275775         141.425108        0.964275775         141.425108      0.00490748255         115.032659
          2.79e+10      0.0206235137        -63.5924015        0.963664808         138.801423        0.963664808         138.801423      0.00857194356        -160.244517
          2.82e+10      0.0262363722        -83.3051646        0.962794605         136.171903        0.962794605         136.171903         0.01684575        -146.681378
          2.85e+10      0.0328419883        -95.1495209        0.961559853         133.535293        0.961559853         133.535293       0.0247658161        -143.488621
          2.88e+10      0.0396136237        -102.794351        0.959943122         130.899494        0.959943122         130.899494       0.0321144368        -142.734348
          2.91e+10      0.0459471116        -108.025157        0.957974166         128.247006        0.957974166         128.247006        0.038453391        -142.766154
          2.94e+10      0.0518453298        -111.274842        0.955131983         125.575847        0.955131983         125.575847        0.043844809        -142.331665
          2.97e+10      0.0577072556        -112.845821        0.950933474         122.899786        0.950933474         122.899786       0.0486742419         -140.88662
             3e+10      0.0645150518        -113.000173        0.944685168         120.257003        0.944685168         120.257003       0.0539447125        -138.003842
