! Created Thu Feb 13 09:01:10 2025
! List of port names and net name(s): example Port n = <port_name> <net_name1> <net_name2> ...
! Port 1 = P1 N__11 P2 N_gnd 
! Port 2 = P4 N__11 N_gnd P2 
# hz S ma R 50
! 2 Port Network Data from data block
! freq  magS11  angS11  magS21  angS21  magS12  angS12  magS22  angS22  
!     
                 0     0.00124475877     -0.00139793166        0.998755241    -1.16069191e-05        0.998755241    -1.16069191e-05      0.00124475877     -0.00139788571
         300000000      0.0188361864        -81.6229434        0.996129476        -2.94067568        0.996129476        -2.94067568       0.0188348002        -81.6293106
         600000000      0.0388928828        -89.0897598        0.994703869         -5.7794127        0.994703869         -5.7794127       0.0388917417        -89.1026742
         900000000      0.0588669211        -93.7844295        0.993272283        -8.61478932        0.993272283        -8.61478932       0.0588674962        -93.8059161
           1.2e+09      0.0786491888        -97.6239503        0.991579096        -11.4463376        0.991579096        -11.4463376       0.0786520801         -97.654556
           1.5e+09       0.098185342        -101.078331        0.989558633        -14.2714371        0.989558633        -14.2714371       0.0981908291        -101.118152
           1.8e+09       0.117427153        -104.321283          0.9871956        -17.0876452          0.9871956        -17.0876452        0.117435395        -104.370269
           2.1e+09       0.136328636        -107.431949        0.984494644        -19.8927813        0.984494644        -19.8927813        0.136339757        -107.489993
           2.4e+09       0.154846068        -110.451357        0.981470653        -22.6848941        0.981470653        -22.6848941        0.154860187        -110.518328
           2.7e+09       0.172938409        -113.402717        0.978144738        -25.4622402        0.978144738        -25.4622402        0.172955655        -113.478472
             3e+09       0.190567688        -116.300009        0.974542179         -28.223273        0.974542179         -28.223273        0.190588208        -116.384395
           3.3e+09       0.207699299        -119.152066        0.970691169        -30.9666392        0.970691169        -30.9666392         0.20772325        -119.244916
           3.6e+09       0.224302183        -121.964694        0.966621939        -33.6911771        0.966621939        -33.6911771        0.224329736        -122.065827
           3.9e+09       0.240348929         -124.74185        0.962366075        -36.3959161        0.962366075        -36.3959161        0.240380263        -124.851068
           4.2e+09       0.255815767        -127.486338        0.957955957        -39.0800759        0.957955957        -39.0800759        0.255851068        -127.603417
           4.5e+09        0.27068249        -130.200233        0.953424295        -41.7430663        0.953424295        -41.7430663        0.270721953        -130.324923
           4.8e+09       0.284932281        -132.885157        0.948803721        -44.3844867        0.948803721        -44.3844867         0.28497611        -133.017166
           5.1e+09        0.29855144         -135.54246         0.94412646        -47.0041273         0.94412646        -47.0041273        0.298599857        -135.681443
           5.4e+09       0.311528986        -138.173346         0.93942407        -49.6019749         0.93942407        -49.6019749        0.311582248        -138.318881
           5.7e+09       0.323856003         -140.77898        0.934727275        -52.1782307        0.934727275        -52.1782307        0.323914448        -140.930524
             6e+09       0.335524469        -143.360578        0.930065925        -54.7333586        0.930065925        -54.7333586        0.335588612        -143.517381
           6.3e+09         0.3465246        -145.919555        0.925469192        -57.2682245        0.925469192        -57.2682245        0.346595412        -146.080474
           6.6e+09       0.356837245        -148.457803        0.920965963        -59.7845624        0.920965963        -59.7845624        0.356916916         -148.62084
           6.9e+09       0.366397128        -150.978609        0.916586317        -62.2866256        0.916586317        -62.2866256        0.366494653        -151.137848
           7.2e+09       0.374842523        -153.480483        0.912296486        -64.7973669        0.912296486        -64.7973669        0.375029307        -153.617639
           7.5e+09       0.384820053        -155.379911        0.904777949         -67.132612        0.904777949         -67.132612        0.385779519         -155.67269
           7.8e+09       0.393003955        -158.269349         0.90358511        -69.5683286         0.90358511        -69.5683286        0.393149452         -158.51095
           8.1e+09       0.399954394        -160.750211        0.900068753        -72.0037531        0.900068753        -72.0037531        0.400066122        -160.978788
           8.4e+09        0.40643827        -163.184844        0.896585851        -74.4130092        0.896585851        -74.4130092         0.40654592         -163.41066
           8.7e+09       0.412363781        -165.597202        0.893280146        -76.8042638        0.893280146        -76.8042638        0.412472726        -165.822998
             9e+09       0.417710728        -167.993259        0.890189608        -79.1806209        0.890189608        -79.1806209        0.417822565        -168.219896
           9.3e+09       0.422476484         -170.37591        0.887333304        -81.5440433        0.887333304        -81.5440433        0.422591769        -170.603548
           9.6e+09       0.426664132        -172.747201        0.884724003        -83.8961487        0.884724003        -83.8961487        0.426783032        -172.975663
           9.9e+09       0.430278884        -175.108873        0.882371319        -86.2384365        0.882371319        -86.2384365        0.430401378        -175.337793
          1.02e+10       0.433326695        -177.462551        0.880282774        -88.5723662        0.880282774        -88.5723662        0.433452658        -177.691437
          1.05e+10       0.435813623        -179.809812        0.878464275        -90.8993893        0.878464275        -90.8993893        0.435942854         179.961919
          1.08e+10        0.43774547         177.847784        0.876920353        -93.2209644        0.876920353        -93.2209644         0.43787771         177.620786
          1.11e+10       0.439127553         175.508679        0.875654332        -95.5385647        0.875654332        -95.5385647        0.439262487         175.283659
          1.14e+10       0.439964527         173.171303        0.874668439        -97.8536854        0.874668439        -97.8536854        0.440101781         172.949013
          1.17e+10       0.440260224          170.83407        0.873963915        -100.167852        0.873963915        -100.167852        0.440399361         170.615288
           1.2e+10       0.440017437         168.495361        0.873541105        -102.482634        0.873541105        -102.482634        0.440157959         168.280879
          1.23e+10       0.439236976         166.153481        0.873399381        -104.799704        0.873399381        -104.799704        0.439378773         165.944158
          1.26e+10       0.437923898         163.807523        0.873535587        -107.120405        0.873535587        -107.120405        0.438066406         163.603165
          1.29e+10       0.436071484         161.454135        0.873953364        -109.447148        0.873953364        -109.447148        0.436211362         161.255948
          1.32e+10       0.433678564          159.09256        0.874645299        -111.781677        0.874645299        -111.781677        0.433815181         158.900291
          1.35e+10       0.430740829          156.72059        0.875608621        -114.126449        0.875608621        -114.126449        0.430871157         156.533115
          1.38e+10       0.427253505         154.335921        0.876836403        -116.484643        0.876836403        -116.484643        0.427370972         154.149877
          1.41e+10       0.423221014         151.935649        0.878309197        -118.861206        0.878309197        -118.861206        0.423306896         151.741526
          1.44e+10       0.418719117         149.513407        0.879929256        -121.267203        0.879929256        -121.267203        0.418682901         149.278042
          1.47e+10       0.414607742         146.924804        0.879969781        -123.728288        0.879969781        -123.728288        0.412529982         146.462814
           1.5e+10       0.405378446         144.515182         0.88495964        -125.986826         0.88495964        -125.986826        0.404937951         144.670981
          1.53e+10       0.398554985         142.057072        0.887856856        -128.532819        0.887856856        -128.532819        0.398479931         142.102622
          1.56e+10       0.389897064         139.485099        0.891097552        -131.116708        0.891097552        -131.116708        0.389737014         139.519951
          1.59e+10       0.378308911         136.813527        0.895187986        -133.851559        0.895187986        -133.851559        0.378213609         136.844027
          1.62e+10       0.359711924         133.992522        0.900474619        -137.018611        0.900474619        -137.018611        0.359527236         133.959357
          1.65e+10       0.304955431         132.251375        0.902300769        -142.504037        0.902300769        -142.504037        0.303580215         131.844345
          1.68e+10       0.453855536         142.034063        0.804103988        -135.147784        0.804103988        -135.147784        0.452464621         143.009832
          1.71e+10       0.398937547          130.46294         0.88031246        -140.374003         0.88031246        -140.374003        0.398952162         131.071549
          1.74e+10        0.37784635         126.644679        0.892881266        -143.655783        0.892881266        -143.655783        0.377946529         127.221936
          1.77e+10       0.363459707         123.593956        0.899544291        -146.498882        0.899544291        -146.498882        0.363572727         124.203578
           1.8e+10       0.351123326         120.744761        0.904583982         -149.20315        0.904583982         -149.20315        0.351234394         121.414931
          1.83e+10       0.339542251         117.960354        0.908946694        -151.853604        0.908946694        -151.853604        0.339640436         118.710602
          1.86e+10        0.32816371         115.201548        0.913011891        -154.480406        0.913011891        -154.480406        0.328273105         116.050087
          1.89e+10       0.316889414         112.437457        0.916842199        -157.105228        0.916842199        -157.105228        0.316994654         113.398061
          1.92e+10       0.305554149         109.654118        0.920497911        -159.732822        0.920497911        -159.732822        0.305658538         110.745457
          1.95e+10       0.294127133          106.84074        0.923989804        -162.369083        0.923989804        -162.369083        0.294237988         108.083362
          1.98e+10       0.282605522         103.982862        0.927291681        -165.018335        0.927291681        -165.018335         0.28273678         105.401325
          2.01e+10       0.270991318         101.055298        0.930328873        -167.685823        0.930328873        -167.685823        0.271169178         102.682008
          2.04e+10       0.259388045         98.0922934        0.932505824        -170.363807        0.932505824        -170.363807        0.259886341         99.9706908
          2.07e+10       0.247709072         94.7422762        0.934398748        -173.057146        0.934398748        -173.057146        0.248464156         96.8850867
           2.1e+10       0.234191806         90.9425811         0.93400305        -175.678676         0.93400305        -175.678676        0.235860695         93.3357436
          2.13e+10       0.215694268         87.7448062        0.935823485        -177.995445        0.935823485        -177.995445        0.217880105         90.0273864
          2.16e+10         0.2017643          85.973045        0.943110203         179.430483        0.943110203         179.430483        0.202707862         88.3508639
          2.19e+10       0.190671263         83.4807824        0.947808079         176.663278        0.947808079         176.663278        0.190903616         86.2694631
          2.22e+10       0.179291568           80.56224        0.950947091         173.897812        0.950947091         173.897812        0.179205046         83.8284823
          2.25e+10       0.167605921         77.4624543        0.953455026         171.143854        0.953455026         171.143854        0.167331996         81.2545172
          2.28e+10       0.155803393         74.2455538        0.955613357          168.39497        0.955613357          168.39497         0.15538576         78.6276732
          2.31e+10       0.144016481         70.9223846        0.957515897         165.646902        0.957515897         165.646902        0.143465914         75.9779637
          2.34e+10       0.132338159         67.4850087        0.959199876         162.897276        0.959199876         162.897276        0.131649399          73.318239
          2.37e+10       0.120840363         63.9156095        0.960683245         160.144572        0.960683245         160.144572        0.119996969         70.6536684
           2.4e+10       0.109582449         60.1889899        0.961976197         157.387348        0.961976197         157.387348        0.108555914          67.983436
          2.43e+10      0.0986121514         56.2751683        0.963082377         154.623378        0.963082377         154.623378        0.097353667         65.2978352
          2.46e+10      0.0879572608         52.1530026        0.963984103         151.847885        0.963984103         151.847885       0.0863647994         62.5707093
          2.49e+10      0.0776131732         47.8983692        0.964532822          149.04872        0.964532822          149.04872        0.075359297         59.7798178
          2.52e+10      0.0680669425         44.2136622        0.963569698         146.221904        0.963569698         146.221904       0.0634959286         57.8215162
          2.55e+10      0.0619009326         39.1400625        0.962228594         143.601372        0.962228594         143.601372       0.0554886315         59.1010324
          2.58e+10      0.0542370628          31.649842        0.963905475         140.873963        0.963905475         140.873963       0.0490752885         56.5171533
          2.61e+10      0.0472206836         24.0299379        0.964453528         138.059909        0.964453528         138.059909       0.0418277343         53.7965146
          2.64e+10      0.0418641566         15.4734902        0.964135082         135.207701        0.964135082         135.207701       0.0354473689         50.9463703
          2.67e+10      0.0390233418         5.41512074        0.962454903         132.294344        0.962454903         132.294344       0.0306551236         46.1059289
           2.7e+10      0.0405770025        -8.14127591        0.956815499         129.320996        0.956815499         129.320996       0.0280363262         32.9235045
          2.73e+10      0.0464811853        -33.3461566        0.943121418         126.807063        0.943121418         126.807063       0.0253980885        -5.56669503
          2.76e+10      0.0423776838        -64.9749393        0.944054666         125.086913        0.944054666         125.086913        0.018018619        -69.0042981
          2.79e+10        0.03608057        -81.8203538        0.952920698           122.5252        0.952920698           122.5252        0.015804534        -115.746066
          2.82e+10       0.033986917        -91.1597915        0.956913719         119.689465        0.956913719         119.689465       0.0171010697        -138.326197
          2.85e+10      0.0337372264        -97.4822451         0.95854462         116.837156         0.95854462         116.837156       0.0186462611         -148.83843
          2.88e+10      0.0340784025        -101.753591        0.959125007         113.965193        0.959125007         113.965193        0.019795917         -155.11483
          2.91e+10      0.0342410164        -103.827958        0.958961366         111.061814        0.958961366         111.061814       0.0196531668        -159.327346
          2.94e+10      0.0339846909        -102.648601        0.958057539         108.086787        0.958057539         108.086787       0.0175696123        -161.344265
          2.97e+10      0.0339230995        -95.5579942        0.955739808         104.960288        0.955739808         104.960288       0.0123469559        -156.074804
             3e+10      0.0388102592        -78.4536805        0.948873378         101.490586        0.948873378         101.490586      0.00825635204        -80.7139238
