! Created Thu Feb 13 09:00:53 2025
! List of port names and net name(s): example Port n = <port_name> <net_name1> <net_name2> ...
! Port 1 = P1 N__8 N__7 N_gnd 
! Port 2 = P4 N__10 N__11 N__9 
# hz S ma R 50
! 2 Port Network Data from data block
! freq  magS11  angS11  magS21  angS21  magS12  angS12  magS22  angS22  
!     
                 0     0.00108838247    -0.000471721552        0.998911617    -8.28623979e-06        0.998911617    -8.28623979e-06      0.00108838247    -0.000471677367
         300000000      0.0100221806        -74.8822614        0.996988546        -2.08848261        0.996988546        -2.08848261       0.0100220138        -74.8894557
         600000000      0.0209385594        -83.7648512        0.996028765        -4.09251698        0.996028765        -4.09251698       0.0209399134        -83.7840534
         900000000      0.0319276216        -88.5753346        0.995308878        -6.09235401        0.995308878        -6.09235401       0.0319312484        -88.6088957
           1.2e+09      0.0428753188        -92.1194529        0.994603515        -8.09200775        0.994603515        -8.09200775       0.0428811642        -92.1675204
           1.5e+09      0.0537549849        -95.0910559         0.99383698        -10.0911495         0.99383698        -10.0911495       0.0537628742        -95.1533188
           1.8e+09      0.0645524795        -97.7520015        0.992978479        -12.0890205        0.992978479        -12.0890205        0.064562299         -97.828163
           2.1e+09      0.0752560738        -100.224278        0.992014598        -14.0848756        0.992014598        -14.0848756       0.0752677864        -100.314129
           2.4e+09      0.0858544523        -102.572693        0.990940069        -16.0780388        0.990940069        -16.0780388       0.0858680788        -102.676098
           2.7e+09      0.0963362874        -104.834926        0.989754022        -18.0679023        0.989754022        -18.0679023       0.0963518875        -104.951806
             3e+09       0.106690203        -107.034378        0.988458221        -20.0539172        0.988458221        -20.0539172        0.106707862        -107.164687
           3.3e+09       0.116904846        -109.186314        0.987056149         -22.035586        0.987056149         -22.035586        0.116924663        -109.330032
           3.6e+09       0.126968971        -111.301093        0.985552493        -24.0124559        0.985552493        -24.0124559        0.126991055        -111.458214
           3.9e+09       0.136871534        -113.385956        0.983952823        -25.9841157        0.983952823        -25.9841157        0.136895999        -113.556487
           4.2e+09        0.14660177        -115.446098        0.982263381        -27.9501924        0.982263381        -27.9501924         0.14662873        -115.630053
           4.5e+09        0.15614926        -117.485321        0.980490943        -29.9103498        0.980490943        -29.9103498        0.156178828        -117.682719
           4.8e+09       0.165503988        -119.506456        0.978642695        -31.8642874        0.978642695        -31.8642874        0.165536272        -119.717323
           5.1e+09       0.174656388        -121.511648        0.976726154        -33.8117401        0.976726154        -33.8117401        0.174691492        -121.736008
           5.4e+09       0.183597384        -123.502538        0.974749086        -35.7524769        0.974749086        -35.7524769        0.183635404        -123.740422
           5.7e+09       0.192318415        -125.480406        0.972719444        -37.6863016        0.972719444        -37.6863016        0.192359442        -125.731844
             6e+09       0.200811465         -127.44626        0.970645305        -39.6130516        0.970645305        -39.6130516         0.20085558        -127.711283
           6.3e+09       0.209069068        -129.400906         0.96853482        -41.5325983         0.96853482        -41.5325983        0.209116344        -129.679548
           6.6e+09       0.217084323        -131.345004        0.966396162        -43.4448461        0.966396162        -43.4448461        0.217134825        -131.637298
           6.9e+09       0.224850894        -133.279099        0.964237479        -45.3497324        0.964237479        -45.3497324        0.224904676        -133.585079
           7.2e+09       0.232363005        -135.203658        0.962066854        -47.2472269        0.962066854        -47.2472269        0.232420114        -135.523358
           7.5e+09       0.239615433        -137.119085        0.959892266        -49.1373305        0.959892266        -49.1373305        0.239675906         -137.45254
           7.8e+09       0.246603491        -139.025743        0.957721553        -51.0200753        0.957721553        -51.0200753        0.246667359        -139.372987
           8.1e+09       0.253323018        -140.923966        0.955562381         -52.895523        0.955562381         -52.895523        0.253390302        -141.285034
           8.4e+09       0.259770348        -142.814068        0.953422215        -54.7637644        0.953422215        -54.7637644        0.259841062        -143.188996
           8.7e+09       0.265942296        -144.696353        0.951308293        -56.6249179        0.951308293        -56.6249179        0.266016448        -145.085177
             9e+09       0.271836126        -146.571119        0.949227603         -58.479129        0.949227603         -58.479129        0.271913718        -146.973875
           9.3e+09       0.277449527        -148.438665        0.947186863        -60.3265686        0.947186863        -60.3265686        0.277530556        -148.855389
           9.6e+09       0.282780582        -150.299292        0.945192504        -62.1674322        0.945192504        -62.1674322         0.28286504        -150.730022
           9.9e+09       0.287827741        -152.153309        0.943250659        -64.0019381        0.943250659        -64.0019381        0.287915615        -152.598083
          1.02e+10       0.292589788        -154.001032        0.941367145         -65.830327        0.941367145         -65.830327        0.292681061        -154.459887
          1.05e+10       0.297065811        -155.842784        0.939547461        -67.6528599        0.939547461        -67.6528599        0.297160465         -156.31576
          1.08e+10       0.301255174        -157.678903        0.937796774        -69.4698174        0.937796774        -69.4698174        0.301353187         -158.16604
          1.11e+10       0.305157488        -159.509733        0.936119918        -71.2814983        0.936119918        -71.2814983        0.305258836        -160.011074
          1.14e+10       0.308772576        -161.335631        0.934521389        -73.0882184        0.934521389        -73.0882184        0.308877234         -161.85122
          1.17e+10       0.312100452        -163.156967        0.933005346        -74.8903094        0.933005346        -74.8903094        0.312208393        -163.686847
           1.2e+10       0.315141287        -164.974119        0.931575603        -76.6881179        0.931575603        -76.6881179        0.315252484        -165.518337
          1.23e+10       0.317895385        -166.787476        0.930235641        -78.4820044        0.930235641        -78.4820044        0.318009811        -167.346081
          1.26e+10       0.320363154        -168.597439        0.928988599        -80.2723422        0.928988599        -80.2723422         0.32048078        -169.170482
          1.29e+10       0.322545081        -170.404416        0.927837284         -82.059517        0.927837284         -82.059517        0.322665877        -170.991952
          1.32e+10       0.324441702        -172.208826        0.926784175        -83.8439262        0.926784175        -83.8439262        0.324565638        -172.810914
          1.35e+10       0.326053574        -174.011098        0.925831421        -85.6259784        0.925831421        -85.6259784        0.326180618        -174.627798
          1.38e+10       0.327381245        -175.811668        0.924980854        -87.4060936        0.924980854        -87.4060936        0.327511365        -176.443047
          1.41e+10        0.32842522        -177.610979        0.924233991        -89.1847032        0.924233991        -89.1847032        0.328558381         -178.25711
          1.44e+10       0.329185919        -179.409486        0.923592041        -90.9622508        0.923592041        -90.9622508        0.329322084         179.929554
          1.47e+10       0.329663633         178.792355        0.923055913        -92.7391938        0.923055913        -92.7391938        0.329802759         178.116477
           1.5e+10       0.329858459         176.994074        0.922626222        -94.5160056        0.922626222        -94.5160056        0.330000498         176.303183
          1.53e+10       0.329770226         175.195199        0.922303295        -96.2931792        0.922303295        -96.2931792        0.329915119         174.489185
          1.56e+10       0.329398383         173.395251        0.922087181        -98.0712327        0.922087181        -98.0712327        0.329546056         172.673989
          1.59e+10        0.32874185         171.593746        0.921977647        -99.8507179        0.921977647        -99.8507179        0.328892212          170.85709
          1.62e+10       0.327798803         169.790197        0.921974184        -101.632232        0.921974184        -101.632232        0.327951732         169.037977
          1.65e+10       0.326566354         167.984123        0.922075981        -103.416439        0.922075981        -103.416439        0.326721683         167.216132
          1.68e+10       0.325040058         166.175057        0.922281888        -105.204096        0.922281888        -105.204096        0.325197553         165.391041
          1.71e+10       0.323213142         164.362573        0.922590307        -106.996102        0.922590307        -106.996102        0.323372464         163.562212
          1.74e+10        0.32107525         162.546337        0.922998953         -108.79358        0.922998953         -108.79358        0.321235883         161.729216
          1.77e+10       0.318610305         160.726229        0.923504331        -110.598004        0.923504331        -110.598004        0.318771423         159.891787
           1.8e+10       0.315792741         158.902605        0.924100488        -112.411439        0.924100488        -112.411439        0.315952924         158.050059
          1.83e+10       0.312580566         157.076953        0.924776011        -114.236996        0.924776011        -114.236996        0.312737052         156.205165
          1.86e+10       0.308902016         155.253493        0.925505968        -116.079753        0.925505968        -116.079753         0.30904861         154.360892
          1.89e+10       0.304623077         153.443449        0.926225187        -117.948736        0.926225187        -117.948736        0.304750575         152.528545
          1.92e+10       0.299477435         151.684549        0.926745077        -119.860686        0.926745077        -119.860686        0.299574113         150.743304
          1.95e+10       0.292984309         150.110194        0.926423592        -121.848026        0.926423592        -121.848026        0.293000574          149.13532
          1.98e+10       0.284954527         149.264452        0.922638816        -123.934529        0.922638816        -123.934529        0.284734094         148.253564
          2.01e+10       0.284336325          150.15217        0.909940434        -125.605538        0.909940434        -125.605538        0.283646358         149.187824
          2.04e+10       0.296433267          147.96216        0.911419664        -126.378959        0.911419664        -126.378959        0.296007759         147.097047
          2.07e+10       0.294486339         144.455066        0.921151045        -128.003832        0.921151045        -128.003832        0.294403197         143.573507
           2.1e+10       0.288619558         141.809305        0.926532088        -129.892182        0.926532088        -129.892182          0.2886717         140.897316
          2.13e+10       0.282482428         139.551283        0.929842787        -131.796496        0.929842787        -131.796496         0.28259462         138.613031
          2.16e+10       0.276396879         137.450102        0.932306174        -133.692387        0.932306174        -133.692387        0.276541038         136.489255
          2.19e+10       0.270318263         135.418878        0.934381834        -135.581807        0.934381834        -135.581807        0.270482038         134.437842
          2.22e+10       0.264187868         133.420709        0.936260482        -137.468419        0.936260482        -137.468419        0.264365036         132.421081
          2.25e+10       0.257965867          131.43777        0.938029972        -139.354971        0.938029972        -139.354971        0.258152954         130.420669
          2.28e+10       0.251628175          129.46046        0.939733748        -141.243334        0.939733748        -141.243334        0.251823077         128.426724
          2.31e+10       0.245161244         127.483107        0.941393973        -143.134776        0.941393973        -143.134776        0.245362598         126.433405
          2.34e+10       0.238558436         125.502068         0.94302172        -145.030159         0.94302172        -145.030159         0.23876531         124.436969
          2.37e+10       0.231817759         123.514812        0.944621876        -146.930077        0.944621876        -146.930077        0.232029482         122.434832
           2.4e+10       0.224940461         121.519435        0.946195696        -148.834938        0.946195696        -148.834938        0.225156526         120.425069
          2.43e+10       0.217930156          119.51439        0.947742214        -150.745016        0.947742214        -150.745016        0.218150163         118.406137
          2.46e+10       0.210792256          117.49832        0.949259069        -152.660486        0.949259069        -152.660486        0.211015872         116.376704
          2.49e+10       0.203533598         115.469945        0.950743016        -154.581447        0.950743016        -154.581447        0.203760539         114.335532
          2.52e+10         0.1961622          113.42798        0.952190251        -156.507941        0.952190251        -156.507941        0.196392207         112.281397
          2.55e+10       0.188687081         111.371066        0.953596634        -158.439959        0.953596634        -158.439959        0.188919914         110.213021
          2.58e+10       0.181118142         109.297702        0.954957841        -160.377455        0.954957841        -160.377455        0.181353565         108.129006
          2.61e+10       0.173466072         107.206178        0.956269468        -162.320349        0.956269468        -162.320349        0.173703849         106.027771
          2.64e+10        0.16574228         105.094496        0.957527119        -164.268535        0.957527119        -164.268535        0.165982167         103.907475
          2.67e+10       0.157958841         102.960274        0.958726457        -166.221884        0.958726457        -166.221884        0.158200579         101.765931
           2.7e+10       0.150128456         100.800629        0.959863249        -168.180248        0.959863249        -168.180248        0.150371762         99.6004952
          2.73e+10       0.142264417         98.6120234        0.960933394        -170.143462        0.960933394        -170.143462        0.142508977         97.4079292
          2.76e+10       0.134380584          96.390068        0.961932942        -172.111353        0.961932942        -172.111353         0.13462604         95.1842128
          2.79e+10       0.126491371         94.1292549        0.962858099        -174.083734        0.962858099        -174.083734        0.126737304         92.9243013
          2.82e+10       0.118611738          91.822598        0.963705227        -176.060416        0.963705227        -176.060416        0.118857653         90.6217932
          2.85e+10       0.110757213         89.4611361        0.964470826        -178.041203        0.964470826        -178.041203        0.111002505         88.2684732
          2.88e+10       0.102943924         87.0332374        0.965151513         179.974099        0.965151513         179.974099        0.103187841         85.8536709
          2.91e+10       0.095188683         84.5236056        0.965743982         177.985684        0.965743982         177.985684        0.095430265         83.3633457
          2.94e+10      0.0875091199         81.9118316        0.966244954         175.993743        0.966244954         175.993743       0.0877471154         80.7787511
          2.97e+10      0.0799239259         79.1702364        0.966651106         173.998458        0.966651106         173.998458       0.0801566634         78.0744464
             3e+10      0.0724532503         76.2605786        0.966958974         172.000007        0.966958974         172.000007       0.0726784447         75.2152559
