! Created Thu Feb 13 09:00:33 2025
! List of port names and net name(s): example Port n = <port_name> <net_name1> <net_name2> ...
! Port 1 = P1 N__0 N__3 P1 
# hz S ma R 50
! 1 Port Network Data from data block
! freq  magS11  angS11  
!     
                 0                 1    -9.19354582e-06
         300000000       0.999998265        -2.75783293
         600000000        0.99999059        -5.51406031
         900000000       0.999975499        -8.26691233
           1.2e+09       0.999952404        -11.0146445
           1.5e+09       0.999920858        -13.7555493
           1.8e+09       0.999880364        -16.4879563
           2.1e+09       0.999830335        -19.2102356
           2.4e+09       0.999770104        -21.9208008
           2.7e+09       0.999698947        -24.6181146
             3e+09       0.999616109        -27.3006936
           3.3e+09       0.999520831        -29.9671137
           3.6e+09        0.99941238        -32.6160144
           3.9e+09       0.999290064        -35.2461038
           4.2e+09       0.999153259        -37.8561619
           4.5e+09        0.99900142        -40.4450448
           4.8e+09       0.998834095        -43.0116865
           5.1e+09       0.998650935        -45.5551021
           5.4e+09       0.998451696        -48.0743886
           5.7e+09       0.998236248        -50.5687258
             6e+09       0.998004567        -53.0373772
           6.3e+09       0.997756737         -55.479689
           6.6e+09       0.997492943        -57.8950897
           6.9e+09       0.997213466        -60.2830885
           7.2e+09        0.99691867        -62.6432735
           7.5e+09       0.996609001        -64.9753096
           7.8e+09       0.996284971        -67.2789357
           8.1e+09       0.995947148         -69.553962
           8.4e+09       0.995596153        -71.8002665
           8.7e+09        0.99523264        -74.0177919
             9e+09       0.994857297        -76.2065422
           9.3e+09        0.99447083        -78.3665786
           9.6e+09       0.994073957        -80.4980164
           9.9e+09       0.993667403        -82.6010211
          1.02e+10       0.993251889        -84.6758047
          1.05e+10       0.992828129        -86.7226222
          1.08e+10       0.992396826         -88.741768
          1.11e+10       0.991958662        -90.7335726
          1.14e+10       0.991514299        -92.6983993
          1.17e+10       0.991064377         -94.636641
           1.2e+10       0.990609504        -96.5487175
          1.23e+10       0.990150264        -98.4350722
          1.26e+10       0.989687205         -100.29617
          1.29e+10       0.989220846        -102.132495
          1.32e+10       0.988751668        -103.944547
          1.35e+10       0.988280121        -105.732842
          1.38e+10       0.987806614        -107.497907
          1.41e+10       0.987331521        -109.240283
          1.44e+10       0.986855172        -110.960518
          1.47e+10       0.986377851        -112.659173
           1.5e+10       0.985899791        -114.336815
          1.53e+10       0.985421159        -115.994021
          1.56e+10       0.984942043        -117.631381
          1.59e+10       0.984462414        -119.249495
          1.62e+10       0.983982074        -120.848981
          1.65e+10       0.983500548        -122.430484
          1.68e+10       0.983016881        -123.994688
          1.71e+10       0.982529215        -125.542343
          1.74e+10       0.982033822        -127.074308
          1.77e+10        0.98152274        -128.591642
           1.8e+10       0.980977158        -130.095736
          1.83e+10       0.980346457        -131.588375
          1.86e+10       0.979477057        -133.069764
          1.89e+10       0.978031675        -134.516853
          1.92e+10       0.977150406         -135.86826
          1.95e+10       0.977702198         -137.25901
          1.98e+10       0.977797874        -138.681948
          2.01e+10       0.977574005        -140.094888
          2.04e+10        0.97722853        -141.493796
          2.07e+10       0.976832051        -142.879779
           2.1e+10       0.976411079         -144.25409
          2.13e+10       0.975976832        -145.617735
          2.16e+10       0.975534501        -146.971547
          2.19e+10       0.975086586        -148.316249
          2.22e+10       0.974634235        -149.652503
          2.25e+10       0.974177834        -150.980932
          2.28e+10       0.973717281         -152.30214
          2.31e+10       0.973252114        -153.616719
          2.34e+10       0.972781559        -154.925259
          2.37e+10       0.972304545        -156.228354
           2.4e+10       0.971819677        -157.526602
          2.43e+10       0.971325192        -158.820617
          2.46e+10       0.970818887        -160.111025
          2.49e+10       0.970298024        -161.398473
          2.52e+10       0.969759195         -162.68363
          2.55e+10       0.969198148        -163.967194
          2.58e+10       0.968609562        -165.249894
          2.61e+10       0.967986737        -166.532491
          2.64e+10         0.9673212        -167.815782
          2.67e+10       0.966602179        -169.100599
           2.7e+10       0.965815902        -170.387799
          2.73e+10       0.964944696        -171.678251
          2.76e+10       0.963965797          -172.9728
          2.79e+10       0.962849854        -174.272206
          2.82e+10       0.961559091         -175.57704
          2.85e+10       0.960045243        -176.887497
          2.88e+10       0.958247602        -178.203095
          2.91e+10       0.956092096        -179.522192
          2.94e+10       0.953493383         179.158736
          2.97e+10       0.950363734         177.846091
             3e+10       0.946634803         176.550282
