! Created Thu Feb 13 09:00:25 2025
! List of port names and net name(s): example Port n = <port_name> <net_name1> <net_name2> ...
! Port 1 = P1 P2 P2 P2 
# hz S ma R 50
! 1 Port Network Data from data block
! freq  magS11  angS11  
!     
                 0       0.997716841         179.999993
         300000000       0.994108838         178.508518
         600000000       0.992539597         177.182378
         900000000       0.991688215          175.86439
           1.2e+09       0.991115822         174.543882
           1.5e+09       0.990664673         173.219907
           1.8e+09       0.990266409         171.892736
           2.1e+09        0.98988762          170.56271
           2.4e+09       0.989510876         169.230068
           2.7e+09       0.989126915         167.894937
             3e+09       0.988730998         166.557343
           3.3e+09       0.988321029         165.217235
           3.6e+09       0.987896515         163.874498
           3.9e+09       0.987457959         162.528965
           4.2e+09       0.987006478         161.180425
           4.5e+09       0.986543561         159.828635
           4.8e+09       0.986070908         158.473319
           5.1e+09       0.985590318         157.114177
           5.4e+09       0.985103612         155.750888
           5.7e+09       0.984612583         154.383111
             6e+09       0.984118956         153.010492
           6.3e+09       0.983624364         151.632663
           6.6e+09       0.983130334         150.249245
           6.9e+09       0.982638279          148.85985
           7.2e+09        0.98214949         147.464084
           7.5e+09        0.98166514         146.061545
           7.8e+09       0.981186284         144.651829
           8.1e+09       0.980713867         143.234526
           8.4e+09       0.980248725         141.809225
           8.7e+09       0.979791599         140.375512
             9e+09       0.979343137         138.932972
           9.3e+09       0.978903904         137.481191
           9.6e+09       0.978474391         136.019752
           9.9e+09       0.978055021         134.548243
          1.02e+10       0.977646159         133.066248
          1.05e+10       0.977248115         131.573356
          1.08e+10       0.976861155         130.069155
          1.11e+10       0.976485505         128.553238
          1.14e+10       0.976121355         127.025197
          1.17e+10       0.975768869         125.484629
           1.2e+10       0.975428185         123.931134
          1.23e+10       0.975099421         122.364315
          1.26e+10       0.974782679          120.78378
          1.29e+10       0.974478047         119.189139
          1.32e+10       0.974185601          117.58001
          1.35e+10       0.973905413         115.956014
          1.38e+10       0.973637543         114.316779
          1.41e+10        0.97338205         112.661941
          1.44e+10       0.973138988         110.991141
          1.47e+10       0.972908409          109.30403
           1.5e+10       0.972690362         107.600268
          1.53e+10       0.972484895         105.879523
          1.56e+10       0.972292052         104.141475
          1.59e+10        0.97211188         102.385817
          1.62e+10       0.971944417         100.612253
          1.65e+10       0.971789704         98.8205019
          1.68e+10       0.971647774         97.0102964
          1.71e+10       0.971518657         95.1813869
          1.74e+10       0.971402376          93.333541
          1.77e+10       0.971298946         91.4665452
           1.8e+10       0.971208373         89.5802061
          1.83e+10       0.971130651         87.6743524
          1.86e+10       0.971065761         85.7488357
          1.89e+10       0.971013669         83.8035322
          1.92e+10       0.970974321         81.8383444
          1.95e+10       0.970947642         79.8532022
          1.98e+10       0.970933537         77.8480647
          2.01e+10       0.970931879         75.8229213
          2.04e+10       0.970942515         73.7777937
          2.07e+10       0.970965255         71.7127364
           2.1e+10       0.970999873         69.6278388
          2.13e+10       0.971046098          67.523226
          2.16e+10       0.971103613         65.3990596
          2.19e+10       0.971172046         63.2555391
          2.22e+10       0.971250962         61.0929024
          2.25e+10       0.971339857         58.9114261
          2.28e+10       0.971438135          56.711426
          2.31e+10       0.971545093         54.4932566
          2.34e+10       0.971659859         52.2573118
          2.37e+10       0.971781285         50.0040279
           2.4e+10       0.971907892           47.73391
          2.43e+10       0.972039353         45.4475555
          2.46e+10       0.972176684         43.1454194
          2.49e+10       0.972316472          40.827956
          2.52e+10       0.972455519         38.4958253
          2.55e+10       0.972591471          36.149694
          2.58e+10       0.972721443         33.7902276
          2.61e+10       0.972841689         31.4181064
          2.64e+10       0.972947364         29.0340287
          2.67e+10       0.973032154         26.6387141
           2.7e+10       0.973087744         24.2329113
          2.73e+10       0.973103068         21.8174199
          2.76e+10       0.973063304         19.3931353
          2.79e+10       0.972948642         16.9611403
          2.82e+10       0.972733051         14.5228794
          2.85e+10       0.972383888          12.080467
          2.88e+10       0.971864499         9.63718746
          2.91e+10       0.971144432         7.19815441
          2.94e+10       0.970224137         4.77076746
          2.97e+10       0.969176095         2.36388616
             3e+10       0.968178256       -0.015814761
