! Created Thu Feb 13 09:13:25 2025
# hz S ma R 50
! 2 Port Network Data from SP1.SP block
! freq  magS11  angS11  magS21  angS21  magS12  angS12  magS22  angS22  
!     
                 0     0.00105443794    -0.000477284094        0.998945562    -7.69628085e-06        0.998945562    -7.69628085e-06      0.00105443794    -0.000477431431
         300000000     0.00973284614        -73.1354285        0.997080372        -1.92592489        0.997080372        -1.92592489      0.00973369629        -73.1306039
         600000000      0.0202689707        -83.2348579        0.996085549        -3.77181997        0.996085549        -3.77181997       0.0202698044        -83.2230582
         900000000      0.0309232542        -87.8759119        0.995379118        -5.61158422        0.995379118        -5.61158422       0.0309227241        -87.8545837
           1.2e+09      0.0415508449        -91.3636884        0.994692165        -7.45100089        0.994692165        -7.45100089       0.0415485614        -91.3320271
           1.5e+09      0.0521137385          -94.18882        0.993948714        -9.28987493        0.993948714        -9.28987493       0.0521095351        -94.1466286
           1.8e+09      0.0626120535        -96.7326668        0.993130854        -11.1277802        0.993130854        -11.1277802       0.0626058604        -96.6799702
           2.1e+09      0.0730178768         -99.060692        0.992204276        -12.9637363        0.992204276        -12.9637363       0.0730096065        -98.9975472
           2.4e+09      0.0833409021        -101.276388        0.991184997        -14.7975781        0.991184997        -14.7975781       0.0833304711        -101.202827
           2.7e+09      0.0935495022        -103.393897        0.990048033        -16.6281494        0.990048033        -16.6281494       0.0935367866        -103.309935
             3e+09       0.103657757        -105.454563        0.988817683        -18.4556459        0.988817683        -18.4556459        0.103642643        -105.360192
           3.3e+09       0.113629521        -107.461391        0.987473604        -20.2787808        0.987473604        -20.2787808        0.113611849        -107.356577
           3.6e+09       0.123483266        -109.434755        0.986041926         -22.098046        0.986041926         -22.098046        0.123462899        -109.319459
           3.9e+09        0.13317858        -111.374498        0.984506008        -23.9120427        0.984506008        -23.9120427        0.133155334        -111.248651
           4.2e+09        0.14273857        -113.292167        0.982891444        -25.7215078        0.982891444        -25.7215078        0.142712294        -113.155701
           4.5e+09       0.152118972         -115.18657        0.981185113        -27.5249509        0.981185113        -27.5249509        0.152089468        -115.039389
           4.8e+09       0.161347598        -117.064991        0.979410934        -29.3233161        0.979410934        -29.3233161        0.161314708        -116.907007
           5.1e+09       0.170376783        -118.925877        0.977559282        -31.1150448        0.977559282        -31.1150448        0.170340306         -118.75697
           5.4e+09       0.179238951         -120.77426         0.97565173        -32.9012575         0.97565173        -32.9012575        0.179198729        -120.594323
           5.7e+09       0.187883507        -122.608466        0.973682129        -34.6803516        0.973682129        -34.6803516        0.187839346        -122.417359
             6e+09        0.19634726        -124.432259        0.971669269        -36.4535963        0.971669269        -36.4535963        0.196299009        -124.229859
           6.3e+09       0.204577154        -126.243943         0.96961042        -38.2193696         0.96961042        -38.2193696        0.204524633        -126.030089
           6.6e+09       0.212614064        -128.046535        0.967521292        -39.9790622        0.967521292        -39.9790622        0.212557134        -127.821089
           6.9e+09       0.220402929         -129.83836        0.965402469        -41.7310571        0.965402469        -41.7310571        0.220341429        -129.601143
           7.2e+09       0.227988297        -131.621977        0.963266395        -43.4768397        0.963266395        -43.4768397        0.227922107        -131.372839
           7.5e+09       0.235313528        -133.395764        0.961116821        -45.2148211        0.961116821        -45.2148211        0.235242508        -133.134504
           7.8e+09       0.242426416        -135.161987        0.958962822        -46.9465553        0.958962822        -46.9465553        0.242350468        -134.888442
           8.1e+09       0.249269124        -136.919092        0.956811127        -48.6705031        0.956811127        -48.6705031        0.249188135        -136.633045
           8.4e+09       0.255892245        -138.669151        0.954667426         -50.388261        0.954667426         -50.388261        0.255806139        -138.370421
           8.7e+09       0.262237082        -140.410692        0.952541209        -52.0983592        0.952541209        -52.0983592        0.262145774        -140.099047
             9e+09       0.268356582        -142.145647        0.950434818        -53.8024119        0.950434818        -53.8024119        0.268260018         -141.82089
           9.3e+09       0.274191475        -143.872644        0.948360268        -55.4990369        0.948360268        -55.4990369        0.274089601        -143.534524
           9.6e+09        0.27979663        -145.593497        0.946316658        -57.1898417        0.946316658        -57.1898417        0.279689413        -145.241803
           9.9e+09       0.285112444        -147.306952        0.944318272        -58.8735479        0.944318272        -58.8735479        0.284999858        -146.941412
          1.02e+10       0.290195306        -149.014717        0.942361108        -60.5517336        0.942361108        -60.5517336        0.290077341        -148.635106
          1.05e+10       0.294985469        -150.715666        0.940461464        -62.2232385        0.940461464        -62.2232385        0.294862126         -150.32169
          1.08e+10       0.299540481        -152.411403        0.938612417          -63.88959        0.938612417          -63.88959         0.29941177        -152.002822
          1.11e+10       0.303800592        -154.100942        0.936832019        -65.5497583        0.936832019        -65.5497583         0.30366654        -153.677442
          1.14e+10       0.307824191        -155.785781        0.935110634        -67.2052005        0.935110634        -67.2052005        0.307684827        -155.347104
          1.17e+10       0.311551629        -157.465082        0.933467804         -68.855028        0.933467804         -68.855028        0.311407001        -157.010893
           1.2e+10        0.31504186        -159.140229        0.931891415        -70.5006101        0.931891415        -70.5006101        0.314892013        -158.670252
          1.23e+10         0.3182354        -160.810543        0.930402241        -72.1412083        0.930402241        -72.1412083        0.318080403        -160.324421
          1.26e+10       0.321191546        -162.477285        0.928985932        -73.7780883        0.928985932        -73.7780883        0.321031458        -161.974725
          1.29e+10       0.323851011         -164.13994         0.92766424        -75.4106694         0.92766424        -75.4106694        0.323685913        -163.620564
          1.32e+10       0.326273251        -165.799636        0.926420832        -77.0400996        0.926420832        -77.0400996        0.326103211        -165.263135
          1.35e+10       0.328399179        -167.456032        0.925278192        -78.6659625        0.925278192        -78.6659625        0.328224289        -166.902007
          1.38e+10       0.330288272        -169.110111        0.924218262        -80.2892766        0.924218262        -80.2892766        0.330108602         -168.53824
          1.41e+10       0.331881621         -170.76171        0.923264011        -81.9097954        0.923264011        -81.9097954         0.33169726        -170.171579
          1.44e+10       0.333238622        -172.411661        0.922395912        -83.5283974        0.922395912        -83.5283974        0.333049635        -171.802936
          1.47e+10        0.33430049        -174.059978        0.921637187        -85.1450113        0.921637188        -85.1450113        0.334106947        -173.432241
           1.5e+10       0.335126477        -175.707335        0.920967089        -86.7603675        0.920967089        -86.7603675        0.334928418        -175.060252
          1.53e+10       0.335657841        -177.353926        0.920408862        -88.3745761        0.920408862        -88.3745761        0.335455284         -176.68709
          1.56e+10       0.335953643        -179.000255        0.919940784        -89.9882127        0.919940784        -89.9882127        0.335746564        -178.313355
          1.59e+10       0.335955066         179.353305        0.919585887        -91.6015776        0.919585887        -91.6015776        0.335743358        -179.939374
          1.62e+10       0.335720955         177.706428        0.919321709         -93.215088        0.919321709         -93.215088         0.33550444         178.434417
          1.65e+10       0.335192226         176.058579        0.919170817        -94.8292492        0.919170817        -94.8292492        0.334970489         176.807461
          1.68e+10       0.334427492         174.409619        0.919110223        -96.4443204        0.919110223        -96.4443204        0.334199963          175.17948
          1.71e+10       0.333367095         172.758889        0.919161693        -98.0610446        0.919161693        -98.0610446        0.333132527         173.549635
          1.74e+10       0.332069399          171.10647        0.919301834        -99.6795327        0.919301834        -99.6795327        0.331826073         171.917788
          1.77e+10       0.330473702         169.451702        0.919550905        -101.300844        0.919550905        -101.300844        0.330217689         170.282692
           1.8e+10       0.328638196         167.794989        0.919884776        -102.924984        0.919884776        -102.924984        0.328363609         168.644287
          1.83e+10       0.326501034         166.136142        0.920319207        -104.553552        0.920319207        -104.553552         0.32619245         167.000613
          1.86e+10        0.32412206         164.476368        0.920825305        -106.186593        0.920825305        -106.186593        0.323752116         165.351677
          1.89e+10       0.321450148           162.8179        0.921389753        -107.826721        0.921389753        -107.826721        0.320927286         163.696136
          1.92e+10        0.31858259         161.162549        0.921932185        -109.472716        0.921932185        -109.472716        0.317710425         162.043984
          1.95e+10       0.315566464         159.483054        0.922379754        -111.111255        0.922379754        -111.111255        0.314059718         160.462835
          1.98e+10        0.31214183         157.748344        0.923193853        -112.738324        0.923193853        -112.738324        0.310677853         158.920297
          2.01e+10       0.308031908         156.035181        0.924363366        -114.396714        0.924363366        -114.396714        0.307098122         157.277636
          2.04e+10        0.30357275         154.351525        0.925438625        -116.077662        0.925438625        -116.077662         0.30293422         155.619227
          2.07e+10       0.298570726         152.710247        0.926296791        -117.785008        0.926296791        -117.785008        0.298059635         154.001127
           2.1e+10       0.292981856          151.16064         0.92670602         -119.52101         0.92670602         -119.52101        0.292543787         152.479842
          2.13e+10        0.28703331         149.985839        0.925293605         -121.27214        0.925293605         -121.27214        0.286641727          151.33976
          2.16e+10       0.283790033         149.272511        0.921587254        -122.854374        0.921587254        -122.854374        0.283442287         150.663836
          2.19e+10       0.284651519         147.564135        0.922708081        -124.159695        0.922708081        -124.159695         0.28432579         148.991576
          2.22e+10       0.281735272         145.207513        0.927198122        -125.685326        0.927198122        -125.685326        0.281412959         146.675011
          2.25e+10       0.276116151         143.072832        0.930597824        -127.373108        0.930597824        -127.373108        0.275795157         144.586016
          2.28e+10        0.27001502         141.094316        0.933190193        -129.084832        0.933190193        -129.084832        0.269695805         142.656513
          2.31e+10       0.263681845         139.205817        0.935302012        -130.802755        0.935302012        -130.802755        0.263364277           140.8208
          2.34e+10        0.25720804         137.348065        0.937233723        -132.522844        0.937233723        -132.522844        0.256891736         139.018859
          2.37e+10       0.250552059         135.506056        0.939047007        -134.246287        0.939047007        -134.246287        0.250236445         137.236626
           2.4e+10       0.243741765         133.666917        0.940807338        -135.973202        0.940807338        -135.973202        0.243426365         135.460654
          2.43e+10       0.236731252          131.82474        0.942524932        -137.705273        0.942524932        -137.705273        0.236415459         133.686236
          2.46e+10       0.229557526         129.976672        0.944217298        -139.441957        0.944217298        -139.441957        0.229240846         131.909941
          2.49e+10       0.222179249          128.11827        0.945881791        -141.184831        0.945881791        -141.184831        0.221861033          130.12884
          2.52e+10       0.214638655           126.2497         0.94752396        -142.932893         0.94752396        -142.932893        0.214318343         128.342476
          2.55e+10       0.206898763         124.366371        0.949135652        -144.687628        0.949135652        -144.687628        0.206575585         126.548201
          2.58e+10       0.199003404         122.469657        0.950719819         -146.44779        0.950719819         -146.44779        0.198676664         124.746696
          2.61e+10       0.190919971         120.554169        0.952264659        -148.214778        0.952264659        -148.214778        0.190588675         122.935131
          2.64e+10       0.182691875          118.62188        0.953773666         -149.98722        0.953773666         -149.98722          0.1823551         121.114704
          2.67e+10         0.1742912         116.666004        0.955232032        -151.766424        0.955232032        -151.766424        0.173947592         119.282102
           2.7e+10        0.16575971         114.688835        0.956645054        -153.550958        0.956645054        -153.550958        0.165407984         117.438767
          2.73e+10       0.157074629         112.681304        0.957995265        -155.342022        0.957995265        -155.342022         0.15671287         115.580516
          2.76e+10       0.148275205         110.645806        0.959290319         -157.13818        0.959290319         -157.13818        0.147901562         113.708861
          2.79e+10       0.139344329          108.56942        0.960510375        -158.940506        0.960510375        -158.940506         0.13895599         111.818068
          2.82e+10       0.130318047         106.454294        0.961665684        -160.747589        0.961665684        -160.747589        0.129912249         109.909518
          2.85e+10       0.121185544         104.280627        0.962734323        -162.560367        0.962734323        -162.560367        0.120757986         107.974609
          2.88e+10       0.111979119         102.049466        0.963729203        -164.377484        0.963729203        -164.377484        0.111525479          106.01417
          2.91e+10       0.102695126         99.7277265        0.964626643        -166.199729        0.964626643        -166.199729        0.102208469         104.013904
          2.94e+10      0.0933617983         97.3129103        0.965442165        -168.025827        0.965442165        -168.025827       0.0928349097         101.972945
          2.97e+10      0.0839842971         94.7433448        0.966150684        -169.856409        0.966150684        -169.856409       0.0834050943         99.8644281
             3e+10      0.0745870551         92.0049887        0.966770192        -171.690301        0.966770192        -171.690301       0.0739423134         97.6820463
