! Created Thu Feb 13 08:59:46 2025
! List of port names and net name(s): example Port n = <port_name> <net_name1> <net_name2> ...
! Port 1 = P1 P1 P2 P9 
! Port 2 = P4 P1 P9 P2 
# hz S ma R 50
! 2 Port Network Data from data block
! freq  magS11  angS11  magS21  angS21  magS12  angS12  magS22  angS22  
!     
                 0     0.00105443794    -0.000477284094        0.998945562    -7.69628085e-06        0.998945562    -7.69628085e-06      0.00105443794    -0.000477431431
         200000000     0.00627513039        -68.0138878        0.997501147        -1.30802112        0.997501147        -1.30802112      0.00627572487        -68.0110761
         400000000      0.0131905619        -78.2569692        0.996659597        -2.54382866        0.996659597        -2.54382866       0.0131916677        -78.2501317
         600000000      0.0202689707        -83.2348579        0.996085549        -3.77181997        0.996085549        -3.77181997       0.0202698044        -83.2230582
         800000000      0.0273741301        -86.5771964         0.99560592        -4.99841345         0.99560592        -4.99841345       0.0273741443        -86.5592391
             1e+09      0.0344723784        -89.1746273        0.995152316        -6.22475498        0.995152316        -6.22475498        0.034471304        -89.1499282
           1.2e+09      0.0415508449        -91.3636884        0.994692165        -7.45100089        0.994692165        -7.45100089       0.0415485614        -91.3320271
           1.4e+09      0.0486029741        -93.3023158        0.994207929        -8.67704505        0.994207929        -8.67704505        0.048599423        -93.2636333
           1.6e+09      0.0556245029        -95.0753243        0.993689498        -9.90270481        0.993689498        -9.90270481       0.0556196471        -95.0296238
           1.8e+09      0.0626120535        -96.7326668        0.993130854        -11.1277802        0.993130854        -11.1277802       0.0626058604        -96.6799702
             2e+09      0.0695625846        -98.3058025        0.992528415        -12.3520739        0.992528415        -12.3520739       0.0695550197        -98.2461339
           2.2e+09      0.0764731691        -99.8155815        0.991880137        -13.5753987        0.991880137        -13.5753987       0.0764641933        -99.7489604
           2.4e+09      0.0833409021        -101.276388        0.991184997        -14.7975781        0.991184997        -14.7975781       0.0833304711        -101.202827
           2.6e+09      0.0901628685        -102.698469        0.990442681        -16.0184473        0.990442681        -16.0184473       0.0901509327        -102.617975
           2.8e+09      0.0969361359        -104.089325        0.989653385        -17.2378516        0.989653385        -17.2378516       0.0969226405        -104.001895
             3e+09       0.103657757        -105.454563        0.988817683        -18.4556459        0.988817683        -18.4556459        0.103642643        -105.360192
           3.2e+09       0.110324781        -106.798459        0.987936444         -19.671694        0.987936444         -19.671694        0.110307984        -106.697132
           3.4e+09       0.116934261        -108.124323        0.987010764        -20.8858676        0.987010764        -20.8858676        0.116915714        -108.016023
           3.6e+09       0.123483266        -109.434755        0.986041926         -22.098046        0.986041926         -22.098046        0.123462899        -109.319459
           3.8e+09       0.129968891         -110.73182        0.985031367        -23.3081156        0.985031367        -23.3081156         0.12994663          -110.6095
             4e+09       0.136388268        -112.017177        0.983980649        -24.5159697        0.983980649        -24.5159697        0.136364038        -111.887801
           4.2e+09        0.14273857        -113.292167        0.982891444        -25.7215078        0.982891444        -25.7215078        0.142712294        -113.155701
           4.4e+09       0.149017025        -114.557891        0.981765517        -26.9246358        0.981765517        -26.9246358        0.148988624        -114.414295
           4.6e+09       0.155220918        -115.815249         0.98060471        -28.1252659         0.98060471        -28.1252659        0.155190312        -115.664482
           4.8e+09       0.161347598        -117.064991        0.979410934        -29.3233161        0.979410934        -29.3233161        0.161314708        -116.907007
             5e+09       0.167394487        -118.307739         0.97818616        -30.5187105         0.97818616        -30.5187105        0.167359232         -118.14249
           5.2e+09       0.173359079        -119.544015        0.976932405         -31.711379        0.976932405         -31.711379         0.17332138         -119.37145
           5.4e+09       0.179238951         -120.77426         0.97565173        -32.9012575         0.97565173        -32.9012575        0.179198729        -120.594323
           5.6e+09       0.185031761        -121.998845         0.97434623        -34.0882873         0.97434623        -34.0882873        0.184988939        -121.811481
           5.8e+09       0.190735253        -123.218088        0.973018028         -35.272416        0.973018028         -35.272416        0.190689753        -123.023237
             6e+09        0.19634726        -124.432259        0.971669269        -36.4535963        0.971669269        -36.4535963        0.196299009        -124.229859
           6.2e+09       0.201865705        -125.641594        0.970302112         -37.631787        0.970302112         -37.631787         0.20181463         -125.43158
           6.4e+09       0.207288604        -126.846293        0.968918728        -38.8069523        0.968918728        -38.8069523        0.207234635        -126.628598
           6.6e+09       0.212614064        -128.046535        0.967521292        -39.9790622        0.967521292        -39.9790622        0.212557134        -127.821089
           6.8e+09       0.217840288        -129.242473        0.966111979        -41.1480919        0.966111979        -41.1480919        0.217780332        -129.009205
             7e+09       0.222965569        -130.434246        0.964692959        -42.3140223        0.964692959        -42.3140223        0.222902526        -130.193081
           7.2e+09       0.227988297        -131.621977        0.963266395        -43.4768397        0.963266395        -43.4768397        0.227922107        -131.372839
           7.4e+09       0.232906951        -132.805778        0.961834434        -44.6365355        0.961834434        -44.6365355        0.232837559        -132.548586
           7.6e+09       0.237720104         -133.98575        0.960399207        -45.7931068        0.960399207        -45.7931068        0.237647458        -133.720423
           7.8e+09       0.242426416        -135.161987        0.958962822        -46.9465553        0.958962822        -46.9465553        0.242350468        -134.888442
             8e+09       0.247024639        -136.334578        0.957527364        -48.0968884        0.957527364        -48.0968884        0.246945344        -136.052728
           8.2e+09       0.251513608        -137.503606         0.95609489        -49.2441179         0.95609489        -49.2441179        0.251430926        -137.213362
           8.4e+09       0.255892245        -138.669151        0.954667426         -50.388261        0.954667426         -50.388261        0.255806139        -138.370421
           8.6e+09       0.260159552        -139.831289        0.953246963        -51.5293393        0.953246963        -51.5293393        0.260069988        -139.523981
           8.8e+09       0.264314612        -140.990096        0.951835455        -52.6673792        0.951835455        -52.6673792        0.264221561        -140.674113
             9e+09       0.268356582        -142.145647        0.950434818        -53.8024119        0.950434818        -53.8024119        0.268260018         -141.82089
           9.2e+09       0.272284695        -143.298014        0.949046926        -54.9344726        0.949046926        -54.9344726        0.272184597        -142.964383
           9.4e+09       0.276098255        -144.447273        0.947673611        -56.0636012        0.947673611        -56.0636012        0.275994604        -144.104664
           9.6e+09        0.27979663        -145.593497        0.946316658        -57.1898417        0.946316658        -57.1898417        0.279689413        -145.241803
           9.8e+09       0.283379257        -146.736762        0.944977804        -58.3132419        0.944977804        -58.3132419        0.283268462        -146.375874
             1e+10       0.286845631        -147.877143        0.943658741         -59.433854        0.943658741         -59.433854        0.286731253         -147.50695
          1.02e+10       0.290195306        -149.014717        0.942361108        -60.5517336        0.942361108        -60.5517336        0.290077341        -148.635106
          1.04e+10       0.293427891        -150.149565        0.941086493        -61.6669402        0.941086493        -61.6669402        0.293306339        -149.760417
          1.06e+10       0.296543047        -151.281766        0.939836435        -62.7795369        0.939836435        -62.7795369        0.296417912        -150.882963
          1.08e+10       0.299540481        -152.411403        0.938612417          -63.88959        0.938612417          -63.88959         0.29941177        -152.002822
           1.1e+10       0.302419946         -153.53856         0.93741587        -64.9971692         0.93741587        -64.9971692         0.30228767        -153.120076
          1.12e+10       0.305181239        -154.663324        0.936248168        -66.1023474        0.936248168        -66.1023474         0.30504541        -154.234808
          1.14e+10       0.307824191        -155.785781        0.935110634        -67.2052005        0.935110634        -67.2052005        0.307684827        -155.347104
          1.16e+10       0.310348673        -156.906023        0.934004533        -68.3058071        0.934004533        -68.3058071        0.310205792         -156.45705
          1.18e+10       0.312754585        -158.024141        0.932931075        -69.4042489        0.932931075        -69.4042489         0.31260821        -157.564735
           1.2e+10        0.31504186        -159.140229        0.931891415        -70.5006101        0.931891415        -70.5006101        0.314892013        -158.670252
          1.22e+10       0.317210453        -160.254384        0.930886653        -71.5949772        0.930886653        -71.5949772        0.317057163        -159.773692
          1.24e+10       0.319260348        -161.366703        0.929917829        -72.6874395        0.929917829        -72.6874395        0.319103643        -160.875151
          1.26e+10       0.321191546        -162.477285        0.928985932        -73.7780883        0.928985932        -73.7780883        0.321031458        -161.974725
          1.28e+10       0.323004069        -163.586232        0.928091893        -74.8670171        0.928091893        -74.8670171        0.322840629        -163.072513
           1.3e+10       0.324697954        -164.693648        0.927236586        -75.9543217        0.927236586        -75.9543217        0.324531197        -164.168615
          1.32e+10       0.326273251        -165.799636        0.926420832        -77.0400996        0.926420832        -77.0400996        0.326103211        -165.263135
          1.34e+10       0.327730022        -166.904304        0.925645397        -78.1244502        0.925645397        -78.1244502        0.327556736        -166.356174
          1.36e+10       0.329068337        -168.007759        0.924910988        -79.2074749        0.924910988        -79.2074749        0.328891841         -167.44784
          1.38e+10       0.330288272        -169.110111        0.924218262        -80.2892766        0.924218262        -80.2892766        0.330108602         -168.53824
           1.4e+10        0.33138991        -170.211471        0.923567818        -81.3699599        0.923567818        -81.3699599        0.331207101        -169.627481
          1.42e+10       0.332373332         -171.31195        0.922960204         -82.449631        0.922960204         -82.449631        0.332187418        -170.715676
          1.44e+10       0.333238622        -172.411661        0.922395912        -83.5283974        0.922395912        -83.5283974        0.333049635        -171.802936
          1.46e+10       0.333985859        -173.510719         0.92187538        -84.6063683         0.92187538        -84.6063683        0.333793827        -172.889374
          1.48e+10       0.334615121        -174.609238        0.921398995        -85.6836543        0.921398995        -85.6836543        0.334420067        -173.975107
           1.5e+10       0.335126477        -175.707335        0.920967089        -86.7603675        0.920967089        -86.7603675        0.334928418        -175.060252
          1.52e+10       0.335519986        -176.805125        0.920579942        -87.8366213        0.920579942        -87.8366213         0.33531893        -176.144927
          1.54e+10       0.335795696        -177.902727        0.920237782        -88.9125308        0.920237782        -88.9125308        0.335591639        -177.229253
          1.56e+10       0.335953643        -179.000255        0.919940784        -89.9882127        0.919940784        -89.9882127        0.335746564        -178.313355
          1.58e+10       0.335993843         179.902172        0.919689068        -91.0637855        0.919689068        -91.0637855        0.335783701        -179.397358
           1.6e+10        0.33591629         178.804438        0.919482705        -92.1393697        0.919482705        -92.1393697        0.335703016          179.51861
          1.62e+10       0.335720955         177.706428        0.919321709         -93.215088        0.919321709         -93.215088         0.33550444         178.434417
          1.64e+10       0.335407781         176.608029        0.919206038         -94.291066        0.919206038         -94.291066        0.335187863         177.349926
          1.66e+10       0.334976671         175.509128        0.919135596        -95.3674324        0.919135596        -95.3674324        0.334753116         176.264996
          1.68e+10       0.334427492         174.409619        0.919110223        -96.4443204        0.919110223        -96.4443204        0.334199963          175.17948
           1.7e+10       0.333760059           173.3094         0.91912969        -97.5218682         0.91912969        -97.5218682         0.33352807          174.09322
          1.72e+10        0.33297413         172.208377        0.919193695        -98.6002209        0.919193695        -98.6002209        0.332736984          173.00605
          1.74e+10       0.332069399          171.10647        0.919301834        -99.6795327        0.919301834        -99.6795327        0.331826073         171.917788
          1.76e+10       0.331045482         170.003617        0.919453582         -100.75997        0.919453582         -100.75997        0.330794464         170.828232
          1.78e+10       0.329901922         168.899786        0.919648228        -101.841718        0.919648228        -101.841718        0.329640914         169.737153
           1.8e+10       0.328638196         167.794989        0.919884776        -102.924984        0.919884776        -102.924984        0.328363609         168.644287
          1.82e+10       0.327253773         166.689314        0.920161734        -104.010011        0.920161734        -104.010011        0.326959799         167.549322
          1.84e+10       0.325748294          165.58297        0.920476681        -105.097093        0.920476681        -105.097093        0.325425101         166.451903
          1.86e+10        0.32412206         164.476368        0.920825305        -106.186593        0.920825305        -106.186593        0.323752116         165.351677
          1.88e+10       0.322377442         163.370227        0.921199151        -107.278942        0.921199151        -107.278942        0.321927583         164.248543
           1.9e+10       0.320522855         162.265573        0.921580355        -108.374501        0.921580355        -108.374501        0.319926989         163.143729
          1.92e+10        0.31858259         161.162549        0.921932185        -109.472716        0.921932185        -109.472716        0.317710425         162.043984
          1.94e+10       0.316601425         160.053327        0.922212965        -110.568847        0.922212965        -110.568847        0.315270156         160.972502
          1.96e+10       0.314531503         158.912781        0.922546543        -111.653664        0.922546543        -111.653664         0.31284928         159.953168
          1.98e+10        0.31214183         157.748344        0.923193853        -112.738324        0.923193853        -112.738324        0.310677853         158.920297
             2e+10       0.309460406         156.600328        0.923985061        -113.839582        0.923985061        -113.839582        0.308391338         157.831651
          2.02e+10        0.30660341         155.470035         0.92474167        -114.953845         0.92474167        -114.953845        0.305804907         156.723622
          2.04e+10        0.30357275         154.351525        0.925438625        -116.077662        0.925438625        -116.077662         0.30293422         155.619227
          2.06e+10       0.300327642         153.247756        0.926058192        -117.211623        0.926058192        -117.211623        0.299785709         154.530095
          2.08e+10        0.29681381         152.172737         0.92653539        -118.358393         0.92653539        -118.358393        0.296333561         153.472158
           2.1e+10       0.292981856          151.16064         0.92670602         -119.52101         0.92670602         -119.52101        0.292543787         152.479842
          2.12e+10       0.288891371         150.288121        0.926198972        -120.696499        0.926198972        -120.696499        0.288485284         151.629725
          2.14e+10       0.285175249         149.683557        0.924388238         -121.84778        0.924388238         -121.84778         0.28479817         151.049794
          2.16e+10       0.283790033         149.272511        0.921587254        -122.854374        0.921587254        -122.854374        0.283442287         150.663836
          2.18e+10       0.284892112         148.337919        0.921290562        -123.695679        0.921290562        -123.695679        0.284563784         149.752927
           2.2e+10       0.284410926         146.790351          0.9241256        -124.623712          0.9241256        -124.623712        0.284087796         148.230224
          2.22e+10       0.281735272         145.207513        0.927198122        -125.685326        0.927198122        -125.685326        0.281412959         146.675011
          2.24e+10       0.278102768         143.751867        0.929631822        -126.804394        0.929631822        -126.804394        0.277781219         145.249233
          2.26e+10       0.274129535         142.393797        0.931563826        -127.941822        0.931563826        -127.941822        0.273809095         143.922798
          2.28e+10        0.27001502         141.094316        0.933190193        -129.084832        0.933190193        -129.084832        0.269695805         142.656513
