# Hz S RI R 50.0 
!freq ReS11 ImS11 ReS21 ImS21 ReS12 ImS12 ReS22 ImS22
1000000000.0 -0.05466405691383894 0.007936976378751263 0.0030824627396454584 -4.977742065775893e-06 -5.810235583588596 15.79714106133539 -0.5537954131348293 -0.8265304087060636
1010000000.0 -0.18568221541082808 0.31177494549219875 0.16002352101405382 -0.025884377650692614 0.4166056483812237 0.9209555877048513 -0.8042210684080392 -0.4068887912351785
1020000000.0 -0.8880337850618131 -0.16162565768564838 -0.07799419610940934 -1.406176083724554 -0.07006595763022191 -0.18800858168517223 -0.7402500681852764 -0.1747353628506795
1030000000.0 -0.6902489241509652 0.18402531507715647 -0.984011623106587 -0.5468562551351162 0.11642964012024701 -0.18215868441815863 -0.6686157899078897 -0.07909161485147054
1040000000.0 -0.5538367045273545 0.2968938971609234 -0.9964117868740913 -0.22925638127619327 0.16209991384953865 -0.1689001868082075 -0.6205634834657654 -0.033365992207688926
1050000000.0 -0.46739054186377815 0.36048510688970614 -0.9996302412297612 -0.054474613697372824 0.1803264115923379 -0.16115478155737048 -0.5898830851371394 -0.00734063134290541
1060000000.0 -0.40204825880080947 0.40550400759736077 -0.9989077677520497 0.07974571005695902 0.1893685255546813 -0.15529004975926242 -0.5703493815351348 0.009957220494377946
1070000000.0 -0.34762894985729126 0.4410930805846787 -0.9920040470404464 0.19627223006994124 0.19480008654468117 -0.1499088802455381 -0.5580083473495772 0.02305733273584143
1080000000.0 -0.2993947665129724 0.47104193081511964 -0.9782961038491492 0.30342312983468667 0.19876443165258076 -0.1443938457095622 -0.5504332794310499 0.0340524103893421
1090000000.0 -0.25475533492911456 0.4971416344182247 -0.9573661068246759 0.40527933440625336 0.20221592948073464 -0.13839071832624508 -0.5460980581083694 0.043999207042194434
1100000000.0 -0.2121634202161026 0.5202662044650077 -0.9284803764152738 0.504120562127044 0.20563404630880677 -0.1316430813084862 -0.544008968805066 0.053469888234711986
1110000000.0 -0.17066418617888077 0.5408024916036366 -0.890468869981794 0.6011203472600163 0.20928680996880664 -0.12392963805802854 -0.5434962873332868 0.06279173640485658
1120000000.0 -0.1296970462246544 0.5588439717973708 -0.8417570254307362 0.6965085120768371 0.21333691114417405 -0.11503339173371055 -0.5440943044845941 0.07216054425470225
1130000000.0 -0.08901713184520814 0.5742903477117032 -0.7805005876251562 0.7895207205525155 0.21788469984674003 -0.1047215365594336 -0.5454699432461769 0.08169796246867962
1140000000.0 -0.048684280303392315 0.5869137358393417 -0.7048456251658779 0.8782639271283639 0.22298159319691738 -0.0927282440541818 -0.54737890975301 0.09148226284570633
1150000000.0 -0.009092546209853815 0.596424247527063 -0.6133513599698507 0.9596032967966656 0.2286254995815607 -0.0787373396797829 -0.549637814179094 0.10156564160467359
1160000000.0 0.02898052372953967 0.6025551243521624 -0.5055835758816976 1.029205328782308 0.23474074528387356 -0.062363156479439845 -0.552105963398765 0.11198440352825845
1170000000.0 0.06433137005940738 0.6051757081337208 -0.38280041641442525 1.0818968946989282 0.24113982026614947 -0.04313021463294619 -0.5546730730645908 0.12276512204383315
1180000000.0 0.09532679251038821 0.6044203310214449 -0.2485187854181997 1.1124591403945923 0.24746087643645334 -0.020455058556442418 -0.5572508227971299 0.1339285169389523
1190000000.0 0.11997231156157515 0.6007912396594273 -0.10863685937224617 1.1168087006370235 0.2530729059546341 0.006358748973158378 -0.5597668612365218 0.14549203348324793
1200000000.0 0.13607332539425349 0.5951633275718117 0.029169545508506728 1.0932485513821406 0.25694317495473196 0.03808637200272156 -0.5621604387503667 0.15747146393445194
1210000000.0 0.1414949437347141 0.5886102172050673 0.15677697374943453 1.0432653898920357 0.25747831935505855 0.07545818387154729 -0.5643791947498399 0.16988217042182796
1220000000.0 0.13453585841509502 0.5820156295171396 0.2672523976900544 0.971434867868806 0.2524021761157733 0.11887022284714341 -0.5663766673276643 0.18273990314323232
1230000000.0 0.11447051992485166 0.5755567172242967 0.35614847511879144 0.8844139140416271 0.2388394842152815 0.16787177685707072 -0.5681103466302995 0.19606139051152977
1240000000.0 0.08228727893775108 0.568352880518665 0.4219793251134863 0.7894649935466301 0.21388799277386256 0.2205446127821756 -0.5695400743224328 0.20986489297482844
1250000000.0 0.04135449311846298 0.5587356753636966 0.4658508716929142 0.6931197543361994 0.17583413330339587 0.27326885141987234 -0.5706266916362012 0.22417052631474554
1260000000.0 -0.0027407343870144386 0.5453097564967908 0.49059315815286786 0.6003789701360804 0.12548683443091668 0.3215755852336943 -0.5713308394192453 0.2390006164600027
1270000000.0 -0.043757084409452696 0.5280867481073328 0.4998209122388352 0.5145016828141828 0.06637938151219512 0.36201543703984645 -0.5716118243657314 0.2543800454388497
1280000000.0 -0.07697301009324171 0.5085778896614483 0.49720177917455605 0.43720540295523674 0.003276143806793063 0.39364707666120463 -0.5714265435529952 0.27033643823363174
1290000000.0 0.10032936648205167 -0.48881830798399795 0.4860169404908503 0.3690478317943837 0.05981478579171181 -0.41793980159673816 -0.5707283265853119 0.2869005097670353
1300000000.0 0.11403407891728035 -0.47037437649060465 0.4689722734308028 0.30982245204499625 0.1206278983634454 -0.4375674746967769 -0.5694657908734917 0.30410626694312115
1310000000.0 0.11949112601977291 -0.4540024289651678 0.4481744841012262 0.2588836700090286 0.17847588672004655 -0.45528796636514396 -0.5675815041054411 0.32199119605111115
1320000000.0 0.11841734749402721 -0.4398044083523815 0.4251937018943804 0.2153791677559253 0.23363475474916368 -0.4734261426255062 -0.5650105165440319 0.3405965269836254
1330000000.0 0.11238466031855124 -0.4275136319761287 0.40115886995411026 0.17839959011626416 0.2868055213108058 -0.4938181720052603 -0.561678635504624 0.3599673300072915
1340000000.0 0.10266951319205984 -0.4167166557299516 0.3768552953348518 0.14706560401235103 0.3387902065272168 -0.5179474245559095 -0.5575004653940445 0.38015260535513434
1350000000.0 0.09025156552277774 -0.40697942199940534 0.3528104500782403 0.1205726684574529 0.39033409835796923 -0.5471140623174682 -0.5523770338907391 0.4012052430299585
1360000000.0 0.07586397392044048 -0.397903714143458 0.3293635688911568 0.09820927443132081 0.4420591590238833 -0.5825828396237303 -0.5461929570693855 0.42318181157315254
1370000000.0 0.060051217068019226 -0.38914455794106667 0.3067194099845272 0.07935977755330834 0.49443540656766144 -0.6257031523848372 -0.5388130479980685 0.4461420771769958
1380000000.0 0.04321904276979791 -0.38040903296221146 0.28498846247182225 0.06349903081410337 0.5477594600584036 -0.6780110410973129 -0.5300782403613077 0.4701481463161349
1390000000.0 0.025673989161297647 -0.3714477952227099 0.26421637708816803 0.05018323321603066 0.6021236082451915 -0.7413247371602036 -0.519800611213137 0.49526301937058825
1400000000.0 0.0076531355961478795 -0.3620445139332808 0.24440511160610334 0.03903951231717767 0.6573621666623077 -0.8178444014611344 -0.5077573965625172 0.521548355619048
1410000000.0 -0.010652987979142606 -0.3520057532871764 0.2255280101121475 0.029755622342778933 0.712964034600984 -0.9102641733537833 -0.49368373208163346 0.5490609636077923
1420000000.0 -0.02908251889341169 -0.34115184103067514 0.2075403423542496 0.02207040550044584 0.7679348627079314 -1.0219037725619138 -0.47726396418624545 0.577847608845645
1430000000.0 -0.047487250290936686 -0.32930917138367244 0.19038665323443765 0.0157652737211686 0.8205863449249526 -1.1568651496506133 -0.45812123587619247 0.6079372624241494
1440000000.0 -0.0657189314471978 -0.3163037070319607 0.1740057636835855 0.010656722482502847 0.868217955809209 -1.3202165141261162 -0.43580536277119136 0.6393297759192101
1450000000.0 -0.08361540224148162 -0.3019559880105636 0.15833413284093137 0.006589789833771887 0.9066395658185654 -1.5182019780402454 -0.40977887433892707 0.67197938210828
1460000000.0 -0.1009851197608102 -0.2860777766031407 0.14330800686117717 0.003432301008839728 0.9294569600323553 -1.758463533128522 -0.3794017661254985 0.7057709617741689
1470000000.0 -0.1175884550408163 -0.26847134430955905 0.12886473743041776 0.0010697141630040083 0.9270046002894381 -2.0502427471802167 -0.3439159978418269 0.7404860389080993
1480000000.0 -0.13311412827831937 -0.24893273833884022 0.11494346980512586 -0.0005995946077514822 0.8847510747253134 -2.4044941729932496 -0.3024321721068591 0.7757548135929967
1490000000.0 -0.1471485789576737 -0.22726203278195675 0.10148545337602374 -0.0016687969623228273 0.7809190838522492 -2.8337824607316215 -0.25392304345128114 0.8109893298297776
1500000000.0 -0.15913653088269064 -0.2032850152861994 0.08843420586748191 -0.00222694587437682 0.5829170680873649 -3.3517513201721556 -0.19723222346875513 0.845292595955406
1510000000.0 -0.16833048824838945 -0.17689434273069995 0.07573602092418467 -0.0023632565921822973 0.24192644777720135 -3.9718549726832046 -0.13111233973294906 0.8773390700549591
1520000000.0 -0.17372910847678785 -0.14812206412822135 0.06334181348010845 -0.0021712327401616906 -0.3156396027994934 -4.705047633573738 -0.05431542648668533 0.9052263775311256
1530000000.0 -0.1740068877683702 -0.11726191623028917 0.05121274346803015 -0.0017522350887877543 -1.2029454581275523 -5.556583388311566 0.034231062258778235 0.9263088505548007
1540000000.0 -0.16744383060239162 -0.08506767992822478 0.039335618738579485 -0.0012173803160978023 -2.6035935432077393 -6.524221258507823 0.13511986065335613 0.9370467870298866
1550000000.0 -0.1518709238773707 -0.05306307305239554 0.027763619893013403 -0.0006852037126287442 -4.855821213860715 -7.608405111182442 0.24799058177755298 0.9329463583178934
1560000000.0 -0.12464834979548865 -0.024013353965429234 0.016725059085256764 -0.0002696157248767836 -8.768988828365291 -8.882153185461798 0.37088145121370647 0.9087229650850743
1570000000.0 -0.08265909691273986 -0.002648783491968602 0.0069283260437526025 -4.7951317830969194e-05 -17.485824202137675 -10.941175371063046 0.4994974526904754 0.8588736208279342
1580000000.0 0.022134427949468835 -0.0030909300170302127 0.0004998475198646906 -2.4516172497205206e-07 76.83660839582939 24.466990830273343 0.6266647881689738 0.778824478787589
1590000000.0 0.0625113833035448 -0.020824197743345194 0.004360438895584248 -1.711976214702956e-05 28.158045766020212 1.3458425890611665 0.7424446512913931 0.6666212631963909
1600000000.0 0.18458193709189413 -0.10496126688012827 0.04630014416326563 -0.0016160533401237273 8.568361938479999 -1.7699768215827119 0.8354078473372889 0.5246971750819067
1610000000.0 0.40012426113236144 -0.3709242841778741 0.31469200311086054 -0.0557346323321996 3.0534935550603333 -1.2342695091043714 0.8951508945358901 0.36078143259173034
1620000000.0 -0.5365896774393994 -1.1957644470192033 -1.5997423619865974 -1.1468562178992112 1.0396190787459572 0.7490399112861161 0.9152695954337866 0.18702035680567555
1630000000.0 0.14333736519186116 -0.8852448959055419 -1.0024455154334944 -0.02854239099715235 -0.2384632027061977 1.6780631478140227 0.8953321616444155 0.01724989829219021
1640000000.0 -0.8732431095565121 0.24828199244252772 -1.0960002752007307 0.2992297142694561 1.469687278354534 -0.1244218421009803 0.8407413036267658 -0.13640824394929868
1650000000.0 -0.8374120034601968 0.47018769892376266 -1.0679987296324431 0.9364081780175453 1.2019254716389016 0.07013371929844246 0.7606596081476173 -0.2659976537615672
1660000000.0 -0.5811659308276983 0.710562777703885 -0.42757702473142045 1.3931101238446144 1.058846391876679 0.1818281805364386 0.6652519217462404 -0.3683595909966946
1670000000.0 0.2926316001160037 -0.7428774015999635 0.1377936287296372 1.2304084520856269 -1.0251866904412414 -0.21844381064016002 0.5635116275100629 -0.44424825944529567
1680000000.0 0.10541463757374911 -0.6822737585709268 0.36189377694162994 0.969765106398036 -1.0128060411639492 -0.1873655186292321 0.46219705032014136 -0.4968161669711736
1690000000.0 -0.008930362745218925 -0.610772526928238 0.4427883693147634 0.7828106719189091 -0.9866552017261471 -0.12881979074413183 0.36571164376833143 -0.5302164492300607
1700000000.0 -0.08333567644664891 -0.5469592960355251 0.47766407850929415 0.6553508443802483 -0.9454184087642713 -0.06885755200430213 0.2765000178205089 -0.5486488078473217
1710000000.0 -0.13542128142403348 -0.4925333494611443 0.4976015906186597 0.5630946844183499 -0.8960805522110478 -0.018124123352411797 0.19559651758794364 -0.5558533212113091
1720000000.0 -0.17432040553104416 -0.44595497690067787 0.5122375962143736 0.4910276787397268 -0.8450720459645612 0.021133015203896485 0.12312494634235471 -0.5549236706912563
1730000000.0 -0.20502477327674293 -0.4053713479628498 0.5244299679295499 0.43073039280234326 -0.7964813706092322 0.050200474415360456 0.05867816544621012 -0.548302981900926
1740000000.0 -0.2304056119241652 -0.36918492540736064 0.5348099850433397 0.3775168122127491 -0.7523767920042137 0.07141743822987377 0.001576361044196271 -0.5378634837849924
1750000000.0 -0.2521730681449198 -0.336114057927453 0.5433001403093242 0.3287876582411605 -0.7135009814122288 0.08711575806413059 -0.04897109557464982 -0.5250119372173337
1760000000.0 -0.2713645307527869 -0.3051487338140664 0.5496565176451063 0.2831313523393047 -0.6798441457722408 0.09926486079639835 -0.09377163201545309 -0.5107919741381656
1770000000.0 -0.28861033720146495 -0.27549218165402606 0.5536647222701535 0.23981949747176518 -0.651019893309771 0.10942249429007123 -0.13359982717690158 -0.495971788252643
1780000000.0 -0.30428553485578874 -0.2465081358220798 0.5552008397684229 0.19851349672108815 -0.6264827340589766 0.11879734756681813 -0.16917517844006544 -0.48111451300094604
1790000000.0 -0.3185987146464656 -0.21767705737282686 0.5542371087868325 0.15909062009722352 -0.6056402033535904 0.12833899010028335 -0.20115619620687958 -0.466632528588964
1800000000.0 -0.3316436566388559 -0.188560825402251 0.5508261999365549 0.12154154755577096 -0.5879002561026081 0.13882275679821027 -0.23014380448970906 -0.4528282731085765
1810000000.0 -0.3434276524403267 -0.15877475739572763 0.5450799612931325 0.08591222792104376 -0.572679720119684 0.1509200227468305 -0.256689904665414 -0.43992429992024296
1820000000.0 -0.35388434939380964 -0.1279658018364856 0.5371503021438341 0.05227335453339743 -0.5593879876312806 0.1652530218763873 -0.28130887301050245 -0.4280847984076969
1830000000.0 -0.36287541322954725 -0.09579606638721003 0.5272156415584661 0.020706475250629956 -0.5473923075764027 0.18243528631708125 -0.304490792513743 -0.41743036849618625
1840000000.0 -0.3701833787796445 -0.061931147974897106 0.5154740843025368 -0.0087006497922562 -0.5359656572706609 0.20309797500922558 -0.32671612468642625 -0.4080470495063502
1850000000.0 -0.3754964478843537 -0.026033293583509007 0.5021432718830731 -0.03585457179267819 -0.5242145492512827 0.22789903981964116 -0.34847179868134887 -0.39999015568334567
1860000000.0 -0.37838514506404664 0.012240037873637113 0.4874664346200832 -0.06065601818231282 -0.5109815083357889 0.25750714103359734 -0.37026922902295234 -0.39328251926263563
1870000000.0 -0.3782698059118772 0.05323047871023788 0.4717240122731784 -0.0830017332684502 -0.4947168695001719 0.2925430097187419 -0.39266451348439396 -0.38790608971284046
1880000000.0 -0.3743773028654778 0.09726307237906871 0.45525076785225677 -0.10279010411527434 -0.4733172435251091 0.33344722535731425 -0.41628135343596007 -0.38378439091827027
1890000000.0 -0.3656851810575845 0.14461542774411548 0.43845895496359233 -0.11993242495618844 -0.4439422977221544 0.380221080274729 -0.44183618990229095 -0.3807518676791421
1900000000.0 -0.35085202510371155 0.19546378661596703 0.42187014120795363 -0.13437176807202986 -0.4028568800449088 0.43195741321894954 -0.4701637119835507 -0.3785034986775926
1910000000.0 -0.3281355658610322 0.2497943298917804 0.4061620653270805 -0.1461127621286896 -0.3454295805274809 0.4860490738638418 -0.5022369825075169 -0.3765150726622411
1920000000.0 -0.2953078138480644 0.3072655393935247 0.3922459760795075 -0.15526900937399785 -0.2665916033931852 0.5369738590548082 -0.5391688427092629 -0.37392073744093357
1930000000.0 -0.2495943936975284 0.36701356052125494 0.3814116320457525 -0.16214452163604579 -0.16236440105253405 0.5747274569336746 -0.5821659688892796 -0.3693331354100143
1940000000.0 -0.18770552374308985 0.4274348047405195 0.37563587924706665 -0.1673937912198689 -0.03344475401265877 0.5836008875126876 -0.6323801325981606 -0.36059860727269943
1950000000.0 -0.10611879141529411 0.4861587565197781 0.37833174141333675 -0.1723988275156615 0.108210437062067 0.5435739304784829 -0.6905608314245131 -0.34451351480353426
1960000000.0 -0.002096067405955267 0.5411695321448275 0.39648526475636153 -0.18037793719377804 0.23101752112973142 0.43930060938117066 -0.7563756143783322 -0.31662136116851286
1970000000.0 0.12141350007211013 0.5980780366340684 0.4483823725225673 -0.20078993373222515 0.2819825119886264 0.2831389818778306 -0.8273015748149669 -0.27140191570728267
1980000000.0 0.1814760874662442 0.7290569675984424 0.6057646710785665 -0.278759390385532 0.20361957443509163 0.15639232195717342 -0.8972773402908345 -0.20341300210455815
1990000000.0 1.3453048878788532 -0.3153575995777825 1.488555927844387 -1.426493732501321 0.06285190736269947 -0.04841493009405929 -0.9560283900705254 -0.1099077265619162
2000000000.0 -0.19576926635725075 0.9781081170005123 -1.0134618045661776 0.017191672095081583 0.0073294965113891355 -0.007696490845023088 -0.9907731690090679 0.005612384954989051
2010000000.0 0.0272619462430998 -0.0031212210144354107 0.0007530156343188117 2.1409090484520312e-07 0.8634413435835833 4.727613173139718 -0.9912535477150688 0.13159189244993091
2020000000.0 0.20444127120755226 -0.09423805384291616 0.05187432226005671 0.0018440950313838673 0.6638266019915331 0.887017259062161 -0.9555211315160169 0.2515596786527001
2030000000.0 0.21798229364931304 -0.20029567462208742 0.09513345505576613 0.00813465171049179 1.0302016781327734 0.48788839773261 -0.8913281856299817 0.35122731250786443
2040000000.0 0.16824974499443796 -0.2842137055701697 0.12902772994644934 0.016744213408927577 1.1774060351859454 -0.014999213683604391 -0.811622194782729 0.42388758152275074
2050000000.0 0.09108640033053207 -0.3362995908391669 0.159346821167799 0.02579909838533545 1.0708215591527226 -0.47747190854892313 -0.7284836708774118 0.4704701269135673
2060000000.0 0.006649525864068799 -0.358276920414818 0.189043829863367 0.03402152521576333 0.8101095530243977 -0.7919011742032954 -0.6498740635742132 0.49615176607922523
2070000000.0 -0.074014846057649 -0.3562657005540574 0.2195968458204405 0.04044954394431742 0.5065520655935124 -0.9462910397858865 -0.5795666559690851 0.5070164930307122
2080000000.0 -0.1457331734291696 -0.33690794946399066 0.25174300594468446 0.04427725675106514 0.22927749603677167 -0.9789732779408481 -0.5184829158017481 0.508264261026172
2090000000.0 -0.2067420539833107 -0.30576745060278304 0.2858093726740484 0.04476938094409963 0.005947993426847128 -0.9365383463384107 -0.466044259410437 0.5037139842975888
2100000000.0 -0.25701509870879263 -0.26699377570135846 0.3218624156962113 0.04121183177889733 -0.16045997773420614 -0.8557065556730988 -0.42107427739240566 0.4959360942464988
2110000000.0 -0.2972740333237421 -0.22350185871016492 0.35977049268255995 0.03288213555292097 -0.2776417969778242 -0.7604144849728537 -0.38228232189435984 0.4865648649936423
2120000000.0 -0.32846532703065084 -0.17728049820127778 0.3992195403102567 0.01903435933846597 -0.35609196131951154 -0.6644676471270416 -0.34847935010431397 0.476593821940465
2130000000.0 -0.35151103646506504 -0.12967825215208248 0.4397004918647958 -0.0011011933790879924 -0.4056413629652681 -0.574977253049871 -0.31865097932700803 0.4665996918244977
2140000000.0 -0.36720753413442025 -0.08162720763595738 0.480479115149749 -0.02830042234066052 -0.4343387370439834 -0.4950531337313896 -0.29196423174275477 0.45689623356006565
