! fixture-S
# HZ S MA R 50
1000000000.000000 0.994908 -123.823044 0.100788 3.519358 0.100788 3.519358 0.994908 -49.138240 
1010000000.000000 0.901294 -153.163260 0.433209 -30.451659 0.433209 -30.451659 0.901294 -87.740056 
1020000000.000000 0.760594 -166.718499 0.649228 -47.720168 0.649228 -47.720168 0.760594 -108.721835 
1030000000.000000 0.673277 -173.253742 0.739390 -57.319937 0.739390 -57.319937 0.673277 -121.386132 
1040000000.000000 0.621460 -176.922327 0.783446 -63.573151 0.783446 -63.573151 0.621460 -130.223976 
1050000000.000000 0.589929 -179.287036 0.807455 -68.154979 0.807455 -68.154979 0.589929 -137.022922 
1060000000.000000 0.570436 178.999826 0.821342 -71.795992 0.821342 -71.795992 0.570436 -142.591810 
1070000000.000000 0.558485 177.633841 0.829515 -74.857092 0.829515 -74.857092 0.558485 -147.348024 
1080000000.000000 0.551486 176.459923 0.834184 -77.535316 0.834184 -77.535316 0.551486 -151.530556 
1090000000.000000 0.547868 175.393620 0.836565 -79.947021 0.836565 -79.947021 0.547868 -155.287662 
1100000000.000000 0.546630 174.386508 0.837374 -82.165363 0.837374 -82.165363 0.546630 -158.717232 
1110000000.000000 0.547112 173.409667 0.837060 -84.238750 0.837060 -84.238750 0.547112 -161.887167 
1120000000.000000 0.548859 172.445232 0.835915 -86.200621 0.835915 -86.200621 0.548859 -164.846474 
1130000000.000000 0.551554 171.481822 0.834139 -88.074937 0.834139 -88.074937 0.551554 -167.631695 
1140000000.000000 0.554971 170.511970 0.831870 -89.879434 0.831870 -89.879434 0.554971 -170.270837 
1150000000.000000 0.558943 169.530611 0.829206 -91.627621 0.829206 -91.627621 0.558943 -172.785853 
1160000000.000000 0.563348 168.534167 0.826219 -93.330070 0.826219 -93.330070 0.563348 -175.194306 
1170000000.000000 0.568096 167.519982 0.822962 -94.995256 0.822962 -94.995256 0.568096 -177.510494 
1180000000.000000 0.573119 166.485960 0.819472 -96.630135 0.819472 -96.630135 0.573119 -179.746231 
1190000000.000000 0.578366 165.430324 0.815778 -98.240551 0.815778 -98.240551 0.578366 178.088574 
1200000000.000000 0.583799 164.351465 0.811898 -99.831513 0.811898 -99.831513 0.583799 175.985510 
1210000000.000000 0.589393 163.247830 0.807847 -101.407416 0.807847 -101.407416 0.589393 173.937339 
1220000000.000000 0.595127 162.117844 0.803632 -102.972193 0.803632 -102.972193 0.595127 171.937768 
1230000000.000000 0.600990 160.959859 0.799256 -104.529441 0.799256 -104.529441 0.600990 169.981260 
1240000000.000000 0.606975 159.772099 0.794721 -106.082509 0.794721 -106.082509 0.606975 168.062883 
1250000000.000000 0.613080 158.552633 0.790021 -107.634585 0.790021 -107.634585 0.613080 166.178197 
1260000000.000000 0.619306 157.299339 0.785150 -109.188753 0.785150 -109.188753 0.619306 164.323156 
1270000000.000000 0.625659 156.009866 0.780097 -110.748056 0.780097 -110.748056 0.625659 162.494020 
1280000000.000000 0.632147 154.681616 0.774848 -112.315542 0.774848 -112.315542 0.632147 160.687299 
1290000000.000000 0.638782 153.311694 0.769388 -113.894314 0.769388 -113.894314 0.638782 158.899679 
1300000000.000000 0.645579 151.896880 0.763694 -115.487581 0.763694 -115.487581 0.645579 157.127958 
1310000000.000000 0.652554 150.433589 0.757742 -117.098694 0.757742 -117.098694 0.652554 155.369023 
1320000000.000000 0.659729 148.917818 0.751503 -118.731210 0.751503 -118.731210 0.659729 153.619762 
1330000000.000000 0.667128 147.345094 0.744943 -120.388927 0.744943 -120.388927 0.667128 151.877052 
1340000000.000000 0.674776 145.710411 0.738023 -122.075962 0.738023 -122.075962 0.674776 150.137664 
1350000000.000000 0.682705 144.008159 0.730694 -123.796805 0.730694 -123.796805 0.682705 148.398232 
1360000000.000000 0.690948 142.232032 0.722904 -125.556392 0.722904 -125.556392 0.690948 146.655185 
1370000000.000000 0.699544 140.374936 0.714589 -127.360198 0.714589 -127.360198 0.699544 144.904668 
1380000000.000000 0.708535 138.428865 0.705675 -129.214334 0.705675 -129.214334 0.708535 143.142467 
1390000000.000000 0.717968 136.384767 0.696076 -131.125662 0.696076 -131.125662 0.717968 141.363910 
1400000000.000000 0.727894 134.232379 0.685689 -133.101941 0.685689 -133.101941 0.727894 139.563739 
1410000000.000000 0.738371 131.960038 0.674395 -135.151977 0.674395 -135.151977 0.738371 137.736008 
1420000000.000000 0.749459 129.554457 0.662051 -137.285834 0.662051 -137.285834 0.749459 135.873875 
1430000000.000000 0.761225 127.000460 0.648488 -139.515039 0.648488 -139.515039 0.761225 133.969462 
1440000000.000000 0.773737 124.280679 0.633507 -141.852870 0.633507 -141.852870 0.773737 132.013580 
1450000000.000000 0.787067 121.375202 0.616867 -144.314650 0.616867 -144.314650 0.787067 129.995498 
1460000000.000000 0.801285 118.261171 0.598282 -146.918120 0.598282 -146.918120 0.801285 127.902589 
1470000000.000000 0.816454 114.912337 0.577410 -149.683823 0.577410 -149.683823 0.816454 125.720017 
1480000000.000000 0.832623 111.298590 0.553840 -152.635539 0.553840 -152.635539 0.832623 123.430331 
1490000000.000000 0.849812 107.385485 0.527086 -155.800724 0.527086 -155.800724 0.849812 121.013067 
1500000000.000000 0.867998 103.133848 0.496568 -159.210868 0.496568 -159.210868 0.867998 118.444416 
1510000000.000000 0.887082 98.499562 0.461612 -162.901687 0.461612 -162.901687 0.887082 115.697064 
1520000000.000000 0.906854 93.433747 0.421444 -166.912964 0.421444 -166.912964 0.906854 112.740325 
1530000000.000000 0.926941 87.883640 0.375207 -171.287719 0.375207 -171.287719 0.926941 109.540923 
1540000000.000000 0.946739 81.794648 0.322003 -176.070242 0.322003 -176.070242 0.946739 106.064867 
1550000000.000000 0.965344 75.114182 0.260982 178.697536 0.260982 178.697536 0.965344 102.280889 
1560000000.000000 0.981494 67.797920 0.191493 172.982051 0.191493 172.982051 0.981494 98.166182 
1570000000.000000 0.993560 59.818886 0.113307 166.766751 0.113307 166.766751 0.993560 93.714622 
1580000000.000000 0.999638 51.178835 0.026901 160.062859 0.026901 160.062859 0.999638 88.946949 
1590000000.000000 0.997802 41.919822 0.066272 152.920401 0.066272 152.920401 0.997802 83.920968 
1600000000.000000 0.986516 32.131824 0.163666 145.434395 0.163666 145.434395 0.986516 78.736965 
1610000000.000000 0.965121 21.951396 0.261805 137.742779 0.261805 137.742779 0.965121 73.534162 
1620000000.000000 0.934181 11.548481 0.356798 130.011731 0.356798 130.011731 0.934181 68.474984 
1630000000.000000 0.895498 1.103751 0.445065 122.411739 0.445065 122.411739 0.895498 63.719727 
1640000000.000000 0.851735 -9.215795 0.523972 115.092096 0.523972 115.092096 0.851735 59.399988 
1650000000.000000 0.805827 -19.274396 0.592150 108.162668 0.592150 108.162668 0.805827 55.599731 
1660000000.000000 0.760427 -28.973932 0.649424 101.687493 0.649424 101.687493 0.760427 52.348917 
1670000000.000000 0.717567 -38.250722 0.696490 95.688903 0.696490 95.688903 0.717567 49.628527 
1680000000.000000 0.678566 -47.067405 0.734539 90.157467 0.734539 90.157467 0.678566 47.382338 
1690000000.000000 0.644108 -55.404407 0.764935 85.063114 0.764935 85.063114 0.644108 45.530634 
1700000000.000000 0.614384 -63.253477 0.789007 80.364614 0.789007 80.364614 0.614384 43.982705 
1710000000.000000 0.589263 -70.613788 0.807941 76.016415 0.807941 76.016415 0.589263 42.646617 
1720000000.000000 0.568419 -77.490028 0.822739 71.972973 0.822739 71.972973 0.568419 41.435974 
1730000000.000000 0.551434 -83.891582 0.834219 68.191160 0.834219 68.191160 0.551434 40.273903 
1740000000.000000 0.537866 -89.832079 0.843030 64.631368 0.843030 64.631368 0.537866 39.094814 
1750000000.000000 0.527291 -95.328911 0.849685 61.257791 0.849685 61.257791 0.527291 37.844493 
1760000000.000000 0.519328 -100.402578 0.854575 58.038265 0.854575 58.038265 0.519328 36.479110 
1770000000.000000 0.513651 -105.075916 0.857999 54.943846 0.857999 54.943846 0.513651 34.963609 
1780000000.000000 0.509992 -109.373298 0.860179 51.948291 0.860179 51.948291 0.509992 33.269879 
1790000000.000000 0.508143 -113.319933 0.861272 49.027488 0.861272 49.027488 0.508143 31.374910 
1800000000.000000 0.507956 -116.941334 0.861383 46.158888 0.861383 46.158888 0.507956 29.259110 
1810000000.000000 0.509336 -120.262986 0.860568 43.320922 0.860568 43.320922 0.509336 26.904829 
1820000000.000000 0.512241 -123.310257 0.858842 40.492427 0.858842 40.492427 0.512241 24.295110 
1830000000.000000 0.516684 -126.108542 0.856176 37.652043 0.856176 37.652043 0.516684 21.412627 
1840000000.000000 0.522729 -128.683644 0.852499 34.777571 0.852499 34.777571 0.522729 18.238785 
1850000000.000000 0.530495 -131.062411 0.847688 31.845253 0.847688 31.845253 0.530495 14.752917 
1860000000.000000 0.540158 -133.273640 0.841564 28.828957 0.841564 28.828957 0.540158 10.931554 
1870000000.000000 0.551957 -135.349276 0.833873 25.699199 0.833873 25.699199 0.551957 6.747674 
1880000000.000000 0.566198 -137.325954 0.824269 22.421984 0.824269 22.421984 0.566198 2.169921 
1890000000.000000 0.583259 -139.246915 0.812286 18.957385 0.812286 18.957385 0.583259 -2.838316 
1900000000.000000 0.603588 -141.164330 0.797296 15.257852 0.797296 15.257852 0.603588 -8.319967 
1910000000.000000 0.627699 -143.141981 0.778456 11.266230 0.778456 11.266230 0.627699 -14.325558 
1920000000.000000 0.656140 -145.258179 0.754639 6.913615 0.754639 6.913615 0.656140 -20.914591 
1930000000.000000 0.689438 -147.608464 0.724345 2.117374 0.724345 2.117374 0.689438 -28.156788 
1940000000.000000 0.727967 -150.307155 0.685612 -3.219784 0.685612 -3.219784 0.727967 -36.132412 
1950000000.000000 0.771728 -153.485875 0.635953 -9.207947 0.635953 -9.207947 0.771728 -44.930019 
1960000000.000000 0.819971 -157.285651 0.572404 -15.962047 0.572404 -15.962047 0.819971 -54.638442 
1970000000.000000 0.870682 -161.837571 0.491847 -23.582906 0.491847 -23.582906 0.870682 -65.328241 
1980000000.000000 0.920045 -167.226927 0.391812 -32.122201 0.391812 -32.122201 0.920045 -77.017475 
1990000000.000000 0.962325 -173.441906 0.271901 -41.532421 0.271901 -41.532421 0.962325 -89.622937 
2000000000.000000 0.990789 179.675443 0.135414 -51.619334 0.135414 -51.619334 0.990789 -102.914110 
2010000000.000000 0.999950 172.438028 0.009999 -62.025061 0.009999 -62.025061 0.999978 -116.495436 
2020000000.000000 0.988080 165.250451 0.153939 -72.341884 0.153939 -72.341884 0.988080 -129.934218 
2030000000.000000 0.958033 158.493111 0.286659 -82.131149 0.286659 -82.131149 0.958033 -142.755409 
2040000000.000000 0.915648 152.423193 0.401981 -91.121512 0.401981 -91.121512 0.915648 -154.666218 
2050000000.000000 0.867197 147.144773 0.497965 -99.189868 0.497965 -99.189868 0.867197 -165.524509 
2060000000.000000 0.817620 142.639774 0.575758 -106.340250 0.575758 -106.340250 0.817620 -175.320274 
2070000000.000000 0.770041 138.819917 0.637994 -112.651511 0.637994 -112.651511 0.770041 175.877062 
2080000000.000000 0.726056 135.570215 0.687636 -118.233223 0.687636 -118.233223 0.726056 167.963339 
2090000000.000000 0.686240 132.775495 0.727375 -123.198430 0.727375 -123.198430 0.686240 160.827644 
2100000000.000000 0.650581 130.332904 0.759437 -127.650406 0.759437 -127.650406 0.650581 154.366284 
2110000000.000000 0.618777 128.155869 0.785567 -131.677999 0.785567 -131.677999 0.618777 148.488133 
2120000000.000000 0.590406 126.173797 0.807106 -135.355304 0.807106 -135.355304 0.590406 143.115596 
2130000000.000000 0.565025 124.330010 0.825074 -138.743196 0.825074 -138.743196 0.565025 138.183597 
2140000000.000000 0.542215 122.579249 0.840240 -141.891400 0.840240 -141.891400 0.542215 133.637952 
2150000000.000000 0.521599 120.885274 0.853191 -144.840524 0.853191 -144.840524 0.521599 129.433679 
2160000000.000000 0.502851 119.218816 0.864373 -147.623854 0.864373 -147.623854 0.502851 125.533476 
2170000000.000000 0.485690 117.555882 0.874131 -150.268824 0.874131 -150.268824 0.485690 121.906469 
2180000000.000000 0.469880 115.876390 0.882730 -152.798221 0.882730 -152.798221 0.469880 118.527169 
2190000000.000000 0.455223 114.163093 0.890377 -155.231123 0.890377 -155.231123 0.455223 115.374661 
2200000000.000000 0.441554 112.400712 0.897234 -157.583671 0.897234 -157.583671 0.441554 112.431946 
2210000000.000000 0.428737 110.575248 0.903430 -159.869651 0.903430 -159.869651 0.428737 109.685451 
2220000000.000000 0.416658 108.673421 0.909063 -162.100978 0.909063 -162.100978 0.416658 107.124622 
2230000000.000000 0.405227 106.682213 0.914216 -164.288078 0.914216 -164.288078 0.405227 104.741631 
2240000000.000000 0.394372 104.588476 0.918951 -166.440192 0.918951 -166.440192 0.394372 102.531140 
2250000000.000000 0.384038 102.378608 0.923317 -168.565632 0.923317 -168.565632 0.384038 100.490129 
2260000000.000000 0.374185 100.038272 0.927354 -170.671987 0.927354 -170.671987 0.374185 98.617754 
2270000000.000000 0.364791 97.552161 0.931090 -172.766305 0.931090 -172.766305 0.364791 96.915229 
2280000000.000000 0.355845 94.903808 0.934545 -174.855245 0.934545 -174.855245 0.355845 95.385702 
2290000000.000000 0.347354 92.075465 0.937734 -176.945209 0.937734 -176.945209 0.347354 94.034117 
2300000000.000000 0.339342 89.048057 0.940663 -179.042472 0.940663 -179.042472 0.339342 92.866997 
2310000000.000000 0.331848 85.801264 0.943333 178.846700 0.943333 178.846700 0.331848 91.892135 
2320000000.000000 0.324934 82.313768 0.945737 -93.284059 0.945737 -93.284059 0.324934 -88.881886 
2330000000.000000 0.318684 78.563735 0.947861 -95.441340 0.947861 -95.441340 0.318684 -89.446414 
2340000000.000000 0.313206 74.529613 0.949685 -97.632076 0.949685 -97.632076 0.313206 -89.793764 
2350000000.000000 0.308639 70.191309 0.951179 -99.863677 0.951179 -99.863677 0.308639 -89.918663 
2360000000.000000 0.305152 65.531807 0.952304 -102.144177 0.952304 -102.144177 0.305152 -89.820161 
2370000000.000000 0.302951 60.539209 0.953006 -104.482397 0.953006 -104.482397 0.302951 -89.504001 
2380000000.000000 0.302278 55.209067 0.953220 -106.888135 0.953220 -106.888135 0.302278 -88.985336 
2390000000.000000 0.303411 49.546705 0.952860 -109.372389 0.952860 -109.372389 0.303411 -88.291482 
2400000000.000000 0.306664 43.569013 0.951818 -111.947609 0.951818 -111.947609 0.306664 -87.464231 
2410000000.000000 0.312381 37.305070 0.949957 -114.628002 0.949957 -114.628002 0.312381 -86.561074 
2420000000.000000 0.320928 30.794967 0.947104 -117.429876 0.947104 -117.429876 0.320928 -85.654719 
2430000000.000000 0.332690 24.086466 0.943036 -120.372047 0.943036 -120.372047 0.332690 -84.830559 
2440000000.000000 0.348055 17.229730 0.937474 -123.476292 0.937474 -123.476292 0.348055 -84.182314 
2450000000.000000 0.367411 10.270914 0.930059 -126.767849 0.930059 -126.767849 0.367411 -83.806612 
2460000000.000000 0.391136 3.245831 0.920333 -130.275928 0.920333 -130.275928 0.391136 -83.797687 
2470000000.000000 0.419586 -3.825056 0.907716 -134.034173 0.907716 -134.034173 0.419586 -84.243290 
2480000000.000000 0.453078 -10.939520 0.891471 -138.080955 0.891471 -138.080955 0.453078 -85.222391 
2490000000.000000 0.491857 -18.114001 0.870676 -142.459286 0.870676 -142.459286 0.491857 -86.804570 
2500000000.000000 0.536035 -25.381656 0.844196 -147.216006 0.844196 -147.216006 0.536035 -89.050355 
2510000000.000000 0.585502 -32.788122 0.810671 -152.399719 0.810671 -152.399719 0.585502 -92.011317 
2520000000.000000 0.639786 -40.384943 0.768553 -158.056767 0.768553 -158.056767 0.639786 -95.728590 
2530000000.000000 0.697886 -48.220331 0.716208 -164.224453 0.716208 -164.224453 0.697886 -100.228574 
2540000000.000000 0.758090 -56.327056 0.652150 -170.921062 0.652150 -170.921062 0.758090 -105.515067 
2550000000.000000 0.817871 -64.708195 0.575401 -178.133266 0.575401 -178.133266 0.817871 -111.558337 
2560000000.000000 0.873969 -73.323375 0.485982 174.196407 0.485982 174.196407 0.873969 -118.283811 
2570000000.000000 0.922773 -82.080650 0.385344 166.176872 0.385344 166.176872 0.922773 -125.565605 
2580000000.000000 0.961004 -90.840016 0.276536 157.964442 0.276536 157.964442 0.961004 -133.231101 
2590000000.000000 0.986481 -99.431551 0.163878 149.744379 0.163878 149.744379 0.986481 -141.079690 
2600000000.000000 0.998639 -107.684097 0.052163 141.702285 0.052163 141.702285 0.998639 -148.911342 
2610000000.000000 0.998526 -115.454106 0.054281 133.994361 0.054281 133.994361 0.998526 -156.557181 
2620000000.000000 0.988335 -122.644265 0.152294 126.730307 0.152294 126.730307 0.988335 -163.895121 
2630000000.000000 0.970745 -129.207771 0.240114 119.967913 0.240114 119.967913 0.970745 -170.856403 
2640000000.000000 0.948353 -135.141222 0.317216 113.720695 0.317216 113.720695 0.948353 -177.417388 
2650000000.000000 0.923353 -140.472229 0.383953 107.970294 0.383953 107.970294 0.923353 176.412818 
2660000000.000000 0.897415 -145.246919 0.441187 102.679255 0.441187 102.679255 0.897415 170.605430 
2670000000.000000 0.871723 -149.520032 0.490000 97.800876 0.490000 97.800876 0.871723 165.121784 
2680000000.000000 0.847057 -153.348220 0.531501 93.286070 0.531501 93.286070 0.847057 159.920359 
2690000000.000000 0.823902 -156.786098 0.566732 89.087411 0.566732 89.087411 0.823902 154.960921 
2700000000.000000 0.802529 -159.884249 0.596614 85.161200 0.596614 85.161200 0.802529 150.206649 
2710000000.000000 0.783070 -162.688485 0.621933 81.468261 0.621933 81.468261 0.783070 145.625007 
2720000000.000000 0.765570 -165.239825 0.643352 77.974050 0.643352 77.974050 0.765570 141.187925 
2730000000.000000 0.750017 -167.574856 0.661418 74.648317 0.661418 74.648317 0.750017 136.871489 
2740000000.000000 0.736370 -169.726247 0.676579 71.464652 0.676579 71.464652 0.736370 132.655551 
2750000000.000000 0.724571 -171.723312 0.689200 68.399941 0.689200 68.399941 0.724571 128.523194 
2760000000.000000 0.714559 -173.592561 0.699575 65.433845 0.699575 65.433845 0.714559 124.460251 
2770000000.000000 0.706274 -175.358192 0.707939 62.548311 0.707939 62.548311 0.706274 120.454814 
2780000000.000000 0.699661 -177.042546 0.714475 59.727135 0.714475 59.727135 0.699661 116.496817 
2790000000.000000 0.694673 -178.666495 0.719326 56.955573 0.719326 56.955573 0.694673 112.577641 
2800000000.000000 0.691270 179.750207 0.722596 54.219986 0.722596 54.219986 0.691270 108.689765 
2810000000.000000 0.689425 178.188615 0.724357 51.507524 0.724357 51.507524 0.689425 104.826435 
2820000000.000000 0.689117 176.630301 0.724650 48.805838 0.724650 48.805838 0.689117 100.981375 
2830000000.000000 0.690339 175.057094 0.723486 46.102798 0.723486 46.102798 0.690339 97.148502 
2840000000.000000 0.693092 173.450812 0.720849 43.386236 0.720849 43.386236 0.693092 93.321660 
2850000000.000000 0.697388 171.792993 0.716694 40.643659 0.716694 40.643659 0.697388 89.494325 
2860000000.000000 0.703248 170.064616 0.710944 37.861984 0.710944 37.861984 0.703248 85.659351 
2870000000.000000 0.710706 168.245795 0.703489 35.027231 0.703489 35.027231 0.710706 81.808667 
2880000000.000000 0.719802 166.315438 0.694180 32.124202 0.694180 32.124202 0.719802 77.932965 
2890000000.000000 0.730584 164.250861 0.682823 29.136097 0.682823 29.136097 0.730584 74.021333 
2900000000.000000 0.743107 162.027356 0.669173 26.044132 0.669173 26.044132 0.743107 70.060907 
2910000000.000000 0.757424 159.617699 0.652923 22.827060 0.652923 22.827060 0.757424 66.036420 
2920000000.000000 0.773585 156.991600 0.633693 19.460671 0.633693 19.460671 0.773585 61.929741 
2930000000.000000 0.791620 154.115118 0.611014 15.917256 0.611014 15.917256 0.791620 57.719393 
2940000000.000000 0.811526 150.950073 0.584316 12.165073 0.584316 12.165073 0.811526 53.380073 
2950000000.000000 0.833240 147.453527 0.552911 8.167889 0.552911 8.167889 0.833240 48.882251 
2960000000.000000 0.856599 143.577491 0.515983 3.884763 0.515983 3.884763 0.856599 44.192036 
2970000000.000000 0.881285 139.269104 0.472586 -0.729708 0.472586 -0.729708 0.881285 39.271480 
2980000000.000000 0.906751 134.471700 0.421666 -5.724242 0.421666 -5.724242 0.906751 34.079816 
2990000000.000000 0.932131 129.127345 0.362122 -11.148259 0.362122 -11.148259 0.932131 28.576138 
3000000000.000000 0.956134 123.181654 0.292931 -17.047004 0.292931 -17.047004 0.956134 22.724338 
