! Created Sun Jan 19 16:05:07 2025
# hz S ma R 50
! 2 Port Network Data from SP1.SP block
! freq  magS11  angS11  magS21  angS21  magS12  angS12  magS22  angS22  
!     
1e+09       0.995756153        -123.649458        0.092030887         146.350542        0.092030887         146.350542        0.995756153        -123.649458
1.01e+09       0.939181236        -151.108106        0.343421905        -61.1081056        0.343421905        -61.1081056        0.939181236        -151.108106
1.02e+09       0.862017794         -163.50278        0.506878016        -73.5027797        0.506878016        -73.5027797        0.862017794         -163.50278
1.03e+09       0.813975083        -170.521729        0.580899789        -80.5217292        0.580899789        -80.5217292        0.813975083        -170.521729
1.04e+09       0.784331711        -175.252583        0.620341654        -85.2525833        0.620341654        -85.2525833        0.784331711        -175.252583
1.05e+09       0.765357834        -178.823594        0.643604993        -88.8235937        0.643604993        -88.8235937        0.765357834        -178.823594
1.06e+09        0.75283142         178.271033         0.65821338        -91.7289671         0.65821338        -91.7289671         0.75283142         178.271033
1.07e+09       0.744394497         175.783075        0.667740093        -94.2169246        0.667740093        -94.2169246        0.744394497         175.783075
1.08e+09       0.738659691         173.574515        0.674078528        -96.4254854        0.674078528        -96.4254854        0.738659691         173.574515
1.09e+09       0.734769087         171.562388        0.678317322         -98.437612        0.678317322         -98.437612        0.734769087         171.562388
1.1e+09       0.732169245         169.693651        0.681122747        -100.306349        0.681122747        -100.306349        0.732169245         169.693651
1.11e+09        0.73049044         167.932633        0.682922922        -102.067367        0.682922922        -102.067367         0.73049044         167.932633
1.12e+09       0.729478523         166.254309        0.684003717        -103.745691        0.684003717        -103.745691        0.729478523         166.254309
1.13e+09       0.728954721         164.640469        0.684561914        -105.359531        0.684561914        -105.359531        0.728954721         164.640469
1.14e+09        0.72879097         163.077431        0.684736243        -106.922569        0.684736243        -106.922569         0.72879097         163.077431
1.15e+09       0.728894259         161.554617        0.684626292        -108.445383        0.684626292        -108.445383        0.728894259         161.554617
1.16e+09       0.729196406         160.063624        0.684304466        -109.936376        0.684304466        -109.936376        0.729196406         160.063624
1.17e+09         0.7296472         158.597618        0.683823781        -111.402382        0.683823781        -111.402382          0.7296472         158.597618
1.18e+09       0.730209716         157.150908        0.683223076        -112.849092        0.683223076        -112.849092        0.730209716         157.150908
1.19e+09       0.730857045         155.718645        0.682530571        -114.281355        0.682530571        -114.281355        0.730857045         155.718645
1.2e+09       0.731569986         154.296618         0.68176635        -115.703382         0.68176635        -115.703382        0.731569986         154.296618
1.21e+09       0.732335397         152.881083        0.680944099        -117.118917        0.680944099        -117.118917        0.732335397         152.881083
1.22e+09       0.733145013         151.468651        0.680072342        -118.531349        0.680072342        -118.531349        0.733145013         151.468651
1.23e+09       0.733994594         150.056194        0.679155311        -119.943806        0.679155311        -119.943806        0.733994594         150.056194
1.24e+09       0.734883323         148.640764        0.678193557        -121.359236        0.678193557        -121.359236        0.734883323         148.640764
1.25e+09       0.735813392         147.219538        0.677184356        -122.780462        0.677184356        -122.780462        0.735813392         147.219538
1.26e+09       0.736789719         145.789763        0.676121964        -124.210237        0.676121964        -124.210237        0.736789719         145.789763
1.27e+09       0.737819796         144.348707        0.674997739        -125.651293        0.674997739        -125.651293        0.737819796         144.348707
1.28e+09       0.738913625         142.893619         0.67380016        -127.106381         0.67380016        -127.106381        0.738913625         142.893619
1.29e+09        0.74008373         141.421688        0.672514738        -128.578312        0.672514738        -128.578312         0.74008373         141.421688
1.3e+09       0.741345261         139.929997        0.671123836        -130.070003        0.671123836        -130.070003        0.741345261         139.929997
1.31e+09       0.742716156         138.415486        0.669606386        -131.584514        0.669606386        -131.584514        0.742716156         138.415486
1.32e+09       0.744217378         136.874901        0.667937493        -133.125099        0.667937493        -133.125099        0.744217378         136.874901
1.33e+09       0.745873235         135.304747         0.66608792        -134.695253         0.66608792        -134.695253        0.745873235         135.304747
1.34e+09       0.747711767         133.701226        0.664023428        -136.298774        0.664023428        -136.298774        0.747711767         133.701226
1.35e+09       0.749765232         132.060176        0.661703934        -137.939824        0.661703934        -137.939824        0.749765232         132.060176
1.36e+09       0.752070682         130.376989         0.65908246        -139.623011         0.65908246        -139.623011        0.752070682         130.376989
1.37e+09        0.75467065         128.646519         0.65610381        -141.353481         0.65610381        -141.353481         0.75467065         128.646519
1.38e+09       0.757613963         126.862974        0.652702906        -143.137026        0.652702906        -143.137026        0.757613963         126.862974
1.39e+09       0.760956677         125.019779        0.648802694        -144.980221        0.648802694        -144.980221        0.760956677         125.019779
1.4e+09       0.764763172         123.109413        0.644311486        -146.890587        0.644311486        -146.890587        0.764763172         123.109413
1.41e+09       0.769107378         121.123204        0.639119583        -148.876796        0.639119583        -148.876796        0.769107378         121.123204
1.42e+09       0.774074153         119.051081        0.633094942        -150.948919        0.633094942        -150.948919        0.774074153         119.051081
1.43e+09       0.779760746          116.88126        0.626077615         -153.11874        0.626077615         -153.11874        0.779760746          116.88126
1.44e+09       0.786278283         114.599849        0.617872528        -155.400151        0.617872528        -155.400151        0.786278283         114.599849
1.45e+09       0.793753089         112.190355        0.608240112        -157.809645        0.608240112        -157.809645        0.793753089         112.190355
1.46e+09       0.802327509         109.633056        0.596884049        -160.366944        0.596884049        -160.366944        0.802327509         109.633056
1.47e+09       0.812159652          106.90422        0.583435257         -163.09578        0.583435257         -163.09578        0.812159652          106.90422
1.48e+09       0.823420975         103.975103        0.567430963        -166.024897        0.567430963        -166.024897        0.823420975         103.975103
1.49e+09       0.836289878         100.810728        0.548287552        -169.189272        0.548287552        -169.189272        0.836289878         100.810728
1.5e+09       0.850938159         97.3683675        0.525265884        -172.631633        0.525265884        -172.631633        0.850938159         97.3683675
1.51e+09       0.867505042         93.5957862        0.497428389        -176.404214        0.497428389        -176.404214        0.867505042         93.5957862
1.52e+09       0.886050204         89.4293183        0.463589297         179.429318        0.463589297         179.429318        0.886050204         89.4293183
1.53e+09       0.906472602         84.7921302        0.422264636          174.79213        0.422264636          174.79213        0.906472602         84.7921302
1.54e+09       0.928376791         79.5934396        0.371640328          169.59344        0.371640328          169.59344        0.928376791         79.5934396
1.55e+09       0.950866913         73.7302936        0.309599925         163.730294        0.309599925         163.730294        0.950866913         73.7302936
1.56e+09       0.972262458         67.0948031        0.233892524         157.094803        0.233892524         157.094803        0.972262458         67.0948031
1.57e+09        0.98978494         59.5912117        0.142568486         149.591212        0.142568486         149.591212         0.98978494         59.5912117
1.58e+09       0.999393738         51.1673133       0.0348160311         141.167313       0.0348160311         141.167313        0.999393738         51.1673133
1.59e+09       0.996135359         41.8598125       0.0878313482        -48.1401875       0.0878313482        -48.1401875        0.996135359         41.8598125
1.6e+09        0.97540702         31.8391805        0.220411309        -58.1608195        0.220411309        -58.1608195         0.97540702         31.8391805
1.61e+09       0.935014263         21.4214762        0.354610107        -68.5785238        0.354610107        -68.5785238        0.935014263         21.4214762
1.62e+09       0.876845419         11.0164578        0.480772411        -78.9835422        0.480772411        -78.9835422        0.876845419         11.0164578
1.63e+09       0.806643523         1.02306328        0.591038261        -88.9769367        0.591038261        -88.9769367        0.806643523         1.02306328
1.64e+09       0.731812305         -8.2686732        0.681506236        -98.2686732        0.681506236        -98.2686732        0.731812305         -8.2686732
1.65e+09       0.658912574        -16.7165151        0.752219529        -106.716515        0.752219529        -106.716515        0.658912574        -16.7165151
1.66e+09       0.592338605        -24.3049976        0.805689132        -114.304998        0.805689132        -114.304998        0.592338605        -24.3049976
1.67e+09       0.534292384        -31.0984553        0.845299739        -121.098455        0.845299739        -121.098455        0.534292384        -31.0984553
1.68e+09       0.485390514        -37.1977725         0.87429746        -127.197773         0.87429746        -127.197773        0.485390514        -37.1977725
1.69e+09       0.445329327        -42.7119307        0.895366847        -132.711931        0.895366847        -132.711931        0.445329327        -42.7119307
1.7e+09       0.413373666        -47.7432072        0.910561482        -137.743207        0.910561482        -137.743207        0.413373666        -47.7432072
1.71e+09       0.388651141        -52.3812929        0.921384985        -142.381293        0.921384985        -142.381293        0.388651141        -52.3812929
1.72e+09       0.370305549        -56.7022031        0.928910007        -146.702203        0.928910007        -146.702203        0.370305549        -56.7022031
1.73e+09       0.357565309        -60.7693614        0.933888135        -150.769361        0.933888135        -150.769361        0.357565309        -60.7693614
1.74e+09       0.349766082         -64.635451        0.936837066        -154.635451        0.936837066        -154.635451        0.349766082         -64.635451
1.75e+09       0.346350998        -68.3443626        0.938104998        -158.344363        0.938104998        -158.344363        0.346350998        -68.3443626
1.76e+09       0.346861253        -71.9329654        0.937916452        -161.932965        0.937916452        -161.932965        0.346861253        -71.9329654
1.77e+09       0.350923554        -75.4326183        0.936404111        -165.432618        0.936404111        -165.432618        0.350923554        -75.4326183
1.78e+09       0.358237431        -78.8704231        0.933630517        -168.870423        0.933630517        -168.870423        0.358237431        -78.8704231
1.79e+09       0.368563692        -82.2702523        0.929602498        -172.270252        0.929602498        -172.270252        0.368563692        -82.2702523
1.8e+09       0.381714352        -85.6535956        0.924280344        -175.653596        0.924280344        -175.653596        0.381714352        -85.6535956
1.81e+09       0.397543971        -89.0402625        0.917583125        -179.040262        0.917583125        -179.040262        0.397543971        -89.0402625
1.82e+09       0.415942114        -92.4489752        0.909391092         177.551025        0.909391092         177.551025        0.415942114        -92.4489752
1.83e+09       0.436826561        -95.8978806         0.89954575         174.102119         0.89954575         174.102119        0.436826561        -95.8978806
1.84e+09       0.460136797        -99.4049992        0.887848032         170.595001        0.887848032         170.595001        0.460136797        -99.4049992
1.85e+09       0.485827276        -102.988628        0.874054837         167.011372        0.874054837         167.011372        0.485827276        -102.988628
1.86e+09       0.513859817        -106.667702        0.857874168         163.332298        0.857874168         163.332298        0.513859817        -106.667702
1.87e+09       0.544194387        -110.462114        0.838959158         159.537886        0.838959158         159.537886        0.544194387        -110.462114
1.88e+09       0.576777327        -114.392984        0.816901411         155.607016        0.816901411         155.607016        0.576777327        -114.392984
1.89e+09       0.611525891         -118.48285        0.791224421          151.51715        0.791224421          151.51715        0.611525891         -118.48285
1.9e+09       0.648307771        -122.755739        0.761378378         147.244261        0.761378378         147.244261        0.648307771        -122.755739
1.91e+09       0.686914233        -127.237047        0.726738493         142.762953        0.726738493         142.762953        0.686914233        -127.237047
1.92e+09       0.727025694        -131.953131        0.686610254         138.046869        0.686610254         138.046869        0.727025694        -131.953131
1.93e+09        0.76816945        -136.930484         0.64024659         133.069516         0.64024659         133.069516         0.76816945        -136.930484
1.94e+09       0.809671246        -142.194306        0.586883696         127.805694        0.586883696         127.805694        0.809671246        -142.194306
1.95e+09       0.850606071        -147.766329        0.525803491         122.233671        0.525803491         122.233671        0.850606071        -147.766329
1.96e+09       0.889759315         -153.66175        0.456430019          116.33825        0.456430019          116.33825        0.889759315         -153.66175
1.97e+09       0.925616754        -159.885331        0.378462184         110.114669        0.378462184         110.114669        0.925616754        -159.885331
1.98e+09       0.956408022        -166.426987        0.292033724         103.573013        0.292033724         103.573013        0.956408022        -166.426987
1.99e+09       0.980227772        -173.257661        0.197872473         96.7423394        0.197872473         96.7423394        0.980227772        -173.257661
2e+09       0.995244358         179.673287       0.0974097934         89.6732868       0.0974097934         89.6732868        0.995244358         179.673287
2.01e+09       0.999973937         172.437759       0.0072197583        -97.5622406       0.0072197583        -97.5622406        0.999973937         172.437759
2.02e+09       0.993557158         165.124687        0.113332142        -104.875313        0.113332142        -104.875313        0.993557158         165.124687
2.03e+09       0.975949872         157.832004        0.217995062        -112.167996        0.217995062        -112.167996        0.975949872         157.832004
2.04e+09       0.947954101         150.656419        0.318407007        -119.343581        0.318407007        -119.343581        0.947954101         150.656419
2.05e+09       0.911072962         143.683502        0.412245143        -126.316498        0.412245143        -126.316498        0.911072962         143.683502
2.06e+09       0.867242084         136.980484        0.497886701        -133.019516        0.497886701        -133.019516        0.867242084         136.980484
2.07e+09        0.81852847         130.592998        0.574465964        -139.407002        0.574465964        -139.407002         0.81852847         130.592998
2.08e+09       0.766878788         124.545594        0.641791964        -145.454406        0.641791964        -145.454406        0.766878788         124.545594
2.09e+09       0.713959426         118.844851        0.700187074        -151.155149        0.700187074        -151.155149        0.713959426         118.844851
2.1e+09       0.661089425         113.483679        0.750307118        -156.516321        0.750307118        -156.516321        0.661089425         113.483679
2.11e+09       0.609242969         108.445683        0.792983609        -161.554317        0.792983609        -161.554317        0.609242969         108.445683
2.12e+09       0.559092076           103.7089        0.829105573          -166.2911        0.829105573          -166.2911        0.559092076           103.7089
2.13e+09       0.511065317          99.248674        0.859541879        -170.751326        0.859541879        -170.751326        0.511065317          99.248674
2.14e+09       0.465407002         95.0396699        0.885096787         -174.96033        0.885096787         -174.96033        0.465407002         95.0396699
2.15e+09       0.422228953         91.0571767        0.906489223        -178.942823        0.906489223        -178.942823        0.422228953         91.0571767
2.16e+09       0.381552135          87.277867         0.92434732         177.277867         0.92434732         177.277867        0.381552135          87.277867
2.17e+09       0.343338305         83.6801784        0.939211802         173.680178        0.939211802         173.680178        0.343338305         83.6801784
2.18e+09       0.307513108         80.2444455        0.951543845         170.244446        0.951543845         170.244446        0.307513108         80.2444455
2.19e+09       0.273982392         76.9528754        0.961734708         166.952875        0.961734708         166.952875        0.273982392         76.9528754
2.2e+09       0.242643433         73.7894334        0.970115542         163.789433        0.970115542         163.789433        0.242643433         73.7894334
2.21e+09       0.213392449         70.7396818        0.976966562         160.739682        0.976966562         160.739682        0.213392449         70.7396818
2.22e+09       0.186129517         67.7905983        0.982525217         157.790598        0.982525217         157.790598        0.186129517         67.7905983
2.23e+09       0.160761695         64.9303917        0.986993251         154.930392        0.986993251         154.930392        0.160761695         64.9303917
