# Hz S MA R 50.0 
!freq magS11 angS11 magS21 angS21 magS12 angS12 magS22 angS22
1000000000.0 0.9957561530970719 -123.64945779236064 0.09203088703305223 -33.6494577478813 0.09203088703305223 -33.6494577478813 0.9957561530970719 -123.64945779236064
1010000000.0 0.9391812364752354 -151.10810514306544 0.34342190762411007 -61.10810539927151 0.34342190762411007 -61.10810539927151 0.9391812364752354 -151.10810514306544
1020000000.0 0.86201779401962 -163.5027793825473 0.50687801905177 -73.50277974357645 0.50687801905177 -73.50277974357645 0.86201779401962 -163.5027793825473
1030000000.0 0.8139750788738457 -170.52172900313255 0.5808997940811358 -80.52172898158115 0.5808997940811358 -80.52172898158115 0.8139750788738457 -170.52172900313255
1040000000.0 0.7843317249830891 -175.25258371851464 0.6203416357874512 -85.25258369852416 0.6203416357874512 -85.25258369852416 0.7843317249830891 -175.25258371851464
1050000000.0 0.7653577903952078 -178.82359351461628 0.643605044123055 -88.8235934479598 0.643605044123055 -88.8235934479598 0.7653577903952078 -178.82359351461628
1060000000.0 0.7528314157163273 178.2710329097782 0.6582133844888636 88.27103291567467 0.6582133844888636 88.27103291567467 0.7528314157163273 178.2710329097782
1070000000.0 0.7443945076169322 175.78307574089212 0.6677400813127804 85.78307553135112 0.6677400813127804 85.78307553135112 0.7443945076169322 175.78307574089212
1080000000.0 0.7386596832966108 173.5745144522064 0.674078535251985 83.57451435597741 0.674078535251985 83.57451435597741 0.7386596832966108 173.5745144522064
1090000000.0 0.7347690908465614 171.56238813511447 0.6783173179746707 81.56238822639614 0.6783173179746707 81.56238822639614 0.7347690908465614 171.56238813511447
1100000000.0 0.7321692441865522 169.69365099052402 0.6811227485517297 79.69365106512325 0.6811227485517297 79.69365106512325 0.7321692441865522 169.69365099052402
1110000000.0 0.7304904395727708 167.93263312649702 0.6829229219531909 77.93263309471837 0.6829229219531909 77.93263309471837 0.7304904395727708 167.93263312649702
1120000000.0 0.7294785219736346 166.25430862223095 0.6840037178679712 76.25430862819655 0.6840037178679712 76.25430862819655 0.7294785219736346 166.25430862223095
1130000000.0 0.7289547198619172 164.6404684436984 0.6845619156018302 74.64046843698424 0.6845619156018302 74.64046843698424 0.7289547198619172 164.6404684436984
1140000000.0 0.7287909680454647 163.07743104182484 0.6847362450713091 73.0774310675915 0.6847362450713091 73.0774310675915 0.7287909680454647 163.07743104182484
1150000000.0 0.7288942622776162 161.55461681517332 0.6846262879562103 71.55461680069791 0.6846262879562103 71.55461680069791 0.7288942622776162 161.55461681517332
1160000000.0 0.7291964090967807 160.06362442195825 0.6843044620866012 70.06362441532052 0.6843044620866012 70.06362441532052 0.7291964090967807 160.06362442195825
1170000000.0 0.7296471984305655 158.59761838143453 0.6838237822260044 68.59761834878283 0.6838237822260044 68.59761834878283 0.7296471984305655 158.59761838143453
1180000000.0 0.7302097183666969 157.15090792758198 0.683223072401965 67.15090790361666 0.683223072401965 67.15090790361666 0.7302097183666969 157.15090792758198
1190000000.0 0.7308570443179344 155.71864509139448 0.6825305742187352 65.71864545137606 0.6825305742187352 65.71864545137606 0.7308570443179344 155.71864509139448
1200000000.0 0.7315699861243218 154.29661736166952 0.6817663520951941 64.2966176907239 0.6817663520951941 64.2966176907239 0.7315699861243218 154.29661736166952
1210000000.0 0.7323353974412944 152.88108263093577 0.6809440991861758 62.88108265139715 0.6809440991861758 62.88108265139715 0.7323353974412944 152.88108263093577
1220000000.0 0.7331450126795532 151.4686509657744 0.6800723444457539 61.46865133892801 0.6800723444457539 61.46865133892801 0.7331450126795532 151.4686509657744
1230000000.0 0.7339945933525664 150.05619413329603 0.6791553081885174 60.05619373473861 0.6791553081885174 60.05619373473861 0.7339945933525664 150.05619413329603
1240000000.0 0.7348833238221496 148.64076419512423 0.6781935550327459 58.640763930727324 0.6781935550327459 58.640763930727324 0.7348833238221496 148.64076419512423
1250000000.0 0.7358133918779395 147.21953810506002 0.6771843572561984 57.21953820974559 0.6771843572561984 57.21953820974559 0.7358133918779395 147.21953810506002
1260000000.0 0.7367897190014636 145.7897632253962 0.6761219614907946 55.78976287973482 0.6761219614907946 55.78976287973482 0.7367897190014636 145.7897632253962
1270000000.0 0.7378197960726707 144.34870649549214 0.6749977419468512 54.3487068349259 0.6749977419468512 54.3487068349259 0.7378197960726707 144.34870649549214
1280000000.0 0.7389136245514226 142.89361908307038 0.6738001621575936 52.89361941703851 0.6738001621575936 52.89361941703851 0.7389136245514226 142.89361908307038
1290000000.0 0.7400837303153075 141.4216884429553 0.6725147350568672 51.42168810900385 0.6725147350568672 51.42168810900385 0.7400837303153075 141.4216884429553
1300000000.0 0.741345261010316 139.92999684240297 0.671123838592979 49.92999716097924 0.671123838592979 49.92999716097924 0.741345261010316 139.92999684240297
1310000000.0 0.7427161552647135 138.41548620415864 0.669606385408319 48.415486112053536 0.669606385408319 48.415486112053536 0.7427161552647135 138.41548620415864
1320000000.0 0.7442173778017119 136.87490097113317 0.6679374945623986 46.87490120483652 0.6679374945623986 46.87490120483652 0.7442173778017119 136.87490097113317
1330000000.0 0.7458732350703385 135.30474679878267 0.6660879209011648 45.30474688470544 0.6660879209011648 45.30474688470544 0.7458732350703385 135.30474679878267
1340000000.0 0.7477117669798349 133.70122651403608 0.6640234277663535 43.70122636999763 0.6640234277663535 43.70122636999763 0.7477117669798349 133.70122651403608
1350000000.0 0.7497652320736222 132.06017656812017 0.6617039330341195 42.06017634661017 0.6617039330341195 42.06017634661017 0.7497652320736222 132.06017656812017
1360000000.0 0.7520706819582705 130.37698890135613 0.6590824597069124 40.376988827438936 0.6590824597069124 40.376988827438936 0.7520706819582705 130.37698890135613
1370000000.0 0.754670650830982 128.64651909367626 0.6561038094017536 38.64651902904551 0.6561038094017536 38.64651902904551 0.754670650830982 128.64651909367626
1380000000.0 0.7576139627650343 126.86297365390263 0.6527029074425048 36.862973934790254 0.6527029074425048 36.862973934790254 0.7576139627650343 126.86297365390263
1390000000.0 0.760956677256984 125.01977957850285 0.6488026929827967 35.01977931353827 0.6488026929827967 35.01977931353827 0.760956677256984 125.01977957850285
1400000000.0 0.7647631713399816 123.10941268521788 0.6443114861394719 33.1094126151572 0.6443114861394719 33.1094126151572 0.7647631713399816 123.10941268521788
1410000000.0 0.7691073776766288 121.12320403915822 0.6391195815984875 31.123203765864766 0.6391195815984875 31.123203765864766 0.7691073776766288 121.12320403915822
1420000000.0 0.7740741529226762 119.05108123797454 0.6330949421133457 29.051081237501496 0.6330949421133457 29.051081237501496 0.7740741529226762 119.05108123797454
1430000000.0 0.7797607455715581 116.88126038108989 0.6260776148796987 26.881260382785623 0.6260776148796987 26.881260382785623 0.7797607455715581 116.88126038108989
1440000000.0 0.7862782832979847 114.59984921625717 0.6178725280575316 24.599849337532525 0.6178725280575316 24.599849337532525 0.7862782832979847 114.59984921625717
1450000000.0 0.7937530892426204 112.19035521975422 0.6082401108481403 22.190354968102053 0.6082401108481403 22.190354968102053 0.7937530892426204 112.19035521975422
1460000000.0 0.8023275093826344 109.63305639685306 0.5968840486716263 19.633056456886862 0.5968840486716263 19.633056456886862 0.8023275093826344 109.63305639685306
1470000000.0 0.812159652299713 106.90421931435345 0.58343525724451 16.904219436015964 0.58343525724451 16.904219436015964 0.812159652299713 106.90421931435345
1480000000.0 0.8234209754012097 103.97510307067854 0.5674309628420127 13.975103250830642 0.5674309628420127 13.975103250830642 0.8234209754012097 103.97510307067854
1490000000.0 0.8362898784369635 100.81072804790507 0.5482875517619804 10.810727871992288 0.5482875517619804 10.810727871992288 0.8362898784369635 100.81072804790507
1500000000.0 0.850938159457497 97.36836745292926 0.5252658839794491 7.368367464730717 0.5252658839794491 7.368367464730717 0.850938159457497 97.36836745292926
1510000000.0 0.8675050421873075 93.59578622627703 0.4974283880528091 3.595786225723576 0.4974283880528091 3.595786225723576 0.8675050421873075 93.59578622627703
1520000000.0 0.8860502040157642 89.42931837355437 0.46358929589167763 -0.5706816537836931 0.46358929589167763 -0.5706816537836931 0.8860502040157642 89.42931837355437
1530000000.0 0.9064726013686534 84.79213013838798 0.422264635512768 -5.20786983335775 0.422264635512768 -5.20786983335775 0.9064726013686534 84.79213013838798
1540000000.0 0.9283767916718786 79.59343961003609 0.3716403276978717 -10.406560391338248 0.3716403276978717 -10.406560391338248 0.9283767916718786 79.59343961003609
1550000000.0 0.950866913026647 73.7302936301385 0.3095999250550506 -16.269706369347407 0.3095999250550506 -16.269706369347407 0.950866913026647 73.7302936301385
1560000000.0 0.9722624581414347 67.09480312366225 0.23389252398688473 -22.90519687813094 0.23389252398688473 -22.90519687813094 0.9722624581414347 67.09480312366225
1570000000.0 0.9897849401319373 59.59121170791201 0.1425684861853795 -30.408788300285284 0.1425684861853795 -30.408788300285284 0.9897849401319373 59.59121170791201
1580000000.0 0.999393738253488 51.1673133711495 0.03481603108555331 -38.83268662978308 0.03481603108555331 -38.83268662978308 0.999393738253488 51.1673133711495
1590000000.0 0.9961353590885766 41.85981248552091 0.0878313482411264 -48.14018750421402 0.0878313482411264 -48.14018750421402 0.9961353590885766 41.85981248552091
1600000000.0 0.9754070202811844 31.83918043943794 0.22041130839780576 -58.160819562534954 0.22041130839780576 -58.160819562534954 0.9754070202811844 31.83918043943794
1610000000.0 0.935014263140127 21.421476198430664 0.35461010712398794 -68.57852381520368 0.35461010712398794 -68.57852381520368 0.935014263140127 21.421476198430664
1620000000.0 0.8768454227532365 11.016457824577444 0.4807724100321744 -78.98354287171273 0.4807724100321744 -78.98354287171273 0.8768454227532365 11.016457824577444
1630000000.0 0.806643504602905 1.0230632268965838 0.5910382864544856 -88.9769362976446 0.5910382864544856 -88.9769362976446 0.806643504602905 1.0230632268965838
1640000000.0 0.7318123085596692 -8.268673186350487 0.6815062332546883 81.73132706257078 0.6815062332546883 81.73132706257078 0.7318123085596692 -8.268673186350487
1650000000.0 0.6589125709594085 -16.716515037446896 0.7522195294665742 73.2834845325044 0.7522195294665742 73.2834845325044 0.6589125709594085 -16.716515037446896
1660000000.0 0.5923386018123706 -24.304997531325476 0.8056891324656704 65.69500212311127 0.8056891324656704 65.69500212311127 0.5923386018123706 -24.304997531325476
1670000000.0 0.5342923868879902 -31.098455512794008 0.8452997394575501 58.90154503184051 0.8452997394575501 58.90154503184051 0.5342923868879902 -31.098455512794008
1680000000.0 0.48539051427794055 -37.197772532842336 0.8742974600778006 52.80222750913574 0.8742974600778006 52.80222750913574 0.48539051427794055 -37.197772532842336
1690000000.0 0.44532932683980603 -42.711930680086944 0.895366846630199 47.28806928737685 0.895366846630199 47.28806928737685 0.44532932683980603 -42.711930680086944
1700000000.0 0.41337366638934003 -47.74320715893672 0.9105614816769538 42.25679284057191 0.9105614816769538 42.25679284057191 0.41337366638934003 -47.74320715893672
1710000000.0 0.38865114064982986 -52.381292968435574 0.9213849853941866 37.61870703997008 0.9213849853941866 37.61870703997008 0.38865114064982986 -52.381292968435574
1720000000.0 0.3703055487529008 -56.70220313058869 0.928910006650588 33.297796867637125 0.928910006650588 33.297796867637125 0.3703055487529008 -56.70220313058869
1730000000.0 0.3575653092531003 -60.769361446019 0.9338881351293301 29.230638544267457 0.9338881351293301 29.230638544267457 0.3575653092531003 -60.769361446019
1740000000.0 0.3497660822313341 -64.63545098235792 0.9368370655472599 25.36454901355993 0.9368370655472599 25.36454901355993 0.3497660822313341 -64.63545098235792
1750000000.0 0.3463509974972708 -68.34436255152657 0.938104997484523 21.655637446165823 0.938104997484523 21.655637446165823 0.3463509974972708 -68.34436255152657
1760000000.0 0.34686125312027294 -71.93296537063706 0.9379164518439264 18.067034625656436 0.9379164518439264 18.067034625656436 0.34686125312027294 -71.93296537063706
1770000000.0 0.35092355387461704 -75.4326183616453 0.936404111359078 14.567381641232634 0.936404111359078 14.567381641232634 0.35092355387461704 -75.4326183616453
1780000000.0 0.3582374308292106 -78.87042310187604 0.933630517349407 11.129576896991306 0.933630517349407 11.129576896991306 0.3582374308292106 -78.87042310187604
1790000000.0 0.36856369204203254 -82.27025229126083 0.9296024983088186 7.729747708580496 0.9296024983088186 7.729747708580496 0.36856369204203254 -82.27025229126083
1800000000.0 0.3817143521538527 -85.65359566293041 0.9242803437870851 4.346404355574013 0.9242803437870851 4.346404355574013 0.3817143521538527 -85.65359566293041
1810000000.0 0.3975439704038774 -89.04026250876032 0.917583125211782 0.9597375085425143 0.917583125211782 0.9597375085425143 0.3975439704038774 -89.04026250876032
1820000000.0 0.41594211428058686 -92.44897518253417 0.9093910918098873 -2.448975225468152 0.9093910918098873 -2.448975225468152 0.41594211428058686 -92.44897518253417
1830000000.0 0.4368265607797386 -95.89788055413119 0.899545749461668 -5.8978805614780585 0.899545749461668 -5.8978805614780585 0.4368265607797386 -95.89788055413119
1840000000.0 0.4601367974335782 -99.40499958984117 0.8878480316292497 -9.404999258246804 0.8878480316292497 -9.404999258246804 0.4601367974335782 -99.40499958984117
1850000000.0 0.4858272758744596 -102.98862755900223 0.8740548371806637 -12.988627884664393 0.8740548371806637 -12.988627884664393 0.4858272758744596 -102.98862755900223
1860000000.0 0.513859816166758 -106.66770174767402 0.8578741684892357 -16.66770166606652 0.8578741684892357 -16.66770166606652 0.513859816166758 -106.66770174767402
1870000000.0 0.5441943871381923 -110.46211377214735 0.8389591582583311 -20.462113696795463 0.8389591582583311 -20.462113696795463 0.5441943871381923 -110.46211377214735
1880000000.0 0.5767773276044428 -114.39298429956017 0.8169014096338713 -24.39298398674197 0.8169014096338713 -24.39298398674197 0.5767773276044428 -114.39298429956017
1890000000.0 0.6115258903227305 -118.48285056170154 0.7912244208226015 -28.482850327981822 0.7912244208226015 -28.482850327981822 0.6115258903227305 -118.48285056170154
1900000000.0 0.6483077705897307 -122.7557393188037 0.7613783771469986 -32.7557391597436 0.7613783771469986 -32.7557391597436 0.6483077705897307 -122.7557393188037
1910000000.0 0.6869142325868166 -127.23704645386624 0.726738493075922 -37.237046525485546 0.726738493075922 -37.237046525485546 0.6869142325868166 -127.23704645386624
1920000000.0 0.727025694140075 -131.95313111135602 0.6866102549784885 -41.95313140979128 0.6866102549784885 -41.95313140979128 0.727025694140075 -131.95313111135602
1930000000.0 0.7681694498751103 -136.93048442929336 0.6402465892324853 -46.93048427933066 0.6402465892324853 -46.93048427933066 0.7681694498751103 -136.93048442929336
1940000000.0 0.8096712465438209 -142.1943062550523 0.5868836963027304 -52.19430626544088 0.5868836963027304 -52.19430626544088 0.8096712465438209 -142.1943062550523
1950000000.0 0.850606071130621 -147.76632912575712 0.5258034885586939 -57.7663288099751 0.5258034885586939 -57.7663288099751 0.850606071130621 -147.76632912575712
1960000000.0 0.8897593145068837 -153.66174982385562 0.45643002055185183 -63.66175003692509 0.45643002055185183 -63.66175003692509 0.8897593145068837 -153.66174982385562
1970000000.0 0.9256167534184565 -159.88533132554517 0.37846218217288463 -69.8853310605068 0.37846218217288463 -69.8853310605068 0.9256167534184565 -159.88533132554517
1980000000.0 0.9564080222890537 -166.42698642940903 0.29203372683520457 -76.42698680614741 0.29203372683520457 -76.42698680614741 0.9564080222890537 -166.42698642940903
1990000000.0 0.9802277721130048 -173.25766082942607 0.19787246970053743 -83.25766066403435 0.19787246970053743 -83.25766066403435 0.9802277721130048 -173.25766082942607
2000000000.0 0.9952443614551293 179.67328709780546 0.09740975618090975 89.67328610703768 0.09740975618090975 89.67328610703768 0.9952443614551293 179.67328709780546
2010000000.0 0.9999739368159326 172.4377596386708 0.00721975816828389 82.4377594044161 0.00721975816828389 82.4377594044161 0.9999739368159326 172.4377596386708
2020000000.0 0.9935571572981529 165.1246866641148 0.11333214384927598 75.12468684629495 0.11333214384927598 75.12468684629495 0.9935571572981529 165.1246866641148
2030000000.0 0.9759498726118319 157.83200437292408 0.21799506213271708 67.83200440768594 0.21799506213271708 67.83200440768594 0.9759498726118319 157.83200437292408
2040000000.0 0.9479541017413454 150.6564193090173 0.3184070063398479 60.65641932765895 0.3184070063398479 60.65641932765895 0.9479541017413454 150.6564193090173
2050000000.0 0.9110729622998563 143.68350265462024 0.41224514201576207 53.68350253999731 0.41224514201576207 53.68350253999731 0.9110729622998563 143.68350265462024
2060000000.0 0.8672420842091416 136.9804835901425 0.49788670156219683 46.98048370807362 0.49788670156219683 46.98048370807362 0.8672420842091416 136.9804835901425
2070000000.0 0.8185284697087111 130.59299840323925 0.5744659628864236 40.5929981378265 0.5744659628864236 40.5929981378265 0.8185284697087111 130.59299840323925
2080000000.0 0.7668787876821022 124.54559463064444 0.6417919629066209 34.54559436198485 0.6417919629066209 34.54559436198485 0.7668787876821022 124.54559463064444
2090000000.0 0.7139594260042325 118.84485009857111 0.7001870752088785 28.84485045347706 0.7001870752088785 28.84485045347706 0.7139594260042325 118.84485009857111
2100000000.0 0.6610894253766622 113.48367920121193 0.7503071173739377 23.483679051009467 0.7503071173739377 23.483679051009467 0.6610894253766622 113.48367920121193
2110000000.0 0.6092429687844888 108.4456827654485 0.7929836103682609 18.445683066409252 0.7929836103682609 18.445683066409252 0.6092429687844888 108.4456827654485
2120000000.0 0.5590920759595294 103.70890074635042 0.8291055718548325 13.708900434588008 0.8291055718548325 13.708900434588008 0.5590920759595294 103.70890074635042
2130000000.0 0.5110653172542964 99.24867350905535 0.8595418790770718 9.248673906940612 0.8595418790770718 9.248673906940612 0.5110653172542964 99.24867350905535
2140000000.0 0.46540700186246503 95.03966987464784 0.8850967870512486 5.039669874297015 0.8850967870512486 5.039669874297015 0.46540700186246503 95.03966987464784
2150000000.0 0.4222289528145505 91.05717673994361 0.9064892229344367 1.057176722920835 0.9064892229344367 1.057176722920835 0.4222289528145505 91.05717673994361
2160000000.0 0.3815521347641698 87.27786695525386 0.9243473202529489 -2.72213302729005 0.9243473202529489 -2.72213302729005 0.3815521347641698 87.27786695525386
2170000000.0 0.343338304803493 83.68017841555685 0.9392118014903527 -6.319821583319462 0.9392118014903527 -6.319821583319462 0.343338304803493 83.68017841555685
2180000000.0 0.30751310806467563 80.24444553567598 0.9515438445214683 -9.755554462876354 0.9515438445214683 -9.755554462876354 0.30751310806467563 80.24444553567598
2190000000.0 0.2739823922563062 76.95287541595265 0.9617347078919812 -13.047124581766012 0.9617347078919812 -13.047124581766012 0.2739823922563062 76.95287541595265
2200000000.0 0.24264343303515484 73.78943346508841 0.9701155417736084 -16.210566534799817 0.9701155417736084 -16.210566534799817 0.24264343303515484 73.78943346508841
