# Hz S RI R 50.0 
!freq ReS11 ImS11 ReS21 ImS21 ReS12 ImS12 ReS22 ImS22
1000000000.0 -0.5517587623231911 -0.8289104804683433 0.07661049001871302 -0.0509952643603609 0.07661049001871302 -0.0509952643603609 -0.5517587623231911 -0.8289104804683433
1010000000.0 -0.8222840566248683 -0.4537734293319769 0.16592722407064725 -0.3006771739730038 0.16592722407064725 -0.3006771739730038 -0.8222840566248683 -0.4537734293319769
1020000000.0 -0.8265315481113534 -0.24478618666726581 0.1439375562895241 -0.4860116316378103 0.1439375562895241 -0.4860116316378103 -0.8265315481113534 -0.24478618666726581
1030000000.0 -0.8028627917862181 -0.1340401678338371 0.0956588329171331 -0.5729694219139778 0.0956588329171331 -0.5729694219139778 -0.8028627917862181 -0.1340401678338371
1040000000.0 -0.7816408676785384 -0.06491385668476321 0.0513415012138422 -0.6182133898133877 0.0513415012138422 -0.6182133898133877 -0.7816408676785384 -0.06491385668476321
1050000000.0 -0.7651964701737279 -0.015713349493402598 0.013213678221978034 -0.6434693866288322 0.013213678221978034 -0.6434693866288322 -0.7651964701737279 -0.015713349493402598
1060000000.0 -0.7524886771536469 0.02271411994782556 0.019859343544192908 0.6579137223027639 0.019859343544192908 0.6579137223027639 -0.7524886771536469 0.02271411994782556
1070000000.0 -0.7423792830449782 0.05473740106982374 0.04910079007856884 0.6659323753995287 0.04910079007856884 0.6659323753995287 -0.7423792830449782 0.05473740106982374
1080000000.0 -0.7340195995004954 0.08266411117880464 0.07543677429859298 0.6698441346842449 0.07543677429859298 0.6698441346842449 -0.7340195995004954 0.08266411117880464
1090000000.0 -0.7268161144169368 0.1078144363587203 0.09953113084831745 0.6709753630770697 0.09953113084831745 0.6709753630770697 -0.7268161144169368 0.1078144363587203
1100000000.0 -0.7203558534979483 0.1309933069433298 0.12186051426869199 0.6701329820691061 0.12186051426869199 0.6701329820691061 -0.7203558534979483 0.1309933069433298
1110000000.0 -0.7143484033907477 0.15271751988658527 0.1427729776257818 0.6678320104554379 0.1427729776257818 0.6678320104554379 -0.7143484033907477 0.15271751988658527
1120000000.0 -0.7085862140368497 0.1733334684870823 0.1625280707441253 0.664413811022468 0.1625280707441253 0.664413811022468 -0.7085862140368497 0.1733334684870823
1130000000.0 -0.7029184458856469 0.1930819568024758 0.1813234082609113 0.6601112314671628 0.1813234082609113 0.6601112314671628 -0.7029184458856469 0.1930819568024758
1140000000.0 -0.6972335914116589 0.21213579168034227 0.19931238392716003 0.6550864820217467 0.19931238392716003 0.6550864820217467 -0.6972335914116589 0.21213579168034227
1150000000.0 -0.6914478245492547 0.23062253035497945 0.21661612001475614 0.649454086683926 0.21661612001475614 0.649454086683926 -0.6914478245492547 0.23062253035497945
1160000000.0 -0.6854970096817393 0.24863879978199882 0.23333170332499673 0.6432953544485522 0.23333170332499673 0.6432953544485522 -0.6854970096817393 0.24863879978199882
1170000000.0 -0.6793312005795064 0.26625956151240754 0.24953788771288224 0.6366677373117559 0.24953788771288224 0.6366677373117559 -0.6793312005795064 0.26625956151240754
1180000000.0 -0.6729107333715733 0.28354431348644993 0.2652991494661734 0.6296110926237765 0.2652991494661734 0.6296110926237765 -0.6729107333715733 0.28354431348644993
1190000000.0 -0.6662033418643242 0.3005413890264594 0.28066868283840085 0.6221519711590678 0.28066868283840085 0.6221519711590678 -0.6662033418643242 0.3005413890264594
1200000000.0 -0.6591821728589778 0.3172908879606489 0.2956904366771375 0.6143065395280046 0.2956904366771375 0.6143065395280046 -0.6591821728589778 0.3172908879606489
1210000000.0 -0.6518241638522874 0.33382689191220805 0.3104007437480071 0.6060827043375817 0.3104007437480071 0.6060827043375817 -0.6518241638522874 0.33382689191220805
1220000000.0 -0.6441088813152863 0.3501790379615443 0.32482942985455926 0.5974815772727273 0.32482942985455926 0.5974815772727273 -0.6441088813152863 0.3501790379615443
1230000000.0 -0.6360175992114637 0.366373684322558 0.3390006380789052 0.588498513186512 0.3390006380789052 0.588498513186512 -0.6360175992114637 0.366373684322558
1240000000.0 -0.6275324965037511 0.38243491663766804 0.35293343751237516 0.5791238958751854 0.35293343751237516 0.5791238958751854 -0.6275324965037511 0.38243491663766804
1250000000.0 -0.6186360506422764 0.3983852212528029 0.3666421978818358 0.569343615442263 0.3666421978818358 0.569343615442263 -0.6186360506422764 0.3983852212528029
1260000000.0 -0.6093104621784362 0.4142461233447529 0.38013682427703704 0.55913942951533 0.38013682427703704 0.55913942951533 -0.6093104621784362 0.4142461233447529
1270000000.0 -0.5995370898797496 0.4300387532946749 0.39342287448939317 0.5484891917457 0.39342287448939317 0.5484891917457 -0.5995370898797496 0.4300387532946749
1280000000.0 -0.5892959892840968 0.44578423206905643 0.40650148482961085 0.5373669150170312 0.40650148482961085 0.5373669150170312 -0.5892959892840968 0.44578423206905643
1290000000.0 -0.5785653233510334 0.46150416519586795 0.4193692428827781 0.5257428144944387 0.4193692428827781 0.5257428144944387 -0.5785653233510334 0.46150416519586795
1300000000.0 -0.5673207794124587 0.4772210486444346 0.4320178960477049 0.5135832398183272 0.4320178960477049 0.5135832398183272 -0.5673207794124587 0.4772210486444346
1310000000.0 -0.5555349824158982 0.4929585891364158 0.4444338759643107 0.5008505178942455 0.4444338759643107 0.5008505178942455 -0.5555349824158982 0.4929585891364158
1320000000.0 -0.5431766470359246 0.508742209313191 0.4565977701174763 0.4875027927776851 0.4565977701174763 0.4875027927776851 -0.5431766470359246 0.508742209313191
1330000000.0 -0.5302097665069175 0.5245993578865423 0.46848348840156456 0.4734937586341952 0.46848348840156456 0.4734937586341952 -0.5302097665069175 0.5245993578865423
1340000000.0 -0.5165924800897929 0.540559983715761 0.4800573028460868 0.4587723821316167 0.4800573028460868 0.4587723821316167 -0.5165924800897929 0.540559983715761
1350000000.0 -0.5022757865041911 0.5566569298212399 0.4912765561022507 0.44328257400571774 0.4912765561022507 0.44328257400571774 -0.5022757865041911 0.5566569298212399
1360000000.0 -0.48720191692428794 0.5729263502462401 0.5020880585083176 0.4269628440469522 0.5020880585083176 0.4269628440469522 -0.48720191692428794 0.5729263502462401
1370000000.0 -0.4713023237052613 0.5894081021632456 0.5124260510787803 0.4097459589639657 0.5124260510787803 0.4097459589639657 -0.4713023237052613 0.5894081021632456
1380000000.0 -0.454495130369578 0.6061460987640513 0.5222096463217202 0.39155864269920404 0.5222096463217202 0.39155864269920404 -0.454495130369578 0.6061460987640513
1390000000.0 -0.4366819815439016 0.6231885041116221 0.53133955335175 0.37232138464731246 0.53133955335175 0.37232138464731246 -0.4366819815439016 0.6231885041116221
1400000000.0 -0.4177439104858035 0.640587803107439 0.5396939800708709 0.3519484323683191 0.5396939800708709 0.3519484323683191 -0.4177439104858035 0.640587803107439
1410000000.0 -0.3975362701621202 0.6584003890507738 0.5471233206180895 0.330348167269717 0.5471233206180895 0.330348167269717 -0.3975362701621202 0.6584003890507738
1420000000.0 -0.37588203491188243 0.6766856656184326 0.553443453302324 0.3074240552173803 0.553443453302324 0.3074240552173803 -0.37588203491188243 0.6766856656184326
1430000000.0 -0.35256336796118853 0.6955040559954886 0.5584270854659471 0.28307661519712307 0.5584270854659471 0.28307661519712307 -0.35256336796118853 0.6955040559954886
1440000000.0 -0.3273106652912584 0.7149134683111094 0.5617926896402572 0.25720698823121213 0.5617926896402572 0.25720698823121213 -0.3273106652912584 0.7149134683111094
1450000000.0 -0.29978857735591513 0.7349631117063767 0.5631903061454676 0.229723119229068 0.5631903061454676 0.229723119229068 -0.29978857735591513 0.7349631117063767
1460000000.0 -0.26957805342607727 0.7556832044072096 0.5621834539092394 0.20055007282299941 0.5621834539092394 0.20055007282299941 -0.26957805342607727 0.7556832044072096
1470000000.0 -0.23615381712410688 0.7770679992647391 0.5582262877393316 0.16964701905053453 0.5582262877393316 0.16964701905053453 -0.23615381712410688 0.7770679992647391
1480000000.0 -0.19885636884692176 0.7990483385250837 0.550635435915256 0.1370347193459729 0.550635435915256 0.1370347193459729 -0.19885636884692176 0.7990483385250837
1490000000.0 -0.1568589071818683 0.8214475296778371 0.5385566259080231 0.10283968158114863 0.5385566259080231 0.10283968158114863 -0.1568589071818683 0.8214475296778371
1500000000.0 -0.1091311878422171 0.8439112127831099 0.5209283004225446 0.06736434287953272 0.5209283004225446 0.06736434287953272 -0.1091311878422171 0.8439112127831099
1510000000.0 -0.054407418054328034 0.8657972228420832 0.4964491224780788 0.031197276027908317 0.4964491224780788 0.031197276027908317 -0.054407418054328034 0.8657972228420832
1520000000.0 0.008825156323249815 0.8860062531676892 0.4635663004174114 -0.004617399988700981 0.4635663004174114 -0.004617399988700981 0.008825156323249815 0.8860062531676892
1530000000.0 0.08227994607899287 0.9027306284298166 0.4205215019424896 -0.03832869432635968 0.4205215019424896 -0.03832869432635968 0.08227994607899287 0.9027306284298166
1540000000.0 0.1676943369782289 0.913105731369814 0.36552713970420414 -0.06713004775094901 0.36552713970420414 -0.06713004775094901 0.1676943369782289 0.913105731369814
1550000000.0 0.26639411177386996 0.9127880715155277 0.2972015480416364 -0.08673726670669211 0.2972015480416364 -0.08673726670669211 0.26639411177386996 0.9127880715155277
1560000000.0 0.3784118430625166 0.8955996675642831 0.21545012354594373 -0.09103272511022083 0.21545012354594373 -0.09103272511022083 0.3784118430625166 0.8955996675642831
1570000000.0 0.5009955379601847 0.8536262054646446 0.1229562008236079 -0.07216332816753501 0.1229562008236079 -0.07216332816753501 0.5009955379601847 0.8536262054646446
1580000000.0 0.6266681579341704 0.778508101365474 0.02712100468480768 -0.0218313335698224 0.02712100468480768 -0.0218313335698224 0.6266681579341704 0.778508101365474
1590000000.0 0.7419014774048611 0.6647314130165746 0.058610765798503946 -0.0654150125457982 0.058610765798503946 -0.0654150125457982 0.7419014774048611 0.6647314130165746
1600000000.0 0.8286396204771032 0.514563149272644 0.11627508785562687 -0.18724649212681901 0.11627508785562687 -0.18724649212681901 0.8286396204771032 0.514563149272644
1610000000.0 0.870422527455343 0.34149128242713195 0.12951274108189179 -0.33011328051434263 0.12951274108189179 -0.33011328051434263 0.870422527455343 0.34149128242713195
1620000000.0 0.8606872084852542 0.16755722769598091 0.09187125239942566 -0.47191289792789765 0.09187125239942566 -0.47191289792789765 0.8606872084852542 0.16755722769598091
1630000000.0 0.8065149167955485 0.014402517291302054 0.01055291841756883 -0.5909440683922014 0.01055291841756883 -0.5909440683922014 0.8065149167955485 0.014402517291302054
1640000000.0 0.7242048040435232 -0.10524569710783792 0.09801091839951205 0.6744216825098952 0.09801091839951205 0.6744216825098952 0.7242048040435232 -0.10524569710783792
1650000000.0 0.6310666791121818 -0.1895273665797635 0.2163658675764488 0.7204304490086499 0.2163658675764488 0.7204304490086499 0.6310666791121818 -0.1895273665797635
1660000000.0 0.5398380793085853 -0.2438029272290464 0.3316166985470414 0.7342787913442994 0.3316166985470414 0.7342787913442994 0.5398380793085853 -0.2438029272290464
1670000000.0 0.4575044236974815 -0.27596749262132503 0.4366059701770617 0.7238141172516249 0.4366059701770617 0.7238141172516249 0.4575044236974815 -0.27596749262132503
1680000000.0 0.38663947525243286 -0.29345164427470316 0.5285723957317596 0.696424634234661 0.5285723957317596 0.696424634234661 0.38663947525243286 -0.29345164427470316
1690000000.0 0.3272161285798616 -0.3020725319204019 0.6073386912217311 0.6578917115981787 0.6073386912217311 0.6578917115981787 0.3272161285798616 -0.3020725319204019
1700000000.0 0.27797500739260006 -0.3059537274315339 0.6739415256181865 0.6123112214888445 0.6739415256181865 0.6123112214888445 0.27797500739260006 -0.3059537274315339
1710000000.0 0.23723413832894866 -0.30784683324623474 0.7298201915679496 0.5624169087870374 0.7298201915679496 0.5624169087870374 0.23723413832894866 -0.30784683324623474
1720000000.0 0.2032942947309027 -0.30951192088036256 0.7764094312319139 0.5099629354666195 0.7764094312319139 0.5099629354666195 0.2032942947309027 -0.30951192088036256
1730000000.0 0.17460857268710384 -0.3120333263057612 0.8149678217896285 0.4560422111853315 0.8149678217896285 0.4560422111853315 0.17460857268710384 -0.3120333263057612
1740000000.0 0.1498314389408344 -0.3160488129773238 0.8465264574554747 0.40131863177665344 0.8465264574554747 0.40131863177665344 0.1498314389408344 -0.3160488129773238
1750000000.0 0.12781295428232858 -0.3219050515058406 0.8718922125822678 0.34618630236309833 0.8718922125822678 0.34618630236309833 0.12781295428232858 -0.3219050515058406
1760000000.0 0.10757190525367176 -0.32975902431360554 0.8916718465149951 0.2908755554735381 0.8916718465149951 0.2908755554735381 0.10757190525367176 -0.32975902431360554
1770000000.0 0.08826373174602169 -0.33964224460784853 0.9063010753376166 0.23552286643140255 0.9063010753376166 0.23552286643140255 0.08826373174602169 -0.33964224460784853
1780000000.0 0.06915003324094082 -0.3515001134422153 0.9160718688806205 0.18021729653861876 0.9160718688806205 0.18021729653861876 0.06915003324094082 -0.3515001134422153
1790000000.0 0.049572067688319836 -0.36521473847143526 0.9211556662604115 0.1250321693738632 0.9211556662604115 0.1250321693738632 0.049572067688319836 -0.36521473847143526
1800000000.0 0.0289287301755378 -0.38061657243302793 0.9216221879680109 0.0700478162131302 0.9216221879680109 0.0700478162131302 0.0289287301755378 -0.38061657243302793
1810000000.0 0.006658780353503847 -0.3974881998860881 0.9174543996074144 0.015369330317862438 0.9174543996074144 0.015369330317862438 0.006658780353503847 -0.3974881998860881
1820000000.0 -0.017773067921497313 -0.41556222216277383 0.9085605182564092 -0.03885797895959277 0.9085605182564092 -0.03885797895959277 -0.017773067921497313 -0.41556222216277383
1830000000.0 -0.04488643709775493 -0.4345142713045498 0.8947841109514189 -0.09243349048604006 0.8947841109514189 -0.09243349048604006 -0.04488643709775493 -0.4345142713045498
1840000000.0 -0.07519189699008519 -0.45395159541460167 0.8759134958954313 -0.1450850611750825 0.8759134958954313 -0.1450850611750825 -0.07519189699008519 -0.45395159541460167
1850000000.0 -0.10919339710918928 -0.47339723701280007 0.8516918767719532 -0.1964505165164615 0.8516918767719532 -0.1964505165164615 -0.10919339710918928 -0.47339723701280007
1860000000.0 -0.14738554959365224 -0.4922696521642497 0.8218300116425775 -0.24605593048056856 0.8218300116425775 -0.24605593048056856 -0.14738554959365224 -0.4922696521642497
1870000000.0 -0.19024379485181267 -0.5098576561287417 0.7860238185783002 -0.29329000298870556 0.7860238185783002 -0.29329000298870556 -0.19024379485181267 -0.5098576561287417
1880000000.0 -0.23820495051394228 -0.525290859609391 0.7439800841814478 -0.33737449133443964 0.7439800841814478 -0.33737449133443964 -0.23820495051394228 -0.525290859609391
1890000000.0 -0.2916340653814965 -0.5375067315337262 0.6954545343335176 -0.37733151840392465 0.6954545343335176 -0.37733151840392465 -0.2916340653814965 -0.5375067315337262
1900000000.0 -0.3507725696299258 -0.545216993317565 0.6403076580879254 -0.4119504050015652 0.6403076580879254 -0.4119504050015652 -0.3507725696299258 -0.545216993317565
1910000000.0 -0.4156614263745628 -0.5468790922631794 0.5785847317965508 -0.43975964509056 0.5785847317965508 -0.43975964509056 -0.4156614263745628 -0.5468790922631794
1920000000.0 -0.48603301852870173 -0.5406831464358183 0.5106265078261831 -0.4590143916554926 0.5106265078261831 -0.4590143916554926 -0.48603301852870173 -0.5406831464358183
1930000000.0 -0.5611675339758164 -0.5245715418633863 0.437214915903563 -0.4677165940345405 0.437214915903563 -0.4677165940345405 -0.5611675339758164 -0.5245715418633863
1940000000.0 -0.639716475711092 -0.4963167921636389 0.3597512381690746 -0.4636933465360196 0.3597512381690746 -0.4636933465360196 -0.639716475711092 -0.4963167921636389
1950000000.0 -0.7195105493784696 -0.4536907069550398 0.28044963071052464 -0.44476658284410586 0.28044963071052464 -0.44476658284410586 -0.7195105493784696 -0.4536907069550398
1960000000.0 -0.7973937916210628 -0.39475914028169695 0.20250411343904134 -0.4090482217309248 0.20250411343904134 -0.4090482217309248 -0.7973937916210628 -0.39475914028169695
1970000000.0 -0.8691599061145454 -0.31831970063424975 0.1301531866264971 -0.35537834957412634 0.1301531866264971 -0.35537834957412634 -0.8691599061145454 -0.31831970063424975
1980000000.0 -0.9296971196895036 -0.22445393901622654 0.06853572638553197 -0.2838777057432767 0.06853572638553197 -0.2838777057432767 -0.9296971196895036 -0.22445393901622654
1990000000.0 -0.9734486772213096 -0.11508326567189343 0.02323114198920522 -0.1965040160079877 0.02323114198920522 -0.1965040160079877 -0.9734486772213096 -0.11508326567189343
2000000000.0 -0.9952281811815852 0.005675067420039846 0.000555450130132196 0.09740817252354764 0.000555450130132196 0.09740817252354764 -0.9952281811815852 0.005675067420039846
2010000000.0 -0.9912766494248423 0.1315996907907209 0.0009501427355355475 0.007156964216105247 0.0009501427355355475 0.007156964216105247 -0.9912766494248423 0.1315996907907209
2020000000.0 -0.9602598564814492 0.2550624097130205 0.02909421883760763 0.10953401873254894 0.02909421883760763 0.10953401873254894 -0.9602598564814492 0.2550624097130205
2030000000.0 -0.9038091173656294 0.36824887402110656 0.08225467137790735 0.20188119315765807 0.08225467137790735 0.20188119315765807 -0.9038091173656294 0.36824887402110656
2040000000.0 -0.8263285408381492 0.4645407642010935 0.15603396165993877 0.27755436313451953 0.15603396165993877 0.27755436313451953 -0.8263285408381492 0.4645407642010935
2050000000.0 -0.7341041354611954 0.5395785956953874 0.24415021037944906 0.332169733550886 0.24415021037944906 0.332169733550886 -0.7341041354611954 0.5395785956953874
2060000000.0 -0.6340592060619944 0.5916736903323058 0.33968192595213487 0.36401559962992297 0.33968192595213487 0.36401559962992297 -0.6340592060619944 0.5916736903323058
2070000000.0 -0.5326012741487741 0.6215502702909772 0.43622120565873795 0.3737943314827858 0.43622120565873795 0.3737943314827858 -0.5326012741487741 0.6215502702909772
2080000000.0 -0.43486772531692525 0.6316590349820494 0.5286281219002165 0.3639357531045601 0.5286281219002165 0.3639357531045601 -0.43486772531692525 0.6316590349820494
2090000000.0 -0.3444422166744161 0.6253779827853773 0.6133143750524941 0.337797894670071 0.6133143750524941 0.337797894670071 -0.3444422166744161 0.6253779827853773
2100000000.0 -0.2634360883414919 0.6063337824203587 0.6881618968768364 0.2989882507204297 0.6881618968768364 0.2989882507204297 -0.2634360883414919 0.6063337824203587
2110000000.0 -0.19276781964015988 0.5779425254508587 0.7522433135810943 0.25090437119591463 0.7522433135810943 0.25090437119591463 -0.19276781964015988 0.5779425254508587
2120000000.0 -0.13249871155578805 0.5431648376292342 0.8054862754741959 0.19648895466014527 0.8054862754741959 0.19648895466014527 -0.13249871155578805 0.5431648376292342
2130000000.0 -0.08213827212610963 0.5044215129753803 0.848367909113537 0.13814533171145926 0.848367909113537 0.13814533171145926 -0.08213827212610963 0.5044215129753803
2140000000.0 -0.04088389079391035 0.4636077920572088 0.8816751049294304 0.07775173178856726 0.8816751049294304 0.07775173178856726 -0.04088389079391035 0.4636077920572088
2150000000.0 -0.007790195097366846 0.4221570814936271 0.9063349213989242 0.016724878148575192 0.9063349213989242 0.016724878148575192 -0.007790195097366846 0.4221570814936271
2160000000.0 0.01812079335450819 0.38112159265947976 0.9233042899581002 -0.043899391838337604 0.9233042899581002 -0.043899391838337604 0.01812079335450819 0.38112159265947976
