! Created Sun Jan 19 16:05:36 2025
# hz S ma R 50
! 2 Port Network Data from SP1.SP block
! freq  magS11  angS11  magS21  angS21  magS12  angS12  magS22  angS22  
!     
1e+09       0.999979886        -124.038705      0.00634256684        -34.0387047      0.00634256684        -34.0387047        0.999979886        -124.038705
1.01e+09       0.920713167        -175.390686        0.390240007        -85.3906858        0.390240007        -85.3906858        0.920713167        -175.390686
1.02e+09       0.427965454        -103.083655        0.903795093         166.916345        0.903795093         166.916345        0.427965454        -103.083655
1.03e+09       0.661431856        -128.804132        0.750005267         141.195868        0.750005267         141.195868        0.661431856        -128.804132
1.04e+09       0.717704006        -140.095045        0.696348304         129.904955        0.696348304         129.904955        0.717704006        -140.095045
1.05e+09       0.745461338        -147.684936        0.666548868         122.315064        0.666548868         122.315064        0.745461338        -147.684936
1.06e+09       0.764438309        -153.632979        0.644696883         116.367021        0.644696883         116.367021        0.764438309        -153.632979
1.07e+09        0.77950636        -158.649765        0.626394313         111.350235        0.626394313         111.350235         0.77950636        -158.649765
1.08e+09       0.792298385        -163.061253        0.610133813         106.938747        0.610133813         106.938747        0.792298385        -163.061253
1.09e+09       0.803489798        -167.044421        0.595318523         102.955579        0.595318523         102.955579        0.803489798        -167.044421
1.1e+09       0.813416036        -170.706884        0.581682346          99.293116        0.581682346          99.293116        0.813416036        -170.706884
1.11e+09       0.822274596        -174.119712        0.569090931          95.880288        0.569090931          95.880288        0.822274596        -174.119712
1.12e+09       0.830199965        -177.332905        0.557465711         92.6670948        0.557465711         92.6670948        0.830199965        -177.332905
1.13e+09       0.837294056          179.61655        0.546752836           89.61655        0.546752836           89.61655        0.837294056          179.61655
1.14e+09       0.843639553         176.700158         0.53690996         86.7001581         0.53690996         86.7001581        0.843639553         176.700158
1.15e+09       0.849306188         173.895213        0.527900558         83.8952134        0.527900558         83.8952134        0.849306188         173.895213
1.16e+09       0.854353967         171.183104        0.519691542          81.183104        0.519691542          81.183104        0.854353967         171.183104
1.17e+09       0.858834986         168.548198        0.512252346         78.5481977        0.512252346         78.5481977        0.858834986         168.548198
1.18e+09       0.862794581         165.977081        0.505554657         75.9770811        0.505554657         75.9770811        0.862794581         165.977081
1.19e+09       0.866272128         163.458022        0.499572418         73.4580218        0.499572418         73.4580218        0.866272128         163.458022
1.2e+09       0.869301653         160.980575         0.49428194          70.980575         0.49428194          70.980575        0.869301653         160.980575
1.21e+09       0.871912314         158.535287        0.489662044          68.535287        0.489662044          68.535287        0.871912314         158.535287
1.22e+09       0.874128785         156.113463        0.485694211         66.1134634        0.485694211         66.1134634        0.874128785         156.113463
1.23e+09       0.875971572         153.706984        0.482362731         63.7069839        0.482362731         63.7069839        0.875971572         153.706984
1.24e+09       0.877457241         151.308147        0.479654866          61.308147        0.479654866          61.308147        0.877457241         151.308147
1.25e+09       0.878598581         148.909537        0.477561027         58.9095373        0.477561027         58.9095373        0.878598581         148.909537
1.26e+09       0.879404683         146.503905        0.476074999         56.5039051        0.476074999         56.5039051        0.879404683         146.503905
1.27e+09       0.879880933         144.084054        0.475194217         54.0840544        0.475194217         54.0840544        0.879880933         144.084054
1.28e+09       0.880028901         141.642733        0.474920135         51.6427327        0.474920135         51.6427327        0.880028901         141.642733
1.29e+09       0.879846104         139.172518        0.475258701          49.172518        0.475258701          49.172518        0.879846104         139.172518
1.3e+09        0.87932562         136.665697        0.476221015         46.6656973        0.476221015         46.6656973         0.87932562         136.665697
1.31e+09       0.878455488          134.11413        0.477824189         44.1141304        0.477824189         44.1141304        0.878455488          134.11413
1.32e+09       0.877217852         131.509091        0.480092532         41.5090907        0.480092532         41.5090907        0.877217852         131.509091
1.33e+09       0.875587722         128.841073        0.483059148         38.8410728        0.483059148         38.8410728        0.875587722         128.841073
1.34e+09       0.873531213         126.099552        0.486768138         36.0995522        0.486768138         36.0995522        0.873531213         126.099552
1.35e+09       0.871003029         123.272675        0.491277643         33.2726751        0.491277643         33.2726751        0.871003029         123.272675
1.36e+09       0.867942831         120.346849        0.496664114         30.3468487        0.496664114         30.3468487        0.867942831         120.346849
1.37e+09       0.864269903         117.306183        0.503028364         27.3061827        0.503028364         27.3061827        0.864269903         117.306183
1.38e+09       0.859875203         114.131709        0.510504295         24.1317086        0.510504295         24.1317086        0.859875203         114.131709
1.39e+09       0.854609222         110.800257        0.519271681         20.8002568        0.519271681         20.8002568        0.854609222         110.800257
1.4e+09       0.848262955         107.282792        0.529575262         17.2827919        0.529575262         17.2827919        0.848262955         107.282792
1.41e+09       0.840537164         103.541864        0.541753889         13.5418642        0.541753889         13.5418642        0.840537164         103.541864
1.42e+09       0.830990878         99.5275647        0.556286042         9.52756467        0.556286042         9.52756467        0.830990878         99.5275647
1.43e+09       0.818951482          95.170838        0.573862762           5.170838        0.573862762           5.170838        0.818951482          95.170838
1.44e+09       0.803349753         90.3719101        0.595507493        0.371910072        0.595507493        0.371910072        0.803349753         90.3719101
1.45e+09       0.782399199         84.9791705        0.622777242        -5.02082949        0.622777242        -5.02082949        0.782399199         84.9791705
1.46e+09       0.752928776         78.7482394        0.658102012        -11.2517606        0.658102012        -11.2517606        0.752928776         78.7482394
1.47e+09       0.708881544         71.2570994        0.705327553        -18.7429006        0.705327553        -18.7429006        0.708881544         71.2570994
1.48e+09       0.637649936         61.7179654        0.770326268        -28.2820346        0.770326268        -28.2820346        0.637649936         61.7179654
1.49e+09       0.510673725         48.5469152         0.85977459        -41.4530848         0.85977459        -41.4530848        0.510673725         48.5469152
1.5e+09       0.263243814         28.5534566        0.964729337        -61.4465434        0.964729337        -61.4465434        0.263243814         28.5534566
1.51e+09        0.18670184         177.660927        0.982416624        -92.3390725        0.982416624        -92.3390725         0.18670184         177.660927
1.52e+09       0.668243601         141.255427        0.743942531        -128.744573        0.743942531        -128.744573        0.668243601         141.255427
1.53e+09       0.900134057         113.364949        0.435612993        -156.635051        0.435612993        -156.635051        0.900134057         113.364949
1.54e+09       0.972765935         94.8319726        0.231789636        -175.168027        0.231789636        -175.168027        0.972765935         94.8319726
1.55e+09       0.993443624         81.3613917         0.11432308         171.361392         0.11432308         171.361392        0.993443624         81.3613917
1.56e+09       0.998835227          70.348291        0.048251318         160.348291        0.048251318         160.348291        0.998835227          70.348291
1.57e+09       0.999905214         60.5155321       0.0137681684         150.515532       0.0137681684         150.515532        0.999905214         60.5155321
1.58e+09       0.999999785         51.2101284      0.00065523701         141.210128      0.00065523701         141.210128        0.999999785         51.2101284
1.59e+09       0.999993974         42.0736548      0.00347164668         132.073655      0.00347164668         132.073655        0.999993974         42.0736548
1.6e+09       0.999817697          32.901239       0.0190938027         122.901239       0.0190938027         122.901239        0.999817697          32.901239
1.61e+09       0.998966328         23.5802349       0.0454563096         113.580235       0.0454563096         113.580235        0.998966328         23.5802349
1.62e+09       0.996725995         14.0631094       0.0808535175         104.063109       0.0808535175         104.063109        0.996725995         14.0631094
1.63e+09       0.992339973         4.35466608        0.123536952         94.3546661        0.123536952         94.3546661        0.992339973         4.35466608
1.64e+09       0.985180493        -5.49641399        0.171520834          84.503586        0.171520834          84.503586        0.985180493        -5.49641399
1.65e+09       0.974915919        -15.4072109        0.222573473         74.5927891        0.222573473         74.5927891        0.974915919        -15.4072109
1.66e+09       0.961624601         -25.273598        0.274368597          64.726402        0.274368597          64.726402        0.961624601         -25.273598
1.67e+09        0.94580639        -34.9858101        0.324731077         55.0141899        0.324731077         55.0141899         0.94580639        -34.9858101
1.68e+09       0.928280845        -44.4434959        0.371879917         45.5565041        0.371879917         45.5565041        0.928280845        -44.4434959
1.69e+09       0.910011879        -53.5668788        0.414582176         36.4331212        0.414582176         36.4331212        0.910011879        -53.5668788
1.7e+09       0.891925585         -62.302154         0.45218221          27.697846         0.45218221          27.697846        0.891925585         -62.302154
1.71e+09       0.874776572         -70.621407        0.484526521          19.378593        0.484526521          19.378593        0.874776572         -70.621407
1.72e+09       0.859084336        -78.5188309        0.511834058         11.4811691        0.511834058         11.4811691        0.859084336        -78.5188309
1.73e+09       0.845130556        -86.0053564        0.534559953         3.99464361        0.534559953         3.99464361        0.845130556        -86.0053564
1.74e+09       0.832993947        -93.1033211        0.553282102        -3.10332114        0.553282102        -3.10332114        0.832993947        -93.1033211
1.75e+09       0.822599761        -99.8420696        0.568620816         -9.8420696        0.568620816         -9.8420696        0.822599761        -99.8420696
1.76e+09       0.813768205        -106.254767        0.581189564        -16.2547674        0.581189564        -16.2547674        0.813768205        -106.254767
1.77e+09       0.806253782        -112.376367        0.591569809         -22.376367        0.591569809         -22.376367        0.806253782        -112.376367
1.78e+09       0.799772967        -118.242522        0.600302591        -28.2425216        0.600302591        -28.2425216        0.799772967        -118.242522
1.79e+09        0.79402045         -123.88924        0.607891047        -33.8892399        0.607891047        -33.8892399         0.79402045         -123.88924
1.8e+09       0.788675121        -129.353128        0.614810176        -39.3531278        0.614810176        -39.3531278        0.788675121        -129.353128
1.81e+09       0.783396691        -134.672151        0.621522022        -44.6721512        0.621522022        -44.6721512        0.783396691        -134.672151
1.82e+09       0.777812719        -139.886956        0.628496121        -49.8869557        0.628496121        -49.8869557        0.777812719        -139.886956
1.83e+09       0.771493956         -145.04291        0.636236651        -55.0429101        0.636236651        -55.0429101        0.771493956         -145.04291
1.84e+09       0.763912727        -150.193239        0.645319569        -60.1932388        0.645319569        -60.1932388        0.763912727        -150.193239
1.85e+09       0.754373295        -155.403949        0.656445681        -65.4039489        0.656445681        -65.4039489        0.754373295        -155.403949
1.86e+09       0.741891799        -160.761891        0.670519618        -70.7618909        0.670519618        -70.7618909        0.741891799        -160.761891
1.87e+09       0.724979082        -166.388586        0.688770884        -76.3885862        0.688770884        -76.3885862        0.724979082        -166.388586
1.88e+09       0.701224729        -172.465208        0.712940305        -82.4652082        0.712940305        -82.4652082        0.701224729        -172.465208
1.89e+09       0.666448029        -179.280298         0.74555149        -89.2802984         0.74555149        -89.2802984        0.666448029        -179.280298
1.9e+09       0.612848709         172.673955        0.790200266        -97.3260449        0.790200266        -97.3260449        0.612848709         172.673955
1.91e+09       0.524780372         162.500194        0.851237664        -107.499806        0.851237664        -107.499806        0.524780372         162.500194
1.92e+09       0.369527567         148.496592        0.929219768        -121.503408        0.929219768        -121.503408        0.369527567         148.496592
1.93e+09      0.0872238766         127.746456        0.996188735        -142.253544        0.996188735        -142.253544       0.0872238766         127.746456
1.94e+09       0.346646292        -81.6695461        0.937995921        -171.669546        0.937995921        -171.669546        0.346646292        -81.6695461
1.95e+09        0.73371244        -112.816529         0.67946012         157.183471         0.67946012         157.183471         0.73371244        -112.816529
1.96e+09       0.914939307         -136.19644        0.403591458          133.80356        0.403591458          133.80356        0.914939307         -136.19644
1.97e+09       0.975898626        -151.991483         0.21822436         118.008517         0.21822436         118.008517        0.975898626        -151.991483
1.98e+09       0.994268373        -163.359349        0.106913056         106.640651        0.106913056         106.640651        0.994268373        -163.359349
1.99e+09       0.999092251        -172.382482       0.0425989955          97.617518       0.0425989955          97.617518        0.999092251        -172.382482
2e+09       0.999955368         179.784713      0.00944782308         89.7847128      0.00944782308         89.7847128        0.999955368         179.784713
2.01e+09       0.999999999         172.437891     5.00492652e-05         82.4378913     5.00492652e-05         82.4378913        0.999999999         172.437891
2.02e+09       0.999921434         165.041086       0.0125349695         75.0410862       0.0125349695         75.0410862        0.999921434         165.041086
2.03e+09       0.998762132         157.044044       0.0497413697         67.0440438       0.0497413697         67.0440438        0.998762132         157.044044
2.04e+09       0.992740699         147.695636        0.120274289         57.6956363        0.120274289         57.6956363        0.992740699         147.695636
2.05e+09       0.970449951          135.75842        0.241302492         45.7584201        0.241302492         45.7584201        0.970449951          135.75842
2.06e+09       0.898504283         119.099668        0.438964751         29.0996681        0.438964751         29.0996681        0.898504283         119.099668
2.07e+09       0.697923832         95.0305058        0.716171994         5.03050582        0.716171994         5.03050582        0.697923832         95.0305058
2.08e+09       0.315893863         64.9737491        0.948794534        -25.0262509        0.948794534        -25.0262509        0.315893863         64.9737491
2.09e+09      0.0767157538        -141.940597        0.997053004        -51.9405974        0.997053004        -51.9405974       0.0767157538        -141.940597
2.1e+09       0.331141323        -160.903302         0.94358117        -70.9033023         0.94358117        -70.9033023        0.331141323        -160.903302
2.11e+09       0.475014551        -173.903477        0.879977941        -83.9034772        0.879977941        -83.9034772        0.475014551        -173.903477
2.12e+09       0.558025956          176.58235        0.829823495        -93.4176504        0.829823495        -93.4176504        0.558025956          176.58235
2.13e+09       0.608306137         169.082563        0.793702491        -100.917437        0.793702491        -100.917437        0.608306137         169.082563
2.14e+09       0.639922351         162.797728        0.768439578        -107.202272        0.768439578        -107.202272        0.639922351         162.797728
2.15e+09       0.660124626          157.27992        0.751156094         -112.72008        0.751156094         -112.72008        0.660124626          157.27992
2.16e+09       0.672877674         152.263928        0.739753767        -117.736072        0.739753767        -117.736072        0.672877674         152.263928
2.17e+09       0.680481631         147.583694        0.732765139        -122.416306        0.732765139        -122.416306        0.680481631         147.583694
2.18e+09       0.684343056         143.129794        0.729160189        -126.870206        0.729160189        -126.870206        0.684343056         143.129794
2.19e+09       0.685362769         138.826762        0.728201809        -131.173238        0.728201809        -131.173238        0.685362769         138.826762
2.2e+09       0.684142378         134.620401        0.729348481        -135.379599        0.729348481        -135.379599        0.684142378         134.620401
2.21e+09       0.681100328         130.470359        0.732190101        -139.529641        0.732190101        -139.529641        0.681100328         130.470359
2.22e+09       0.676540466         126.345612        0.736405458        -143.654388        0.736405458        -143.654388        0.676540466         126.345612
2.23e+09       0.670694572         122.221621        0.741733639        -147.778379        0.741733639        -147.778379        0.670694572         122.221621
