! Created Sun Jan 19 16:06:49 2025
# hz S ma R 50
! 2 Port Network Data from SP1.SP block
! freq  magS11  angS11  magS21  angS21  magS12  angS12  magS22  angS22  
!     
1e+09                 1        -124.104372                  0                  0                  0                  0                  1        -126.049598
1.01e+09                 1        -164.990833                  0                  0                  0                  0                  1        -126.592967
1.02e+09                 1         142.347629                  0                  0                  0                  0                  1        -131.945456
1.03e+09                 1         87.3827254                  0                  0                  0                  0                  1        -136.422395
1.04e+09                 1         42.6071807                  0                  0                  0                  0                  1        -140.539222
1.05e+09                 1         10.0100079                  0                  0                  0                  0                  1         -144.39141
1.06e+09                 1        -13.9446313                  0                  0                  0                  0                  1        -148.022078
1.07e+09                 1        -32.4246685                  0                  0                  0                  0                  1        -151.459704
1.08e+09                 1          -47.38044                  0                  0                  0                  0                  1        -154.726499
1.09e+09                 1        -59.9494422                  0                  0                  0                  0                  1        -157.841097
1.1e+09                 1        -70.8121656                  0                  0                  0                  0                  1        -160.819677
1.11e+09                 1        -80.3952047                  0                  0                  0                  0                  1        -163.676539
1.12e+09                 1        -88.9799056                  0                  0                  0                  0                  1        -166.424456
1.13e+09                 1        -96.7610891                  0                  0                  0                  0                  1        -169.074921
1.14e+09                 1        -103.879789                  0                  0                  0                  0                  1        -171.638328
1.15e+09                 1        -110.442178                  0                  0                  0                  0                  1        -174.124132
1.16e+09                 1        -116.530916                  0                  0                  0                  0                  1        -176.540967
1.17e+09                 1        -122.212208                  0                  0                  0                  0                  1        -178.896761
1.18e+09                 1        -127.540344                  0                  0                  0                  0                  1         178.801173
1.19e+09                 1        -132.560723                  0                  0                  0                  0                  1         176.546051
1.2e+09                 1        -137.311938                  0                  0                  0                  0                  1         174.331545
1.21e+09                 1         -141.82725                  0                  0                  0                  0                  1         172.151718
1.22e+09                 1        -146.135676                  0                  0                  0                  0                  1          170.00096
1.23e+09                 1          -150.2628                  0                  0                  0                  0                  1         167.873937
1.24e+09                 1        -154.231403                  0                  0                  0                  0                  1         165.765537
1.25e+09                 1        -158.061964                  0                  0                  0                  0                  1         163.670823
1.26e+09                 1         -161.77306                  0                  0                  0                  0                  1          161.58499
1.27e+09                 1        -165.381699                  0                  0                  0                  0                  1          159.50332
1.28e+09                 1        -168.903604                  0                  0                  0                  0                  1         157.421137
1.29e+09                 1        -172.353447                  0                  0                  0                  0                  1          155.33377
1.3e+09                 1        -175.745066                  0                  0                  0                  0                  1         153.236507
1.31e+09                 1        -179.091649                  0                  0                  0                  0                  1         151.124549
1.32e+09                 1         177.594095                  0                  0                  0                  0                  1         148.992967
1.33e+09                 1         174.299779                  0                  0                  0                  0                  1         146.836647
1.34e+09                 1         171.013186                  0                  0                  0                  0                  1         144.650241
1.35e+09                 1         167.722123                  0                  0                  0                  0                  1         142.428102
1.36e+09                 1         164.414284                  0                  0                  0                  0                  1         140.164218
1.37e+09                 1         161.077099                  0                  0                  0                  0                  1         137.852135
1.38e+09                 1         157.697593                  0                  0                  0                  0                  1         135.484866
1.39e+09                 1          154.26223                  0                  0                  0                  0                  1         133.054791
1.4e+09                 1         150.756755                  0                  0                  0                  0                  1         130.553534
1.41e+09                 1         147.166028                  0                  0                  0                  0                  1         127.971818
1.42e+09                 1          143.47384                  0                  0                  0                  0                  1         125.299298
1.43e+09                 1         139.662734                  0                  0                  0                  0                  1         122.524348
1.44e+09                 1         135.713804                  0                  0                  0                  0                  1         119.633818
1.45e+09                 1         131.606502                  0                  0                  0                  0                  1         116.612723
1.46e+09                 1         127.318439                  0                  0                  0                  0                  1         113.443871
1.47e+09                 1          122.82521                  0                  0                  0                  0                  1         110.107395
1.48e+09                 1         118.100253                  0                  0                  0                  0                  1         106.580174
1.49e+09                 1         113.114773                  0                  0                  0                  0                  1          102.83511
1.5e+09                 1          107.83778                  0                  0                  0                  0                  1         98.8402083
1.51e+09                 1         102.236299                  0                  0                  0                  0                  1         94.5574201
1.52e+09                 1         96.2758397                  0                  0                  0                  0                  1         89.9411744
1.53e+09                 1         89.9212319                  0                  0                  0                  0                  1         84.9365095
1.54e+09                 1         83.1379667                  0                  0                  0                  0                  1         79.4767102
1.55e+09                 1          75.894176                  0                  0                  0                  0                  1         73.4803474
1.56e+09                 1          68.163382                  0                  0                  0                  0                  1         66.8476423
1.57e+09                 1         59.9280646                  0                  0                  0                  0                  1         59.4561839
1.58e+09                 1          51.183949                  0                  0                  0                  0                  1         51.1562912
1.59e+09                 1         41.9446638                  0                  0                  0                  0                  1         41.7669234
1.6e+09                 1         32.2460885                  0                  0                  0                  0                  1         31.0742888
1.61e+09                 1         22.1493867                  0                  0                  0                  0                  1         18.8376137
1.62e+09                 1         11.7415598                  0                  0                  0                  0                  1         4.81009122
1.63e+09                 1         1.13255976                  0                  0                  0                  0                  1        -11.2133861
1.64e+09                 1        -9.55132976                  0                  0                  0                  0                  1        -29.3118886
1.65e+09                 1        -20.1771198                  0                  0                  0                  0                  1        -49.3263052
1.66e+09                 1        -30.6160544                  0                  0                  0                  0                  1        -70.7710503
1.67e+09                 1        -40.7537072                  0                  0                  0                  0                  1        -92.8588708
1.68e+09                 1        -50.4973774                  0                  0                  0                  0                  1        -114.685737
1.69e+09                 1        -59.7798237                  0                  0                  0                  0                  1        -135.490504
1.7e+09                 1        -68.5594148                  0                  0                  0                  0                  1        -154.828459
1.71e+09                 1        -76.8175522                  0                  0                  0                  0                  1        -172.584339
1.72e+09                 1        -84.5545183                  0                  0                  0                  0                  1         171.120704
1.73e+09                 1        -91.7848142                  0                  0                  0                  0                  1         156.040147
1.74e+09                 1        -98.5327456                  0                  0                  0                  0                  1         141.883546
1.75e+09                 1        -104.828674                  0                  0                  0                  0                  1         128.362233
1.76e+09                 1         -110.70608                  0                  0                  0                  0                  1         115.209943
1.77e+09                 1        -116.199418                  0                  0                  0                  0                  1         102.190269
1.78e+09                 1        -121.342639                  0                  0                  0                  0                  1         89.0992236
1.79e+09                 1        -126.168251                  0                  0                  0                  0                  1         75.7677746
1.8e+09                 1        -130.706772                  0                  0                  0                  0                  1         62.0668313
1.81e+09                 1         -134.98647                  0                  0                  0                  0                  1         47.9153527
1.82e+09                 1        -139.033287                  0                  0                  0                  0                  1         33.2904336
1.83e+09                 1        -142.870894                  0                  0                  0                  0                  1          18.236199
1.84e+09                 1         -146.52082                  0                  0                  0                  0                  1         2.86665061
1.85e+09                 1        -150.002635                  0                  0                  0                  0                  1        -12.6424108
1.86e+09                 1        -153.334146                  0                  0                  0                  0                  1         -28.074394
1.87e+09                 1        -156.531629                  0                  0                  0                  0                  1         -43.202562
1.88e+09                 1         -159.61006                  0                  0                  0                  0                  1        -57.8222025
1.89e+09                 1        -162.583385                  0                  0                  0                  0                  1        -71.7752925
1.9e+09                 1        -165.464833                  0                  0                  0                  0                  1        -84.9622882
1.91e+09                 1        -168.267326                  0                  0                  0                  0                  1        -97.3412052
1.92e+09                 1        -171.004075                  0                  0                  0                  0                  1        -108.918094
1.93e+09                 1        -173.689578                  0                  0                  0                  0                  1        -119.733979
1.94e+09                 1        -176.341491                  0                  0                  0                  0                  1        -129.852131
1.95e+09                 1        -178.984634                  0                  0                  0                  0                  1        -139.347703
1.96e+09                 1         178.339076                  0                  0                  0                  0                  1        -148.300298
1.97e+09                 1         175.540719                  0                  0                  0                  0                  1        -156.789165
1.98e+09                 1         172.363097                  0                  0                  0                  0                  1        -164.890444
1.99e+09                 1         167.501452                  0                  0                  0                  0                  1        -172.675842
2e+09                 1        -100.536557                  0                  0                  0                  0                  1         179.787778
2.01e+09                 1         172.460355                  0                  0                  0                  0                  1         172.438257
2.02e+09                 1         167.960974                  0                  0                  0                  0                  1         165.217717
2.03e+09                 1         164.942452                  0                  0                  0                  0                  1          158.07201
2.04e+09                 1         162.309979                  0                  0                  0                  0                  1         150.950176
2.05e+09                 1         159.833714                  0                  0                  0                  0                  1         143.803963
2.06e+09                 1         157.433235                  0                  0                  0                  0                  1         136.587475
2.07e+09                 1         155.071494                  0                  0                  0                  0                  1            129.257
2.08e+09                 1         152.727867                  0                  0                  0                  0                  1         121.771069
2.09e+09                 1         150.389064                  0                  0                  0                  0                  1         114.090775
2.1e+09                 1         148.045457                  0                  0                  0                  0                  1         106.180426
2.11e+09                 1         145.689391                  0                  0                  0                  0                  1         98.0085634
2.12e+09                 1         143.314322                  0                  0                  0                  0                  1          89.549361
2.13e+09                 1         140.914342                  0                  0                  0                  0                  1         80.7843967
2.14e+09                 1         138.483896                  0                  0                  0                  0                  1         71.7047003
2.15e+09                 1         136.017605                  0                  0                  0                  0                  1         62.3128968
2.16e+09                 1         133.510136                  0                  0                  0                  0                  1         52.6251482
2.17e+09                 1         130.956123                  0                  0                  0                  0                  1         42.6724984
2.18e+09                 1         128.350089                  0                  0                  0                  0                  1         32.5011772
2.19e+09                 1         125.686401                  0                  0                  0                  0                  1         22.1714831
2.2e+09                 1         122.959211                  0                  0                  0                  0                  1         11.7550549
2.21e+09                 1         120.162424                  0                  0                  0                  0                  1         1.33065835
2.22e+09                 1         117.289654                  0                  0                  0                  0                  1         -9.0210424
2.23e+09                 1          114.33419                  0                  0                  0                  0                  1        -19.2229906
