! Created Sun Jan 19 16:06:56 2025
# hz S ma R 50
! 2 Port Network Data from SP1.SP block
! freq  magS11  angS11  magS21  angS21  magS12  angS12  magS22  angS22  
!     
1e+09        0.99998695        -123.811655      0.00510885906        -33.8116549      0.00510885906        -33.8116549         0.99998695        -123.811655
1.01e+09       0.991661551        -157.586558        0.128869579        -67.5865584        0.128869579        -67.5865584        0.991661551        -157.586558
1.02e+09       0.885472455         170.037911        0.464691867        -99.9620893        0.464691867        -99.9620893        0.885472455         170.037911
1.03e+09       0.622038157         138.917601        0.782986929        -131.082399        0.782986929        -131.082399        0.622038157         138.917601
1.04e+09       0.319667455         113.964365        0.947529798        -156.035635        0.947529798        -156.035635        0.319667455         113.964365
1.05e+09      0.0756508104         95.6713907        0.997134372        -174.328609        0.997134372        -174.328609       0.0756508104         95.6713907
1.06e+09       0.104284087          -97.95871         0.99454755          172.04129         0.99454755          172.04129        0.104284087          -97.95871
1.07e+09       0.238445034        -108.629885        0.971155994         161.370115        0.971155994         161.370115        0.238445034        -108.629885
1.08e+09        0.34192289         -117.38637        0.939728012          152.61363        0.939728012          152.61363         0.34192289         -117.38637
1.09e+09       0.424353612        -124.839686        0.905496556         145.160314        0.905496556         145.160314        0.424353612        -124.839686
1.1e+09       0.491724828        -131.358153         0.87075065         138.641847         0.87075065         138.641847        0.491724828        -131.358153
1.11e+09        0.54786723        -137.174386        0.836565298         132.825614        0.836565298         132.825614         0.54786723        -137.174386
1.12e+09       0.595341948        -142.442893        0.803472442         127.557107        0.803472442         127.557107        0.595341948        -142.442893
1.13e+09       0.635940213        -147.271336        0.771738327         122.728664        0.771738327         122.728664        0.635940213        -147.271336
1.14e+09       0.670966843        -151.738059        0.741487354         118.261941        0.741487354         118.261941        0.670966843        -151.738059
1.15e+09       0.701405695        -155.902285        0.712762268         114.097715        0.712762268         114.097715        0.701405695        -155.902285
1.16e+09       0.728019771        -159.810275        0.685556134         110.189725        0.685556134         110.189725        0.728019771        -159.810275
1.17e+09         0.7514142        -163.499179        0.659830811         106.500821        0.659830811         106.500821          0.7514142        -163.499179
1.18e+09       0.772077463        -166.999532        0.635528434         103.000468        0.635528434         103.000468        0.772077463        -166.999532
1.19e+09       0.790409428        -170.336934        0.612578923         99.6630663        0.612578923         99.6630663        0.790409428        -170.336934
1.2e+09       0.806741099        -173.533199        0.590905068         96.4668013        0.590905068         96.4668013        0.806741099        -173.533199
1.21e+09       0.821348983        -176.607189        0.570426024          93.392811        0.570426024          93.392811        0.821348983        -176.607189
1.22e+09       0.834465826        -179.575419        0.551059692         90.4245814        0.551059692         90.4245814        0.834465826        -179.575419
1.23e+09       0.846288828         177.547488        0.532724337         87.5474876        0.532724337         87.5474876        0.846288828         177.547488
1.24e+09       0.856986043         174.748439        0.515339619         84.7484387        0.515339619         84.7484387        0.856986043         174.748439
1.25e+09       0.866701451         172.015596         0.49882722         82.0155961         0.49882722         82.0155961        0.866701451         172.015596
1.26e+09       0.875559028         169.338146        0.483111156         79.3381456        0.483111156         79.3381456        0.875559028         169.338146
1.27e+09       0.883666037         166.706108        0.468117864         76.7061084        0.468117864         76.7061084        0.883666037         166.706108
1.28e+09       0.891115726         164.110181        0.453776115         74.1101814        0.453776115         74.1101814        0.891115726         164.110181
1.29e+09       0.897989538           161.5416        0.440016806         71.5415996        0.440016806         71.5415996        0.897989538           161.5416
1.3e+09       0.904358945         158.992015        0.426772654         68.9920154        0.426772654         68.9920154        0.904358945         158.992015
1.31e+09       0.910286971          156.45339        0.413977813         66.4533899        0.413977813         66.4533899        0.910286971          156.45339
1.32e+09       0.915829457         153.917892        0.401567436         63.9178923        0.401567436         63.9178923        0.915829457         153.917892
1.33e+09       0.921036113         151.377807        0.389477187         61.3778071        0.389477187         61.3778071        0.921036113         151.377807
1.34e+09       0.925951394         148.825443         0.37764271         58.8254428         0.37764271         58.8254428        0.925951394         148.825443
1.35e+09       0.930615221         146.253044        0.365999058         56.2530437        0.365999058         56.2530437        0.930615221         146.253044
1.36e+09       0.935063562           143.6527        0.354480091         53.6526999        0.354480091         53.6526999        0.935063562           143.6527
1.37e+09       0.939328891         141.016255        0.343017835         51.0162549        0.343017835         51.0162549        0.939328891         141.016255
1.38e+09       0.943440525         138.335208        0.331541816         48.3352084        0.331541816         48.3352084        0.943440525         138.335208
1.39e+09       0.947424847         135.600613        0.319978375         45.6006126        0.319978375         45.6006126        0.947424847         135.600613
1.4e+09       0.951305395         132.802958        0.308249972         42.8029579        0.308249972         42.8029579        0.951305395         132.802958
1.41e+09       0.955102826         129.932049         0.29627452         39.9320486         0.29627452         39.9320486        0.955102826         129.932049
1.42e+09       0.958834714         126.976862        0.283964771          36.976862        0.283964771          36.976862        0.958834714         126.976862
1.43e+09       0.962515172          123.92539        0.271227845           33.92539        0.271227845           33.92539        0.962515172          123.92539
1.44e+09       0.966154264         120.764458        0.257964992         30.7644582        0.257964992         30.7644582        0.966154264         120.764458
1.45e+09       0.969757168         117.479517        0.244071783         27.4795166        0.244071783         27.4795166        0.969757168         117.479517
1.46e+09       0.973323049         114.054395        0.229438972         24.0543951        0.229438972         24.0543951        0.973323049         114.054395
1.47e+09       0.976843633         110.471014        0.213954473         20.4710142        0.213954473         20.4710142        0.976843633         110.471014
1.48e+09       0.980301461         106.709035        0.197507077         16.7090353        0.197507077         16.7090353        0.980301461         106.709035
1.49e+09       0.983667904         102.745425        0.179992931         12.7454247        0.179992931         12.7454247        0.983667904         102.745425
1.5e+09       0.986901116         98.5538899        0.161326338         8.55388992        0.161326338         8.55388992        0.986901116         98.5538899
1.51e+09       0.989944341         94.1041097        0.141457418          4.1041097        0.141457418          4.1041097        0.989944341         94.1041097
1.52e+09       0.992725371          89.360609        0.120400735       -0.639391049        0.120400735       -0.639391049        0.992725371          89.360609
1.53e+09       0.995158614         84.2809885       0.0982819026        -5.71901145       0.0982819026        -5.71901145        0.995158614         84.2809885
1.54e+09       0.997152256         78.8129156       0.0754147126        -11.1870844       0.0754147126        -11.1870844        0.997152256         78.8129156
1.55e+09       0.998624449         72.8886135        0.052432907        -17.1113865        0.052432907        -17.1113865        0.998624449         72.8886135
1.56e+09       0.999533938         66.4140332       0.0305271532        -23.5859668       0.0305271532        -23.5859668        0.999533938         66.4140332
1.57e+09       0.999929137         59.2459592        0.011904703        -30.7540408        0.011904703        -30.7540408        0.999929137         59.2459592
1.58e+09       0.999999697         51.1393436     0.000778511907        -38.8606564     0.000778511907        -38.8606564        0.999999697         51.1393436
1.59e+09       0.999983165         41.6122029      0.00580250588        -48.3877971      0.00580250588        -48.3877971        0.999983165         41.6122029
1.6e+09       0.998887646         29.5433787       0.0471536929        -60.4566213       0.0471536929        -60.4566213        0.998887646         29.5433787
1.61e+09       0.983469668         11.7171245        0.181072948        -78.2828755        0.181072948        -78.2828755        0.983469668         11.7171245
1.62e+09       0.823179841        -22.8540536        0.567780723        -112.854054        0.567780723        -112.854054        0.823179841        -22.8540536
1.63e+09      0.0821799277        -84.1535611        0.996617509        -174.153561        0.996617509        -174.153561       0.0821799277        -84.1535611
1.64e+09       0.412790815         56.0683998        0.910825857           146.0684        0.910825857           146.0684        0.412790815         56.0683998
1.65e+09       0.556560969         36.0045823        0.830806769         126.004582        0.830806769         126.004582        0.556560969         36.0045823
1.66e+09       0.600594706         22.4714433        0.799553625         112.471443        0.799553625         112.471443        0.600594706         22.4714433
1.67e+09       0.611306636         11.5622515        0.791393832         101.562252        0.791393832         101.562252        0.611306636         11.5622515
1.68e+09       0.608997545         1.98556835        0.793172106         91.9855684        0.793172106         91.9855684        0.608997545         1.98556835
1.69e+09       0.601836946        -6.78139648        0.798618989         83.2186035        0.798618989         83.2186035        0.601836946        -6.78139648
1.7e+09       0.593812279        -14.9874232        0.804603615         75.0125768        0.804603615         75.0125768        0.593812279        -14.9874232
1.71e+09        0.58709551        -22.7687188        0.809517673         67.2312812        0.809517673         67.2312812         0.58709551        -22.7687188
1.72e+09       0.582911407        -30.2100954        0.812535717         59.7899046        0.812535717         59.7899046        0.582911407        -30.2100954
1.73e+09       0.581919939        -37.3705088        0.813246078         52.6294912        0.813246078         52.6294912        0.581919939        -37.3705088
1.74e+09       0.584414184        -44.2943612         0.81145552         45.7056388         0.81145552         45.7056388        0.584414184        -44.2943612
1.75e+09       0.590436926        -51.0166937        0.807083785         38.9833063        0.807083785         38.9833063        0.590436926        -51.0166937
1.76e+09       0.599855975        -57.5656633        0.800107998         32.4343367        0.800107998         32.4343367        0.599855975        -57.5656633
1.77e+09       0.612416014          -63.96382        0.790535658           26.03618        0.790535658           26.03618        0.612416014          -63.96382
1.78e+09       0.627776162        -70.2288804        0.778393917         19.7711196        0.778393917         19.7711196        0.627776162        -70.2288804
1.79e+09       0.645538619        -76.3743218        0.763727629         13.6256782        0.763727629         13.6256782        0.645538619        -76.3743218
1.8e+09       0.665271677        -82.4099433        0.746601364         7.59005672        0.746601364         7.59005672        0.665271677        -82.4099433
1.81e+09       0.686529087        -88.3424505         0.72710234         1.65754952         0.72710234         1.65754952        0.686529087        -88.3424505
1.82e+09       0.708866801        -94.1760768         0.70534237        -4.17607685         0.70534237        -4.17607685        0.708866801        -94.1760768
1.83e+09       0.731857426         -99.913229        0.681457781        -9.91322901        0.681457781        -9.91322901        0.731857426         -99.913229
1.84e+09       0.755102336        -105.555133        0.655606942        -15.5551326        0.655606942        -15.5551326        0.755102336        -105.555133
1.85e+09       0.778241129         -111.10245         0.62796556        -21.1024504         0.62796556        -21.1024504        0.778241129         -111.10245
1.86e+09       0.800958191        -116.555847        0.598720282        -26.5558469        0.598720282        -26.5558469        0.800958191        -116.555847
1.87e+09       0.822986202         -121.91648        0.568061363        -31.9164799        0.568061363        -31.9164799        0.822986202         -121.91648
1.88e+09       0.844106672        -127.186409        0.536175276        -37.1864086        0.536175276        -37.1864086        0.844106672        -127.186409
1.89e+09       0.864147809        -132.368923        0.503238079        -42.3689227        0.503238079        -42.3689227        0.864147809        -132.368923
1.9e+09        0.88298015        -137.468807        0.469410326        -47.4688068        0.469410326        -47.4688068         0.88298015        -137.468807
1.91e+09       0.900510487        -142.492576        0.434834293        -52.4925761        0.434834293        -52.4925761        0.900510487        -142.492576
1.92e+09       0.916674585        -147.448746        0.399634464        -57.4487464        0.399634464        -57.4487464        0.916674585        -147.448746
1.93e+09        0.93142901        -152.348257        0.363923068        -62.3482568        0.363923068        -62.3482568         0.93142901        -152.348257
1.94e+09       0.944742054        -157.205303        0.327814661         -67.205303        0.327814661         -67.205303        0.944742054        -157.205303
1.95e+09       0.956582876        -162.039222        0.291460462        -72.0392216        0.291460462        -72.0392216        0.956582876        -162.039222
1.96e+09       0.966905415        -166.879333        0.255135097        -76.8793333        0.255135097        -76.8793333        0.966905415        -166.879333
1.97e+09       0.975613117        -171.779775        0.219497256        -81.7797747        0.219497256        -81.7797747        0.975613117        -171.779775
1.98e+09       0.982427983        -176.880019         0.18664206        -86.8800194         0.18664206        -86.8800194        0.982427983        -176.880019
1.99e+09       0.985838005         177.155595        0.167700413        -92.8444048        0.167700413        -92.8444048        0.985838005         177.155595
2e+09       0.767215891        -140.432024        0.641388943         129.567976        0.641388943         129.567976        0.767215891        -140.432024
2.01e+09        0.99999998         172.449008     0.000198043425         82.4490077     0.000198043425         82.4490077         0.99999998         172.449008
2.02e+09       0.999683172         166.518657        0.025170517         76.5186574        0.025170517         76.5186574        0.999683172         166.518657
2.03e+09       0.997924799         161.250612       0.0643901897          71.250612       0.0643901897          71.250612        0.997924799         161.250612
2.04e+09       0.994098869         156.082402        0.108477829          66.082402        0.108477829          66.082402        0.994098869         156.082402
2.05e+09       0.987825945         150.884254         0.15556318         60.8842538         0.15556318         60.8842538        0.987825945         150.884254
2.06e+09        0.97875515         145.601829        0.205032572         55.6018292        0.205032572         55.6018292         0.97875515         145.601829
2.07e+09       0.966521277         140.203883        0.256586479         50.2038826        0.256586479         50.2038826        0.966521277         140.203883
2.08e+09       0.950741955         134.669635        0.309983444         44.6696346        0.309983444         44.6696346        0.950741955         134.669635
2.09e+09       0.931031528          128.98525        0.364938754         38.9852505        0.364938754         38.9852505        0.931031528          128.98525
2.1e+09       0.907027095         123.143155         0.42107226         33.1431548         0.42107226         33.1431548        0.907027095         123.143155
2.11e+09        0.87842528         117.142376        0.477879721         27.1423764        0.477879721         27.1423764         0.87842528         117.142376
2.12e+09        0.84502743         110.989197        0.534722958         20.9891966        0.534722958         20.9891966         0.84502743         110.989197
2.13e+09       0.806788473         104.697674        0.590840384         14.6976745        0.590840384         14.6976745        0.806788473         104.697674
2.14e+09       0.763861656         98.2897224         0.64538002          8.2897224         0.64538002          8.2897224        0.763861656         98.2897224
2.15e+09       0.716629264         91.7944877        0.697454298         1.79448768        0.697454298         1.79448768        0.716629264         91.7944877
2.16e+09       0.665709561         85.2469203        0.746210949        -4.75307968        0.746210949        -4.75307968        0.665709561         85.2469203
2.17e+09       0.611933757         78.6855806        0.790909019        -11.3144194        0.790909019        -11.3144194        0.611933757         78.6855806
2.18e+09       0.556293303           72.14993        0.830986017          -17.85007        0.830986017          -17.85007        0.556293303           72.14993
2.19e+09       0.499865313         65.6774902        0.866103151        -24.3225098        0.866103151        -24.3225098        0.499865313         65.6774902
2.2e+09        0.44372953         59.3012941        0.896160758        -30.6987059        0.896160758        -30.6987059         0.44372953         59.3012941
2.21e+09       0.388891607         53.0479737        0.921283516        -36.9520263        0.921283516        -36.9520263        0.388891607         53.0479737
2.22e+09       0.336224501         46.9366706        0.941781867        -43.0633294        0.941781867        -43.0633294        0.336224501         46.9366706
2.23e+09       0.286433852         40.9787661         0.95810002        -49.0212339         0.95810002        -49.0212339        0.286433852         40.9787661
