! Created Wed Oct 23 12:48:10 2024
! List of port names and net name(s): example Port n = <port_name> <net_name1> <net_name2> ...
! Port 1 = P1 N_gnd N_gnd N_gnd 
! Port 2 = P4 N_gnd N_gnd N_gnd 
# hz S ma R 50
! 2 Port Network Data from data block
! freq  magS11  angS11  magS21  angS21  magS12  angS12  magS22  angS22  
!     
                 0     1.7977223e-08         73.7328515        0.999999995    -2.96926446e-06        0.999999995    -2.96926446e-06     1.79772238e-08         73.7328432
         200000000     0.00347736559         89.4059573        0.999993949        -0.59236381        0.999993949        -0.59236381      0.00347736559         89.4091469
         400000000     0.00695425237         88.8120528        0.999975813        -1.18471297        0.999975813        -1.18471297      0.00695425237         88.8184321
         600000000      0.0104301817         88.2181499        0.999945598        -1.77703284        0.999945598        -1.77703284       0.0104301817         88.2277195
         800000000      0.0139046754         87.6242839        0.999903318         -2.3693088        0.999903318         -2.3693088       0.0139046754         87.6370444
             1e+09      0.0173772556         87.0304732        0.999848995        -2.96152624        0.999848995        -2.96152624       0.0173772556         87.0464256
           1.2e+09      0.0208474454         86.4367339        0.999782658         -3.5536706        0.999782658         -3.5536706       0.0208474454         86.4558793
           1.4e+09      0.0243147687         85.8430808         0.99970434        -4.14572735         0.99970434        -4.14572735       0.0243147686         85.8654206
           1.6e+09      0.0277787503         85.2495286        0.999614082          -4.737682        0.999614082          -4.737682       0.0277787503         85.2750645
           1.8e+09      0.0312389167         84.6560918        0.999511929        -5.32952013        0.999511929        -5.32952013       0.0312389167         84.6848257
             2e+09      0.0346947954         84.0627848        0.999397935        -5.92122737        0.999397935        -5.92122737       0.0346947953         84.0947188
           2.2e+09      0.0381459157         83.4696217        0.999272158        -6.51278945        0.999272158        -6.51278945       0.0381459156         83.5047581
           2.4e+09      0.0415918087         82.8766167        0.999134662        -7.10419213        0.999134662        -7.10419213       0.0415918086         82.9149582
           2.6e+09      0.0450320073         82.2837838        0.998985518         -7.6954213        0.998985518         -7.6954213       0.0450320073         82.3253331
           2.8e+09      0.0484660469          81.691137        0.998824801        -8.28646293        0.998824801        -8.28646293       0.0484660468         81.7358972
             3e+09      0.0518934647         81.0986899        0.998652594        -8.87730309        0.998652594        -8.87730309       0.0518934646         81.1466644
           3.2e+09      0.0553138007         80.5064564        0.998468985        -9.46792796        0.998468985        -9.46792796       0.0553138006         80.5576487
           3.4e+09      0.0587265974         79.9144501        0.998274066        -10.0583238        0.998274066        -10.0583238       0.0587265973         79.9688638
           3.6e+09      0.0621314001         79.3226843        0.998067937        -10.6484771        0.998067937        -10.6484771          0.0621314         79.3803236
           3.8e+09      0.0655277571         78.7311724        0.997850703        -11.2383744        0.997850703        -11.2383744        0.065527757         78.7920416
             4e+09      0.0689152196         78.1399276        0.997622473        -11.8280024        0.997622473        -11.8280024       0.0689152195         78.2040311
           4.2e+09      0.0722933422         77.5489629        0.997383363        -12.4173479        0.997383363        -12.4173479       0.0722933421         77.6163055
           4.4e+09      0.0756616829         76.9582912        0.997133493        -13.0063979        0.997133493        -13.0063979       0.0756616827         77.0288779
           4.6e+09       0.079019803         76.3679252        0.996872989        -13.5951395        0.996872989        -13.5951395       0.0790198028         76.4417613
           4.8e+09      0.0823672677         75.7778775        0.996601983        -14.1835601        0.996601983        -14.1835601       0.0823672675         75.8549685
             5e+09      0.0857036459         75.1881605        0.996320609        -14.7716471        0.996320609        -14.7716471       0.0857036457         75.2685122
           5.2e+09      0.0890285104         74.5987864         0.99602901        -15.3593882         0.99602901        -15.3593882       0.0890285101         74.6824047
           5.4e+09      0.0923414379         74.0097672         0.99572733        -15.9467712         0.99572733        -15.9467712       0.0923414377         74.0966584
           5.6e+09      0.0956420097         73.4211148         0.99541572        -16.5337843         0.99541572        -16.5337843       0.0956420094         73.5112854
           5.8e+09      0.0989298108         72.8328409        0.995094334        -17.1204155        0.995094334        -17.1204155       0.0989298105         72.9262976
             6e+09       0.102204431         72.2449567        0.994763332        -17.7066533        0.994763332        -17.7066533        0.102204431         72.3417066
           6.2e+09       0.105465465         71.6574737        0.994422878        -18.2924864        0.994422878        -18.2924864        0.105465465          71.757524
           6.4e+09       0.108712511         71.0704028        0.994073139        -18.8779037        0.994073139        -18.8779037         0.10871251         71.1737611
           6.6e+09       0.111945172         70.4837548        0.993714287         -19.462894        0.993714287         -19.462894        0.111945172         70.5904289
           6.8e+09       0.115163058         69.8975403        0.993346499        -20.0474468        0.993346499        -20.0474468        0.115163057         70.0075383
             7e+09       0.118365781         69.3117697        0.992969954        -20.6315516        0.992969954        -20.6315516         0.11836578         69.4250998
           7.2e+09       0.121552959         68.7264531        0.992584836        -21.2151981        0.992584836        -21.2151981        0.121552958          68.843124
           7.4e+09       0.124724216         68.1416004        0.992191331        -21.7983762        0.992191331        -21.7983762        0.124724215          68.261621
           7.6e+09       0.127879179         67.5572212        0.991789631        -22.3810762        0.991789631        -22.3810762        0.127879179         67.6806006
           7.8e+09       0.131017484         66.9733249         0.99137993        -22.9632885         0.99137993        -22.9632885        0.131017483         67.1000726
             8e+09       0.134138767         66.3899208        0.990962424        -23.5450039        0.990962424        -23.5450039        0.134138767         66.5200464
           8.2e+09       0.137242674         65.8070177        0.990537315        -24.1262132        0.990537315        -24.1262132        0.137242674         65.9405312
           8.4e+09       0.140328855         65.2246243        0.990104805        -24.7069077        0.990104805        -24.7069077        0.140328854         65.3615359
           8.6e+09       0.143396963         64.6427489          0.9896651        -25.2870789          0.9896651        -25.2870789        0.143396962         64.7830692
           8.8e+09        0.14644666         64.0613997         0.98921841        -25.8667184         0.98921841        -25.8667184        0.146446659         64.2051396
             9e+09       0.149477611         63.4805846        0.988764946        -26.4458183        0.988764946        -26.4458183         0.14947761         63.6277551
           9.2e+09       0.152489488         62.9003111        0.988304921        -27.0243708        0.988304921        -27.0243708        0.152489487         63.0509237
           9.4e+09       0.155481968         62.3205867        0.987838552        -27.6023685        0.987838552        -27.6023685        0.155481967         62.4746531
           9.6e+09       0.158454734         61.7414182        0.987366057        -28.1798041        0.987366057        -28.1798041        0.158454733         61.8989505
           9.8e+09       0.161407474         61.1628127        0.986887656        -28.7566706        0.986887656        -28.7566706        0.161407473          61.323823
             1e+10       0.164339882         60.5847764        0.986403572        -29.3329615        0.986403572        -29.3329615        0.164339881         60.7492775
          1.02e+10       0.167251657         60.0073158        0.985914028        -29.9086704        0.985914028        -29.9086704        0.167251656         60.1753205
          1.04e+10       0.170142506         59.4304366         0.98541925        -30.4837911         0.98541925        -30.4837911        0.170142505         59.6019582
          1.06e+10       0.173012139         58.8541446        0.984919466        -31.0583179        0.984919466        -31.0583179        0.173012138         59.0291966
          1.08e+10       0.175860273         58.2784452        0.984414903        -31.6322451        0.984414903        -31.6322451        0.175860271         58.4570415
           1.1e+10       0.178686629         57.7033434        0.983905792        -32.2055675        0.983905792        -32.2055675        0.178686628         57.8854982
          1.12e+10       0.181490937         57.1288441        0.983392363        -32.7782802        0.983392363        -32.7782802        0.181490935          57.314572
          1.14e+10        0.18427293         56.5549518        0.982874849        -33.3503785        0.982874849        -33.3503785        0.184272928         56.7442675
          1.16e+10       0.187032346         55.9816707        0.982353481        -33.9218579        0.982353481        -33.9218579        0.187032344         56.1745895
          1.18e+10       0.189768932         55.4090048        0.981828494        -34.4927144        0.981828494        -34.4927144         0.18976893         55.6055421
           1.2e+10       0.192482437         54.8369577        0.981300122        -35.0629441        0.981300122        -35.0629441        0.192482435         55.0371295
          1.22e+10       0.195172618         54.2655328        0.980768599        -35.6325434        0.980768599        -35.6325434        0.195172616         54.4693552
          1.24e+10       0.197839236         53.6947332         0.98023416        -36.2015091         0.98023416        -36.2015091        0.197839233         53.9022229
          1.26e+10       0.200482058         53.1245617        0.979697041        -36.7698383        0.979697041        -36.7698383        0.200482055         53.3357355
          1.28e+10       0.203100857         52.5550208        0.979157477        -37.3375282        0.979157477        -37.3375282        0.203100854          52.769896
           1.3e+10        0.20569541         51.9861127        0.978615704        -37.9045764        0.978615704        -37.9045764        0.205695408         52.2047069
          1.32e+10       0.208265502         51.4178394        0.978071956        -38.4709809        0.978071956        -38.4709809        0.208265499         51.6401706
          1.34e+10        0.21081092         50.8502024         0.97752647        -39.0367397         0.97752647        -39.0367397        0.210810917          51.076289
          1.36e+10       0.213331459         50.2832032        0.976979479        -39.6018514        0.976979479        -39.6018514        0.213331456          50.513064
          1.38e+10       0.215826918         49.7168428        0.976431219        -40.1663147        0.976431219        -40.1663147        0.215826914         49.9504969
           1.4e+10         0.2182971          49.151122        0.975881923        -40.7301285        0.975881923        -40.7301285        0.218297096          49.388589
          1.42e+10       0.220741815         48.5860413        0.975331826        -41.2932922        0.975331826        -41.2932922        0.220741811         48.8273411
          1.44e+10       0.223160879         48.0216009        0.974781159        -41.8558054        0.974781159        -41.8558054        0.223160874         48.2667538
          1.46e+10       0.225554108         47.4578008        0.974230155        -42.4176678        0.974230155        -42.4176678        0.225554104         47.7068276
          1.48e+10        0.22792133         46.8946406        0.973679044        -42.9788797        0.973679044        -42.9788797        0.227921325         47.1475625
           1.5e+10       0.230262371         46.3321198        0.973128058        -43.5394415        0.973128058        -43.5394415        0.230262366         46.5889582
          1.52e+10       0.232577066         45.7702373        0.972577423        -44.0993538        0.972577423        -44.0993538         0.23257706         46.0310144
          1.54e+10       0.234865254         45.2089921        0.972027369        -44.6586175        0.972027369        -44.6586175        0.234865248         45.4737302
          1.56e+10       0.237126777         44.6483828        0.971478123        -45.2172339        0.971478123        -45.2172339        0.237126771         44.9171048
          1.58e+10       0.239361484         44.0884075        0.970929908        -45.7752044        0.970929908        -45.7752044        0.239361477         44.3611367
           1.6e+10       0.241569226         43.5290644        0.970382949        -46.3325309        0.970382949        -46.3325309        0.241569219         43.8058246
          1.62e+10       0.243749859         42.9703511        0.969837469        -46.8892153        0.969837469        -46.8892153        0.243749852         43.2511665
          1.64e+10       0.245903246         42.4122653        0.969293687        -47.4452599        0.969293687        -47.4452599        0.245903238         42.6971606
          1.66e+10        0.24802925          41.854804        0.968751824        -48.0006672        0.968751824        -48.0006672        0.248029241         42.1438044
          1.68e+10        0.25012774         41.2979643        0.968212096          -48.55544        0.968212096          -48.55544        0.250127731         41.5910954
           1.7e+10       0.252198591         40.7417428        0.967674719        -49.1095814        0.967674719        -49.1095814        0.252198581         41.0390308
          1.72e+10       0.254241678         40.1861361        0.967139906        -49.6630945        0.967139906        -49.6630945        0.254241667         40.4876076
          1.74e+10       0.256256883         39.6311403         0.96660787        -50.2159831         0.96660787        -50.2159831        0.256256872         39.9368225
          1.76e+10        0.25824409         39.0767514        0.966078821        -50.7682508        0.966078821        -50.7682508        0.258244079         39.3866719
          1.78e+10       0.260203189         38.5229651        0.965552965        -51.3199017        0.965552965        -51.3199017        0.260203176         38.8371521
           1.8e+10       0.262134071         37.9697769        0.965030509        -51.8709401        0.965030509        -51.8709401        0.262134057          38.288259
          1.82e+10       0.264036631         37.4171819        0.964511657        -52.4213704        0.964511657        -52.4213704        0.264036617         37.7399885
          1.84e+10       0.265910769         36.8651751        0.963996608        -52.9711974        0.963996608        -52.9711974        0.265910754          37.192336
          1.86e+10       0.267756387         36.3137513        0.963485563         -53.520426        0.963485563         -53.520426        0.267756371         36.6452969
          1.88e+10        0.26957339         35.7629051        0.962978718        -54.0690615        0.962978718        -54.0690615        0.269573373         36.0988662
           1.9e+10       0.271361688         35.2126305        0.962476268        -54.6171093        0.962476268        -54.6171093         0.27136167         35.5530388
          1.92e+10       0.273121192         34.6629218        0.961978404        -55.1645749        0.961978404        -55.1645749        0.273121173         35.0078093
          1.94e+10       0.274851817         34.1137727        0.961485316        -55.7114644        0.961485316        -55.7114644        0.274851796         34.4631722
          1.96e+10        0.27655348         33.5651769         0.96099719        -56.2577837         0.96099719        -56.2577837        0.276553458         33.9191216
          1.98e+10       0.278226102         33.0171276        0.960514212        -56.8035392        0.960514212        -56.8035392        0.278226079         33.3756516
             2e+10       0.279869606         32.4696181        0.960036562        -57.3487373        0.960036562        -57.3487373        0.279869581          32.832756
          2.02e+10       0.281483918         31.9226414         0.95956442        -57.8933848         0.95956442        -57.8933848        0.281483892         32.2904284
          2.04e+10       0.283068967         31.3761901        0.959097963        -58.4374885        0.959097963        -58.4374885        0.283068939         31.7486621
          2.06e+10       0.284624682         30.8302569        0.958637365        -58.9810556        0.958637365        -58.9810556        0.284624652         31.2074504
          2.08e+10       0.286150998         30.2848339        0.958182795        -59.5240934        0.958182795        -59.5240934        0.286150966         30.6667863
           2.1e+10       0.287647849         29.7399134        0.957734424        -60.0666094        0.957734424        -60.0666094        0.287647815         30.1266626
          2.12e+10       0.289115173         29.1954873        0.957292416        -60.6086113        0.957292416        -60.6086113        0.289115137          29.587072
          2.14e+10        0.29055291         28.6515473        0.956856935        -61.1501069        0.956856935        -61.1501069        0.290552872         29.0480069
          2.16e+10       0.291961001          28.108085        0.956428139        -61.6911044        0.956428139        -61.6911044        0.291960961         28.5094596
          2.18e+10       0.293339391         27.5650917        0.956006187        -62.2316119        0.956006187        -62.2316119        0.293339348         27.9714222
           2.2e+10       0.294688024         27.0225585        0.955591232        -62.7716379        0.955591232        -62.7716379        0.294687978         27.4338867
          2.22e+10       0.296006848         26.4804766        0.955183425        -63.3111909        0.955183425        -63.3111909        0.296006799         26.8968449
          2.24e+10       0.297295811         25.9388366        0.954782915        -63.8502798        0.954782915        -63.8502798         0.29729576         26.3602882
          2.26e+10       0.298554865         25.3976292        0.954389848        -64.3889134        0.954389848        -64.3889134         0.29855481         25.8242083
          2.28e+10       0.299783961         24.8568448        0.954004365        -64.9271009        0.954004365        -64.9271009        0.299783903         25.2885964
