! Created Wed Oct 23 12:47:27 2024
! List of port names and net name(s): example Port n = <port_name> <net_name1> <net_name2> ...
! Port 1 = P1 P1 P1 P1 
# hz S ma R 50
! 1 Port Network Data from data block
! freq  magS11  angS11  
!     
                 0                 1    -1.86081025e-06
         200000000       0.999999999       -0.369005151
         400000000       0.999999997       -0.738019337
         600000000       0.999999994        -1.10705159
         800000000        0.99999999        -1.47611096
             1e+09       0.999999984        -1.84520647
           1.2e+09       0.999999977        -2.21434718
           1.4e+09       0.999999969        -2.58354211
           1.6e+09       0.999999959        -2.95280032
           1.8e+09       0.999999948        -3.32213087
             2e+09       0.999999936         -3.6915428
           2.2e+09       0.999999922        -4.06104519
           2.4e+09       0.999999907        -4.43064708
           2.6e+09       0.999999891        -4.80035757
           2.8e+09       0.999999873        -5.17018573
             3e+09       0.999999854        -5.54014064
           3.2e+09       0.999999834        -5.91023141
           3.4e+09       0.999999812        -6.28046713
           3.6e+09       0.999999788        -6.65085693
           3.8e+09       0.999999763        -7.02140992
             4e+09       0.999999737        -7.39213523
           4.2e+09       0.999999709        -7.76304202
           4.4e+09       0.999999679        -8.13413944
           4.6e+09       0.999999648        -8.50543665
           4.8e+09       0.999999615        -8.87694284
             5e+09       0.999999581         -9.2486672
           5.2e+09       0.999999545        -9.62061893
           5.4e+09       0.999999507        -9.99280727
           5.6e+09       0.999999467        -10.3652414
           5.8e+09       0.999999425        -10.7379307
             6e+09       0.999999381        -11.1108843
           6.2e+09       0.999999336        -11.4841116
           6.4e+09       0.999999288        -11.8576218
           6.6e+09       0.999999238        -12.2314242
           6.8e+09       0.999999186        -12.6055283
             7e+09       0.999999132        -12.9799433
           7.2e+09       0.999999075        -13.3546787
           7.4e+09       0.999999016        -13.7297438
           7.6e+09       0.999998955         -14.105148
           7.8e+09       0.999998891        -14.4809008
             8e+09       0.999998824        -14.8570117
           8.2e+09       0.999998754        -15.2334901
           8.4e+09       0.999998682        -15.6103455
           8.6e+09       0.999998606        -15.9875874
           8.8e+09       0.999998528        -16.3652255
             9e+09       0.999998446        -16.7432693
           9.2e+09       0.999998361        -17.1217283
           9.4e+09       0.999998272        -17.5006123
           9.6e+09        0.99999818        -17.8799308
           9.8e+09       0.999998084        -18.2596936
             1e+10       0.999997984        -18.6399103
          1.02e+10        0.99999788        -19.0205907
          1.04e+10       0.999997771        -19.4017445
          1.06e+10       0.999997658        -19.7833816
          1.08e+10       0.999997541        -20.1655118
           1.1e+10       0.999997418        -20.5481448
          1.12e+10        0.99999729        -20.9312907
          1.14e+10       0.999997157        -21.3149592
          1.16e+10       0.999997019        -21.6991604
          1.18e+10       0.999996874        -22.0839042
           1.2e+10       0.999996724        -22.4692006
          1.22e+10       0.999996567        -22.8550597
          1.24e+10       0.999996403        -23.2414915
          1.26e+10       0.999996232        -23.6285062
          1.28e+10       0.999996054        -24.0161139
           1.3e+10       0.999995869        -24.4043247
          1.32e+10       0.999995675         -24.793149
          1.34e+10       0.999995473        -25.1825968
          1.36e+10       0.999995263        -25.5726786
          1.38e+10       0.999995043        -25.9634046
           1.4e+10       0.999994813        -26.3547852
          1.42e+10       0.999994574        -26.7468308
          1.44e+10       0.999994324        -27.1395519
          1.46e+10       0.999994063        -27.5329588
          1.48e+10        0.99999379        -27.9270622
           1.5e+10       0.999993505        -28.3218725
          1.52e+10       0.999993208        -28.7174005
          1.54e+10       0.999992897        -29.1136566
          1.56e+10       0.999992572        -29.5106516
          1.58e+10       0.999992233        -29.9083962
           1.6e+10       0.999991878        -30.3069012
          1.62e+10       0.999991507        -30.7061773
          1.64e+10        0.99999112        -31.1062354
          1.66e+10       0.999990715        -31.5070864
          1.68e+10       0.999990291        -31.9087413
           1.7e+10       0.999989849        -32.3112109
          1.72e+10       0.999989386        -32.7145063
          1.74e+10       0.999988901        -33.1186386
          1.76e+10       0.999988395        -33.5236189
          1.78e+10       0.999987866        -33.9294583
           1.8e+10       0.999987312        -34.3361681
          1.82e+10       0.999986732        -34.7437593
          1.84e+10       0.999986127        -35.1522435
          1.86e+10       0.999985493        -35.5616318
          1.88e+10        0.99998483        -35.9719357
           1.9e+10       0.999984137        -36.3831665
          1.92e+10       0.999983412        -36.7953358
          1.94e+10       0.999982653        -37.2084551
          1.96e+10        0.99998186        -37.6225359
          1.98e+10        0.99998103        -38.0375898
             2e+10       0.999980163        -38.4536285
          2.02e+10       0.999979256        -38.8706637
          2.04e+10       0.999978307        -39.2887072
          2.06e+10       0.999977316        -39.7077707
          2.08e+10       0.999976279         -40.127866
           2.1e+10       0.999975196        -40.5490052
          2.12e+10       0.999974064           -40.9712
          2.14e+10       0.999972881        -41.3944625
          2.16e+10       0.999971645        -41.8188047
          2.18e+10       0.999970355        -42.2442387
           2.2e+10       0.999969007        -42.6707766
          2.22e+10         0.9999676        -43.0984306
          2.24e+10       0.999966131        -43.5272129
          2.26e+10       0.999964599        -43.9571356
          2.28e+10          0.999963        -44.3882112
           2.3e+10       0.999961333         -44.820452
          2.32e+10       0.999959594        -45.2538704
          2.34e+10       0.999957783        -45.6884788
          2.36e+10       0.999955895        -46.1242897
          2.38e+10       0.999953929        -46.5613156
           2.4e+10       0.999951883         -46.999569
          2.42e+10       0.999949753        -47.4390627
          2.44e+10       0.999947537        -47.8798093
          2.46e+10       0.999945233        -48.3218214
          2.48e+10       0.999942839        -48.7651118
           2.5e+10       0.999940352        -49.2096932
          2.52e+10       0.999937769        -49.6555787
          2.54e+10       0.999935088        -50.1027809
          2.56e+10       0.999932308        -50.5513128
          2.58e+10       0.999929424        -51.0011874
           2.6e+10       0.999926437        -51.4524176
          2.62e+10       0.999923342        -51.9050166
          2.64e+10       0.999920139        -52.3589974
          2.66e+10       0.999916825        -52.8143731
          2.68e+10       0.999913398        -53.2711569
           2.7e+10       0.999909857        -53.7293621
          2.72e+10       0.999906199        -54.1890018
          2.74e+10       0.999902423        -54.6500894
          2.76e+10       0.999898527        -55.1126382
          2.78e+10        0.99989451        -55.5766617
           2.8e+10       0.999890371        -56.0421732
          2.82e+10       0.999886107        -56.5091862
          2.84e+10       0.999881717        -56.9777142
          2.86e+10       0.999877201        -57.4477709
          2.88e+10       0.999872556        -57.9193697
           2.9e+10       0.999867783        -58.3925243
          2.92e+10       0.999862878        -58.8672484
          2.94e+10       0.999857842        -59.3435558
          2.96e+10       0.999852673        -59.8214601
          2.98e+10        0.99984737        -60.3009753
             3e+10       0.999841931         -60.782115
