! Created Wed Oct 23 12:47:10 2024
! List of port names and net name(s): example Port n = <port_name> <net_name1> <net_name2> ...
! Port 1 = P1 P1 P1 P1 
# hz S ma R 50
! 1 Port Network Data from data block
! freq  magS11  angS11  
!     
                 0       0.999999991         179.999996
         200000000        0.99999999         179.269352
         400000000        0.99999999         178.538731
         600000000       0.999999989         177.808166
         800000000       0.999999989         177.077684
             1e+09       0.999999988         176.347313
           1.2e+09       0.999999987         175.617079
           1.4e+09       0.999999987         174.887012
           1.6e+09       0.999999986         174.157138
           1.8e+09       0.999999985         173.427485
             2e+09       0.999999984          172.69808
           2.2e+09       0.999999983          171.96895
           2.4e+09       0.999999982         171.240123
           2.6e+09       0.999999981         170.511626
           2.8e+09        0.99999998         169.783486
             3e+09       0.999999978         169.055729
           3.2e+09       0.999999977         168.328383
           3.4e+09       0.999999976         167.601474
           3.6e+09       0.999999975         166.875029
           3.8e+09       0.999999974         166.149074
             4e+09       0.999999973         165.423635
           4.2e+09       0.999999972         164.698739
           4.4e+09       0.999999971         163.974411
           4.6e+09        0.99999997         163.250677
           4.8e+09       0.999999968         162.527563
             5e+09       0.999999967         161.805094
           5.2e+09       0.999999966         161.083295
           5.4e+09       0.999999965         160.362191
           5.6e+09       0.999999964         159.641807
           5.8e+09       0.999999962         158.922168
             6e+09       0.999999961         158.203297
           6.2e+09        0.99999996          157.48522
           6.4e+09       0.999999959         156.767959
           6.6e+09       0.999999957         156.051539
           6.8e+09       0.999999956         155.335983
             7e+09       0.999999954         154.621313
           7.2e+09       0.999999953         153.907554
           7.4e+09       0.999999951         153.194727
           7.6e+09        0.99999995         152.482855
           7.8e+09       0.999999948         151.771961
             8e+09       0.999999947         151.062064
           8.2e+09       0.999999945         150.353189
           8.4e+09       0.999999943         149.645355
           8.6e+09       0.999999941         148.938583
           8.8e+09        0.99999994         148.232895
             9e+09       0.999999938          147.52831
           9.2e+09       0.999999936          146.82485
           9.4e+09       0.999999934         146.122532
           9.6e+09       0.999999932         145.421378
           9.8e+09       0.999999929         144.721405
             1e+10       0.999999927         144.022634
          1.02e+10       0.999999925         143.325082
          1.04e+10       0.999999923         142.628767
          1.06e+10        0.99999992         141.933708
          1.08e+10       0.999999918         141.239922
           1.1e+10       0.999999915         140.547426
          1.12e+10       0.999999912         139.856238
          1.14e+10       0.999999909         139.166373
          1.16e+10       0.999999906         138.477849
          1.18e+10       0.999999903          137.79068
           1.2e+10         0.9999999         137.104882
          1.22e+10       0.999999897         136.420472
          1.24e+10       0.999999894         135.737463
          1.26e+10        0.99999989          135.05587
          1.28e+10       0.999999887         134.375708
           1.3e+10       0.999999883         133.696989
          1.32e+10       0.999999879         133.019729
          1.34e+10       0.999999875          132.34394
          1.36e+10       0.999999871         131.669634
          1.38e+10       0.999999867         130.996825
           1.4e+10       0.999999862         130.325525
          1.42e+10       0.999999858         129.655746
          1.44e+10       0.999999853         128.987498
          1.46e+10       0.999999848         128.320794
          1.48e+10       0.999999843         127.655643
           1.5e+10       0.999999838         126.992058
          1.52e+10       0.999999832         126.330047
          1.54e+10       0.999999827         125.669621
          1.56e+10       0.999999821         125.010789
          1.58e+10       0.999999815          124.35356
           1.6e+10       0.999999808         123.697944
          1.62e+10       0.999999802         123.043948
          1.64e+10       0.999999795         122.391582
          1.66e+10       0.999999788         121.740852
          1.68e+10       0.999999781         121.091768
           1.7e+10       0.999999773         120.444335
          1.72e+10       0.999999765          119.79856
          1.74e+10       0.999999757         119.154452
          1.76e+10       0.999999749         118.512015
          1.78e+10        0.99999974         117.871255
           1.8e+10       0.999999731          117.23218
          1.82e+10       0.999999721         116.594793
          1.84e+10       0.999999711           115.9591
          1.86e+10       0.999999701         115.325106
          1.88e+10       0.999999691         114.692816
           1.9e+10        0.99999968         114.062233
          1.92e+10       0.999999668         113.433362
          1.94e+10       0.999999656         112.806206
          1.96e+10       0.999999644         112.180769
          1.98e+10       0.999999631         111.557054
             2e+10       0.999999618         110.935063
          2.02e+10       0.999999604         110.314799
          2.04e+10        0.99999959         109.696265
          2.06e+10       0.999999575         109.079463
          2.08e+10       0.999999559         108.464393
           2.1e+10       0.999999543         107.851059
          2.12e+10       0.999999526          107.23946
          2.14e+10       0.999999509         106.629599
          2.16e+10       0.999999491         106.021475
          2.18e+10       0.999999472          105.41509
           2.2e+10       0.999999453         104.810444
          2.22e+10       0.999999432         104.207536
          2.24e+10       0.999999411         103.606366
          2.26e+10       0.999999389         103.006934
          2.28e+10       0.999999366          102.40924
           2.3e+10       0.999999343         101.813283
          2.32e+10       0.999999318          101.21906
          2.34e+10       0.999999292         100.626572
          2.36e+10       0.999999265         100.035816
          2.38e+10       0.999999238         99.4467916
           2.4e+10       0.999999209         98.8594957
          2.42e+10       0.999999178         98.2739265
          2.44e+10       0.999999147         97.6900817
          2.46e+10       0.999999114         97.1079587
          2.48e+10        0.99999908          96.527555
           2.5e+10       0.999999045         95.9488675
          2.52e+10       0.999999008         95.3718931
          2.54e+10        0.99999897         94.7966287
          2.56e+10        0.99999893         94.2230707
          2.58e+10       0.999998888         93.6512155
           2.6e+10       0.999998845         93.0810593
          2.62e+10         0.9999988         92.5125982
          2.64e+10       0.999998753         91.9458281
          2.66e+10       0.999998704         91.3807447
          2.68e+10       0.999998653         90.8173435
           2.7e+10         0.9999986           90.25562
          2.72e+10       0.999998545         89.6955694
          2.74e+10       0.999998488         89.1371869
          2.76e+10       0.999998428         88.5804674
          2.78e+10       0.999998366         88.0254058
           2.8e+10       0.999998301         87.4719968
          2.82e+10       0.999998233         86.9202349
          2.84e+10       0.999998162         86.3701145
          2.86e+10       0.999998089         85.8216301
          2.88e+10       0.999998012         85.2747758
           2.9e+10       0.999997933         84.7295456
          2.92e+10       0.999997849         84.1859335
          2.94e+10       0.999997763         83.6439333
          2.96e+10       0.999997673         83.1035388
          2.98e+10       0.999997579         82.5647436
             3e+10       0.999997481         82.0275412
