! Created Wed Oct 23 12:47:48 2024
! List of port names and net name(s): example Port n = <port_name> <net_name1> <net_name2> ...
! Port 1 = P1 P1 P2 P9 
! Port 2 = P4 P1 P9 P2 
# hz S ma R 50
! 2 Port Network Data from data block
! freq  magS11  angS11  magS21  angS21  magS12  angS12  magS22  angS22  
!     
                 0    1.59737807e-08         71.8020399        0.999999995    -2.69879158e-06        0.999999995    -2.69879158e-06     1.59737839e-08         71.8020034
         200000000     0.00304775888         89.4640569         0.99999535       -0.539020408         0.99999535       -0.539020408      0.00304775888         89.4577115
         400000000     0.00609519153         88.9282649        0.999981419        -1.07803087        0.999981419        -1.07803087      0.00609519153         88.9155738
         600000000     0.00914197182         88.3924616        0.999958205        -1.61702145        0.999958205        -1.61702145      0.00914197182         88.3734247
         800000000      0.0121877738         87.8566806        0.999925719        -2.15598221        0.999925719        -2.15598221       0.0121877738         87.8312974
             1e+09      0.0152322719         87.3209365        0.999883974        -2.69490323        0.999883974        -2.69490323       0.0152322719         87.2892067
           1.2e+09      0.0182751407         86.7852408        0.999832987        -3.23377461        0.999832987        -3.23377461       0.0182751407         86.7471638
           1.4e+09      0.0213160555         86.2496043        0.999772777        -3.77258646        0.999772777        -3.77258646       0.0213160555         86.2051793
           1.6e+09      0.0243546921         85.7140371        0.999703369        -4.31132894        0.999703369        -4.31132894       0.0243546921         85.6632634
           1.8e+09      0.0273907269         85.1785494         0.99962479        -4.84999221         0.99962479        -4.84999221       0.0273907269          85.121426
             2e+09      0.0304238371          84.643151        0.999537073        -5.38856648        0.999537073        -5.38856648       0.0304238371         84.5796769
           2.2e+09       0.033453701         84.1078519        0.999440251        -5.92704199        0.999440251        -5.92704199        0.033453701         84.0380259
           2.4e+09      0.0364799974         83.5726618        0.999334365        -6.46540903        0.999334365        -6.46540903       0.0364799974         83.4964827
           2.6e+09      0.0395024065         83.0375906        0.999219455        -7.00365793        0.999219455        -7.00365793       0.0395024065         82.9550569
           2.8e+09      0.0425206096         82.5026478        0.999095567        -7.54177908        0.999095567        -7.54177908       0.0425206096         82.4137582
             3e+09      0.0455342891         81.9678432        0.998962752         -8.0797629        0.998962752         -8.0797629       0.0455342892         81.8725959
           3.2e+09      0.0485431289         81.4331863        0.998821061        -8.61759991        0.998821061        -8.61759991       0.0485431289         81.3315795
           3.4e+09      0.0515468141         80.8986866         0.99867055        -9.15528066         0.99867055        -9.15528066       0.0515468142         80.7907185
           3.6e+09      0.0545450315         80.3643535         0.99851128        -9.69279576         0.99851128        -9.69279576       0.0545450316         80.2500222
           3.8e+09      0.0575374694         79.8301964        0.998343314        -10.2301359        0.998343314        -10.2301359       0.0575374694         79.7094997
             4e+09      0.0605238178         79.2962247        0.998166718        -10.7672919        0.998166718        -10.7672919       0.0605238178         79.1691603
           4.2e+09      0.0635037683         78.7624474        0.997981561        -11.3042546        0.997981561        -11.3042546       0.0635037684         78.6290131
           4.4e+09      0.0664770147         78.2288737        0.997787916        -11.8410148        0.997787916        -11.8410148       0.0664770147          78.089067
           4.6e+09      0.0694432523         77.6955127         0.99758586        -12.3775637         0.99758586        -12.3775637       0.0694432523          77.549331
           4.8e+09      0.0724021786         77.1623734        0.997375473        -12.9138923        0.997375473        -12.9138923       0.0724021786          77.009814
             5e+09      0.0753534932         76.6294645        0.997156836        -13.4499918        0.997156836        -13.4499918       0.0753534933         76.4705246
           5.2e+09      0.0782968979         76.0967949        0.996930035        -13.9858535        0.996930035        -13.9858535       0.0782968979         75.9314715
           5.4e+09      0.0812320965         75.5643733        0.996695159        -14.5214688        0.996695159        -14.5214688       0.0812320965         75.3926634
           5.6e+09      0.0841587952         75.0322081        0.996452299        -15.0568291        0.996452299        -15.0568291       0.0841587952         74.8541085
           5.8e+09      0.0870767027          74.500308         0.99620155        -15.5919262         0.99620155        -15.5919262       0.0870767027         74.3158153
             6e+09      0.0899855299         73.9686811         0.99594301        -16.1267516         0.99594301        -16.1267516       0.0899855299          73.777792
           6.2e+09      0.0928849903         73.4373359        0.995676779        -16.6612973        0.995676779        -16.6612973       0.0928849904         73.2400466
           6.4e+09      0.0957748001         72.9062803        0.995402959         -17.195555        0.995402959         -17.195555       0.0957748002         72.7025873
           6.6e+09      0.0986546779         72.3755225        0.995121656         -17.729517        0.995121656         -17.729517       0.0986546779         72.1654219
           6.8e+09       0.101524345         71.8450702         0.99483298        -18.2631753         0.99483298        -18.2631753        0.101524345         71.6285582
             7e+09       0.104383526         71.3149314        0.994537039        -18.7965223        0.994537039        -18.7965223        0.104383526         71.0920037
           7.2e+09       0.107231947         70.7851135        0.994233949        -19.3295504        0.994233949        -19.3295504        0.107231947         70.5557661
           7.4e+09       0.110069338         70.2556242        0.993923825        -19.8622521        0.993923825        -19.8622521        0.110069338         70.0198526
           7.6e+09       0.112895432         69.7264707        0.993606785        -20.3946201        0.993606785        -20.3946201        0.112895432         69.4842706
           7.8e+09       0.115709964         69.1976605        0.993282949        -20.9266473        0.993282949        -20.9266473        0.115709964         68.9490271
             8e+09       0.118512674         68.6692004        0.992952442        -21.4583265        0.992952442        -21.4583265        0.118512674         68.4141292
           8.2e+09       0.121303302         68.1410976        0.992615387         -21.989651        0.992615387         -21.989651        0.121303302         67.8795837
           8.4e+09       0.124081593         67.6133589        0.992271912        -22.5206139        0.992271912        -22.5206139        0.124081593         67.3453972
           8.6e+09       0.126847295         67.0859909        0.991922146        -23.0512086        0.991922146        -23.0512086        0.126847295         66.8115763
           8.8e+09        0.12960016         66.5590002        0.991566221        -23.5814286        0.991566221        -23.5814286         0.12960016         66.2781274
             9e+09       0.132339941         66.0323931        0.991204269        -24.1112677        0.991204269        -24.1112677        0.132339941         65.7450569
           9.2e+09       0.135066396          65.506176        0.990836426        -24.6407196        0.990836426        -24.6407196        0.135066396         65.2123707
           9.4e+09       0.137779285         64.9803549        0.990462827        -25.1697783        0.990462827        -25.1697783        0.137779285         64.6800748
           9.6e+09       0.140478373         64.4549357        0.990083613         -25.698438        0.990083613         -25.698438        0.140478373         64.1481751
           9.8e+09       0.143163426         63.9299243        0.989698922        -26.2266929        0.989698922        -26.2266929        0.143163427         63.6166772
             1e+10       0.145834216         63.4053263        0.989308897        -26.7545375        0.989308897        -26.7545375        0.145834216         63.0855865
          1.02e+10       0.148490516         62.8811471        0.988913681        -27.2819663        0.988913681        -27.2819663        0.148490517         62.5549084
          1.04e+10       0.151132104          62.357392        0.988513418        -27.8089742        0.988513418        -27.8089742        0.151132104         62.0246481
          1.06e+10        0.15375876         61.8340663        0.988108255         -28.335556        0.988108255         -28.335556        0.153758761         61.4948106
          1.08e+10       0.156370269         61.3111748        0.987698338        -28.8617069        0.987698338        -28.8617069        0.156370269         60.9654007
           1.1e+10       0.158966418         60.7887225        0.987283816        -29.3874221        0.987283816        -29.3874221        0.158966418         60.4364231
          1.12e+10       0.161546998          60.266714        0.986864839        -29.9126969        0.986864839        -29.9126969        0.161546999         59.9078823
          1.14e+10       0.164111804         59.7451538        0.986441557         -30.437527        0.986441557         -30.437527        0.164111804         59.3797827
          1.16e+10       0.166660634         59.2240461        0.986014123        -30.9619082        0.986014123        -30.9619082        0.166660634         58.8521284
          1.18e+10       0.169193288         58.7033953        0.985582688        -31.4858362        0.985582688        -31.4858362        0.169193288         58.3249235
           1.2e+10       0.171709572         58.1832053        0.985147406        -32.0093073        0.985147406        -32.0093073        0.171709573         57.7981718
          1.22e+10       0.174209295         57.6634799        0.984708432        -32.5323176        0.984708432        -32.5323176        0.174209295          57.271877
          1.24e+10       0.176692267         57.1442228        0.984265921        -33.0548635        0.984265921        -33.0548635        0.176692267         56.7460425
          1.26e+10       0.179158304         56.6254375        0.983820027        -33.5769417        0.983820027        -33.5769417        0.179158305         56.2206718
          1.28e+10       0.181607225         56.1071273        0.983370909        -34.0985489        0.983370909        -34.0985489        0.181607226          55.695768
           1.3e+10       0.184038852         55.5892954        0.982918721         -34.619682        0.982918721         -34.619682        0.184038853          55.171334
          1.32e+10        0.18645301         55.0719447        0.982463623        -35.1403381        0.982463623        -35.1403381        0.186453011         54.6473728
          1.34e+10       0.188849529         54.5550781         0.98200577        -35.6605145         0.98200577        -35.6605145        0.188849529         54.1238869
          1.36e+10        0.19122824         54.0386983        0.981545322        -36.1802086        0.981545322        -36.1802086         0.19122824         53.6008788
          1.38e+10        0.19358898         53.5228076        0.981082437         -36.699418        0.981082437         -36.699418         0.19358898         53.0783509
           1.4e+10       0.195931587         53.0074085        0.980617272        -37.2181405        0.980617272        -37.2181405        0.195931587         52.5563053
          1.42e+10       0.198255904          52.492503        0.980149988        -37.7363741        0.980149988        -37.7363741        0.198255904         52.0347439
          1.44e+10       0.200561776         51.9780931        0.979680741        -38.2541168        0.979680741        -38.2541168        0.200561777         51.5136686
          1.46e+10       0.202849054         51.4641807        0.979209692         -38.771367        0.979209692         -38.771367        0.202849055         50.9930809
          1.48e+10        0.20511759         50.9507673        0.978736999        -39.2881231        0.978736999        -39.2881231         0.20511759         50.4729823
           1.5e+10       0.207367238         50.4378544        0.978262819        -39.8043838        0.978262819        -39.8043838        0.207367238         49.9533742
          1.52e+10       0.209597858         49.9254434        0.977787313        -40.3201478        0.977787313        -40.3201478        0.209597859         49.4342575
          1.54e+10       0.211809313         49.4135352        0.977310638        -40.8354141        0.977310638        -40.8354141        0.211809313         48.9156332
          1.56e+10       0.214001467          48.902131        0.976832951        -41.3501818        0.976832951        -41.3501818        0.214001468         48.3975022
          1.58e+10        0.21617419         48.3912314        0.976354411        -41.8644504        0.976354411        -41.8644504         0.21617419         47.8798649
           1.6e+10       0.218327352         47.8808372        0.975875175        -42.3782191        0.975875175        -42.3782191        0.218327352         47.3627219
          1.62e+10       0.220460829         47.3709487        0.975395399        -42.8914877        0.975395399        -42.8914877        0.220460829         46.8460734
          1.64e+10       0.222574498         46.8615663         0.97491524         -43.404256         0.97491524         -43.404256        0.222574499         46.3299195
          1.66e+10       0.224668241           46.35269        0.974434854        -43.9165239        0.974434854        -43.9165239        0.224668241         45.8142602
          1.68e+10       0.226741941           45.84432        0.973954396        -44.4282915        0.973954396        -44.4282915        0.226741941         45.2990951
           1.7e+10       0.228795485         45.3364559         0.97347402        -44.9395592         0.97347402        -44.9395592        0.228795485          44.784424
          1.72e+10       0.230828762         44.8290975         0.97299388        -45.4503274         0.97299388        -45.4503274        0.230828763         44.2702462
          1.74e+10       0.232841666         44.3222442         0.97251413        -45.9605968         0.97251413        -45.9605968        0.232841667          43.756561
          1.76e+10       0.234834092         43.8158953        0.972034921         -46.470368        0.972034921         -46.470368        0.234834093         43.2433676
          1.78e+10       0.236805939         43.3100501        0.971556405         -46.979642        0.971556405         -46.979642        0.236805939         42.7306649
           1.8e+10       0.238757106         42.8047075        0.971078734          -47.48842        0.971078734          -47.48842        0.238757107         42.2184516
          1.82e+10       0.240687499         42.2998664        0.970602056        -47.9967032        0.970602056        -47.9967032          0.2406875         41.7067266
          1.84e+10       0.242597024         41.7955255        0.970126521        -48.5044929        0.970126521        -48.5044929        0.242597025         41.1954881
          1.86e+10       0.244485589         41.2916834        0.969652276        -49.0117907        0.969652276        -49.0117907         0.24448559         40.6847346
          1.88e+10       0.246353107         40.7883385        0.969179469        -49.5185984        0.969179469        -49.5185984        0.246353108         40.1744643
           1.9e+10       0.248199492         40.2854891        0.968708245        -50.0249178        0.968708245        -50.0249178        0.248199493         39.6646751
          1.92e+10       0.250024661         39.7831332        0.968238748        -50.5307509        0.968238748        -50.5307509        0.250024662         39.1553649
          1.94e+10       0.251828532         39.2812688        0.967771122        -51.0360998        0.967771122        -51.0360998        0.251828534         38.6465315
          1.96e+10       0.253611029         38.7798938         0.96730551        -51.5409669         0.96730551        -51.5409669         0.25361103         38.1381724
          1.98e+10       0.255372074         38.2790058        0.966842052        -52.0453546        0.966842052        -52.0453546        0.255372076          37.630285
             2e+10       0.257111595         37.7786023        0.966380889        -52.5492655        0.966380889        -52.5492655        0.257111597         37.1228667
          2.02e+10        0.25882952         37.2786807        0.965922159        -53.0527024        0.965922159        -53.0527024        0.258829522         36.6159146
          2.04e+10        0.26052578         36.7792384        0.965465999         -53.555668        0.965465999         -53.555668        0.260525782         36.1094256
          2.06e+10       0.262200309         36.2802724        0.965012546        -54.0581655        0.965012546        -54.0581655         0.26220031         35.6033967
          2.08e+10       0.263853041         35.7817797        0.964561934         -54.560198        0.964561934         -54.560198        0.263853043         35.0978245
           2.1e+10       0.265483914         35.2837571        0.964114296        -55.0617687        0.964114296        -55.0617687        0.265483916         34.5927055
          2.12e+10       0.267092869         34.7862014        0.963669764        -55.5628811        0.963669764        -55.5628811        0.267092871         34.0880364
          2.14e+10       0.268679845         34.2891091        0.963228469        -56.0635387        0.963228469        -56.0635387        0.268679847         33.5838133
          2.16e+10       0.270244787         33.7924768        0.962790539        -56.5637452        0.962790539        -56.5637452         0.27024479         33.0800324
          2.18e+10       0.271787641         33.2963006        0.962356102        -57.0635045        0.962356102        -57.0635045        0.271787644         32.5766898
           2.2e+10       0.273308353          32.800577        0.961925283        -57.5628204        0.961925283        -57.5628204        0.273308356         32.0737814
          2.22e+10       0.274806873         32.3053018        0.961498208        -58.0616971        0.961498208        -58.0616971        0.274806877          31.571303
          2.24e+10       0.276283152         31.8104712        0.961074998        -58.5601387        0.961074998        -58.5601387        0.276283156         31.0692502
          2.26e+10       0.277737143         31.3160808        0.960655776        -59.0581495        0.960655776        -59.0581495        0.277737147         30.5676186
          2.28e+10       0.279168799         30.8221266         0.96024066         -59.555734         0.96024066         -59.555734        0.279168803         30.0664035
