# Hz S MA R 50.0 
!freq magS11 angS11 magS21 angS21 magS12 angS12 magS22 angS22
0.0 0.8907831440936157 176.95846532973505 0.4765400665073328 10.865232584600887 0.4765400665073328 10.865232584600836 0.8907916795874543 -3.041241076842529
100000000.0 0.08928311776522331 -179.3587926869509 0.9957123681268776 -2.053016455724103 0.995712368126878 -2.053016455724101 0.08990955895231025 -8.220147555785429
200000000.0 0.0889160552076145 -176.27214513727915 0.9955492627938951 -4.1150819084084915 0.9955492627938946 -4.115081908408491 0.08973917677802096 -14.15083461355736
300000000.0 0.08925787651269763 -173.44542269610974 0.9953383033961597 -6.173217877194455 0.9953383033961597 -6.1732178771944515 0.09013299410418624 -20.217981560232403
400000000.0 0.08983318187381115 -170.774301018622 0.9951143246155849 -8.228854479727046 0.9951143246155851 -8.228854479727042 0.09066134370794554 -26.291133146857092
500000000.0 0.09055275587774195 -168.2721354643789 0.9948845861046917 -10.281807724751804 0.9948845861046912 -10.281807724751806 0.09127494863294949 -32.35527251351425
600000000.0 0.09139926535314906 -165.95489170612225 0.9946487233382637 -12.331719077561761 0.9946487233382636 -12.331719077561761 0.09199456406662036 -38.39119958093687
700000000.0 0.0923607935557979 -163.82622473437976 0.9944055883799452 -14.378294936228492 0.9944055883799451 -14.3782949362285 0.09283352101411473 -44.368501100355125
800000000.0 0.09341717729227493 -161.8825469136013 0.9941551592536136 -16.421303122020152 0.9941551592536135 -16.421303122020163 0.09378468080137398 -50.25640105041688
900000000.0 0.09454057941788446 -160.11754807203914 0.9938986004904388 -18.46054155101647 0.9938986004904391 -18.46054155101648 0.09482522585086577 -56.03031177227754
1000000000.0 0.09569901489981365 -158.5240063248096 0.9936379600826611 -20.49582785196023 0.9936379600826611 -20.49582785196023 0.09592377186763638 -61.67325726481215
1100000000.0 0.09685926168049491 -157.09444589382286 0.9933758460822916 -22.526997064796515 0.9933758460822909 -22.52699706479651 0.09704560200030471 -67.1750722846067
1200000000.0 0.09798876493216882 -155.82125934481394 0.993115178872722 -24.553904963296127 0.993115178872722 -24.553904963296123 0.09815569971314042 -72.53081922646524
1300000000.0 0.09905665335195914 -154.69682279696391 0.9928590414293293 -26.576435684099508 0.9928590414293299 -26.576435684099504 0.09922055584184226 -77.73946090165451
1400000000.0 0.10003424951526907 -153.71360675149396 0.992610527514459 -28.594500851128206 0.9926105275144597 -28.59450085112821 0.10020887591996842 -82.80257141825878
1500000000.0 0.10089543559759603 -152.8642952969558 0.9923726629523303 -30.608043635783883 0.9923726629523302 -30.608043635783886 0.10109213081466004 -87.72339980540438
1600000000.0 0.10161668565323682 -152.1418830621579 0.9921483210110256 -32.617040189850485 0.9921483210110257 -32.617040189850506 0.10184463215969182 -92.50621361829172
1700000000.0 0.10217704755574371 -151.5398168693919 0.991940166342953 -34.62149874345734 0.9919401663429523 -34.6214987434573 0.10244356772874966 -97.15577278062732
1800000000.0 0.10255812388514383 -151.05209396933407 0.9917505802488967 -36.62146019146157 0.9917505802488968 -36.62146019146158 0.10286897119401811 -101.67698872010098
1900000000.0 0.10274393653425705 -150.67330745485629 0.9915816371782857 -38.61699379224559 0.9915816371782856 -38.61699379224561 0.10310354486995217 -106.07461869891719
2000000000.0 0.10272089364600397 -150.39871209243466 0.9914350589839246 -40.60819986753293 0.9914350589839244 -40.60819986753293 0.1031326607139066 -110.35312797394116
2100000000.0 0.10247761545344768 -150.22428468501414 0.9913121912120604 -42.5952015976253 0.99131219121206 -42.595201597625284 0.10294414512933858 -114.51650525927019
2200000000.0 0.10200492688948254 -150.14674153305782 0.9912139795724578 -44.57814722631079 0.9912139795724568 -44.57814722631078 0.10252824718354676 -118.56818129176942
2300000000.0 0.10129571289040312 -150.1635910772897 0.9911409568597408 -46.557203487113654 0.9911409568597408 -46.557203487113654 0.10187747922480099 -122.51092832676848
2400000000.0 0.10034489287254376 -150.27314848339606 0.991093248404166 -48.53255573009561 0.9910932484041657 -48.5325557300956 0.10098657323990026 -126.34679981446718
2500000000.0 0.0991493267713783 -150.47460528616105 0.9910705608427568 -50.504401267772195 0.9910705608427569 -50.504401267772224 0.09985233965960161 -130.07702412499734
2600000000.0 0.09770777052133563 -150.7680855171197 0.9910721926438487 -52.472947707706155 0.991072192643849 -52.47294770770614 0.09847362480533792 -133.70195320812832
2700000000.0 0.09602089935057896 -151.15469751598212 0.9910970611725711 -54.43841201968874 0.9910970611725711 -54.43841201968874 0.09685129102054221 -137.22094074349167
2800000000.0 0.0940911431991374 -151.6366752330744 0.9911437156334195 -56.401012013341514 0.9911437156334193 -56.401012013341486 0.09498807156800022 -140.63225205756396
2900000000.0 0.09192281071044181 -152.2174973872642 0.9912103581224024 -58.36096799407051 0.9912103581224027 -58.36096799407052 0.09288862672951527 -143.932889211632
3000000000.0 0.08952203196491176 -152.90206169750883 0.9912948855724693 -60.31849979381171 0.9912948855724684 -60.31849979381171 0.09055951686854043 -147.11843820802378
3100000000.0 0.08689676062003941 -153.6969331482969 0.991394922510117 -62.273820043232384 0.9913949225101165 -62.273820043232384 0.08800916906543876 -150.18281648188795
3200000000.0 0.08405683607277029 -154.61064253229515 0.9915078572811608 -64.227137346458 0.9915078572811605 -64.227137346458 0.08524793838699013 -153.11799484623504
3300000000.0 0.0810140510488796 -155.65408965713513 0.9916308922272028 -66.17865076193638 0.991630892227203 -66.17865076193638 0.08228816970924017 -155.9136060461102
3400000000.0 0.07778219649798214 -156.84106704743255 0.9917610866377625 -68.1285481760913 0.9917610866377623 -68.12854817609131 0.07914425078978624 -158.5565059222847
3500000000.0 0.07437728576588196 -158.18894862983868 0.9918954049314146 -70.07700757264263 0.9918954049314146 -70.07700757264264 0.07583281254660529 -161.0301120110162
3600000000.0 0.07081769103191252 -159.7195752208205 0.9920307700658213 -72.02419323743804 0.9920307700658215 -72.02419323743803 0.07237287795778831 -163.31367195221944
3700000000.0 0.06712451004606884 -161.46044406037478 0.9921641088557737 -73.9702570847177 0.9921641088557734 -73.9702570847177 0.06878621135659893 -165.38124355055743
3800000000.0 0.06332193026349908 -163.44625098306662 0.9922924046285281 -75.91533668450626 0.9922924046285276 -75.91533668450624 0.0650976681090334 -167.20046505022853
3900000000.0 0.059437880958154804 -165.72086382784877 0.9924127506189065 -77.85955695790643 0.9924127506189065 -77.85955695790642 0.061335798383959174 -168.73100308134363
4000000000.0 0.055504898199254554 -168.33988932845608 0.992522393655881 -79.80302978994577 0.9925223936558806 -79.80302978994577 0.05753363354121625 -169.92270276895758
4100000000.0 0.05156131745739981 -171.3737894345422 0.9926187770016701 -81.74585470699286 0.9926187770016698 -81.74585470699287 0.053729700688864346 -170.71351361898323
4200000000.0 0.04765297999619801 -174.91142933188124 0.9926995874443539 -83.6881197008928 0.9926995874443539 -83.6881197008928 0.049969434813949595 -171.02745482707923
4300000000.0 0.04383556459735449 -179.06341020353335 0.9927627886425918 -85.6299041035229 0.9927627886425918 -85.6299041035229 0.04630697905048453 -170.7733728733632
4400000000.0 0.0401775342367653 176.03656859141768 0.9928066556999718 -87.57127837178244 0.9928066556999714 -87.57127837178245 0.04280725110244842 -169.84599785125516
4500000000.0 0.036763541226016376 170.23626902189133 0.9928298040997738 -89.51230650813602 0.9928298040997738 -89.51230650813602 0.03954801246293673 -168.13222706345326
4600000000.0 0.033697260868521366 163.38294982537266 0.99283120288544 -91.45304801354082 0.9928312028854397 -91.45304801354082 0.03662097491885657 -165.52731326419462
4700000000.0 0.031101155181122737 155.3657719379084 0.9928101971608415 -93.39355912786554 0.9928101971608417 -93.39355912786554 0.03413017128871893 -161.96638806234895
4800000000.0 0.02910844093468758 146.18974491801796 0.9927665164124381 -95.33389777661212 0.9927665164124385 -95.33389777661212 0.032184650157291744 -157.47245889133518
4900000000.0 0.027842139492677765 136.0631822619292 0.9927002656103098 -97.27412094238223 0.9927002656103097 -97.27412094238223 0.03088305287200641 -152.20763482391956
5000000000.0 0.02738194400872013 125.43464312207561 0.9926119307204091 -99.21429185938786 0.9926119307204091 -99.21429185938787 0.030291265143455887 -146.4929068387084
5100000000.0 0.027733447041520604 114.90442227847241 0.9925023546132439 -101.1544770393836 0.9925023546132438 -101.15447703938361 0.03042157168486518 -140.75890594081264
5200000000.0 0.02882144636461143 105.03102665009493 0.9923727271157765 -103.09475233445866 0.9923727271157763 -103.09475233445866 0.031225452084006244 -135.43407113418985
5300000000.0 0.030513587509252853 96.16815446142489 0.9922245517726241 -105.03520207708313 0.9922245517726235 -105.03520207708313 0.03260556518765072 -130.8339317832305
5400000000.0 0.0326569254496795 88.43212307765577 0.9920596138069715 -106.97592114883558 0.9920596138069715 -106.97592114883555 0.034439351214068256 -127.11457393806751
5500000000.0 0.03510658798446701 81.76948211457035 0.9918799508095182 -108.91701641584199 0.9918799508095179 -108.917016415842 0.03660159810429841 -124.29417862852932
5600000000.0 0.037739290329002875 76.04398878378309 0.9916878006068568 -110.85860669900364 0.9916878006068568 -110.85860669900363 0.03897870699481329 -122.30457190445999
5700000000.0 0.040455799326170355 71.0979064105594 0.991485565405746 -112.8008253775368 0.9914855654057461 -112.8008253775368 0.041474299720858615 -121.03875729487001
5800000000.0 0.04317808301257248 66.78322406746629 0.9912757560140403 -114.74381713933988 0.9912757560140405 -114.74381713933988 0.04400954715068918 -120.3818383080809
5900000000.0 0.04584512418618726 62.97303841707144 0.991060951013936 -116.68774231981372 0.991060951013936 -116.68774231981372 0.04652096162857328 -120.22672456328463
6000000000.0 0.04840899568652123 59.5630300444342 0.9908437400043698 -118.63277197982302 0.9908437400043698 -118.63277197982302 0.048957690026203496 -120.48018550921579
6100000000.0 0.050831782481744775 56.46896847207692 0.9906266767187305 -120.57909107427669 0.9906266767187307 -120.57909107427669 0.05127895309975062 -121.06374121025651
6200000000.0 0.05308328654086563 53.62310544109062 0.9904122313051829 -122.52689280702279 0.9904122313051829 -122.52689280702279 0.05345197628637303 -121.91232259762283
6300000000.0 0.05513936338560752 50.97073483537376 0.990202741629644 -124.47638198273131 0.9902027416296446 -124.47638198273131 0.05545038817042499 -122.97219803959815
6400000000.0 0.056980776795349596 48.467230634087095 0.9900003749975474 -126.42777006744178 0.9900003749975469 -126.42777006744178 0.057253049340959546 -124.19884269033837
6500000000.0 0.058592351220194364 46.07566862583144 0.9898070838257432 -128.38127406751067 0.9898070838257432 -128.38127406751067 0.05884317408389292 -125.55503458855621
6600000000.0 0.059962400609276004 43.76495743815177 0.9896245722855114 -130.33711430109847 0.9896245722855115 -130.33711430109847 0.06020770088814318 -127.0092556254279
6700000000.0 0.06108233964443573 41.508369768664956 0.989454268655418 -132.29551201032106 0.9894542686554175 -132.29551201032103 0.06133684117231777 -128.53435797701297
6800000000.0 0.06194639398817877 39.282382125265336 0.9892972996835432 -134.25668635212074 0.9892972996835432 -134.25668635212077 0.06222375760021157 -130.10649953102214
6900000000.0 0.06255140633645609 37.065732403771314 0.989154475218763 -136.22085260911965 0.9891544752187634 -136.22085260911965 0.06286432532454553 -131.70424839668652
7000000000.0 0.06289673600042531 34.83868293885324 0.9890262719215693 -138.18821814907363 0.9890262719215694 -138.18821814907363 0.06325699941823411 -133.30785727629356
7100000000.0 0.06298417965970986 32.58235480132939 0.9889128344874285 -140.15898062783052 0.9889128344874283 -140.15898062783052 0.06340269872947071 -134.89863469922065
7200000000.0 0.06281795987478199 30.278176960088587 0.988813972637116 -142.13332538810113 0.9888139726371158 -142.1333253881011 0.0633047715386781 -136.45840096634066
7300000000.0 0.062404739835473844 27.90737703475877 0.9887291709133114 -144.11142175415122 0.9887291709133111 -144.11142175415122 0.06296898608014648 -137.96901124001874
7400000000.0 0.061753694996105675 25.450494543004552 0.9886576067398588 -146.09342143643642 0.9886576067398581 -146.09342143643642 0.06240355760654065 -139.4118972035634
7500000000.0 0.06087660168819599 22.886922711048655 0.9885981622690149 -148.07945558923385 0.9885981622690152 -148.07945558923387 0.0616192245726779 -140.76764603333487
7600000000.0 0.05978798943608105 20.19443974542299 0.9885494591723575 -150.06963358043149 0.9885494591723574 -150.06963358043146 0.060629345020743845 -142.01559354309364
7700000000.0 0.05850532892573802 17.348766340449586 0.9885098849175067 -152.06403976099017 0.9885098849175071 -152.06403976099017 0.05945004962163425 -143.13344291529017
7800000000.0 0.057049280072844495 14.323138621859243 0.9884776295635235 -154.06273436805142 0.9884776295635233 -154.06273436805142 0.05810042805652394 -144.09691617753907
7900000000.0 0.05544399711836976 11.087958134555821 0.988450725328667 -156.0657485250177 0.9884507253286674 -156.0657485250177 0.05660276173350502 -144.87947682308697
8000000000.0 0.053717487328075866 7.6105789667240815 0.9884270900404403 -158.0730864902949 0.9884270900404399 -158.0730864902949 0.054982794156741496 -145.45218143927698
8100000000.0 0.05190202680287056 3.855373476715753 0.9884045704130636 -160.08472450380432 0.9884045704130638 -160.08472450380432 0.0532700408463971 -145.78376025266488
8200000000.0 0.05003458180492906 -0.21572782290877363 0.9883809878427682 -162.10061004541967 0.9883809878427681 -162.10061004541967 0.051498095192257926 -145.84107552381914
8300000000.0 0.0481572009551887 -4.641904122325117 0.9883541856817993 -164.12066228445008 0.9883541856818 -164.12066228445008 0.049704899320822 -145.59016233186247
8400000000.0 0.04631724081345771 -9.460947747281475 0.9883220777155919 -166.14477253004745 0.9883220777155921 -166.14477253004745 0.047932878181121144 -144.9981577911515
8500000000.0 0.044567239342183096 -14.705138049790555 0.9882826892037517 -168.1728067882967 0.9882826892037522 -168.1728067882967 0.046228817801535496 -144.03638378306218
8600000000.0 0.042964165487729064 -20.395179824585878 0.9882342018483895 -170.20460538962985 0.988234201848389 -170.20460538962988 0.0446432614504406 -142.68484621577178
8700000000.0 0.041567681586579426 -26.532328406264647 0.9881749915870819 -172.23998483602784 0.9881749915870811 -172.23998483602784 0.04322921691644854 -140.93808549583554
8800000000.0 0.04043711332447744 -33.08976050282017 0.9881036651355433 -174.27874279446024 0.9881036651355433 -174.27874279446024 0.0420399006110306 -138.81179274859286
8900000000.0 0.039627021678119295 -40.00556558467311 0.9880190903921128 -176.32065614265 0.9880190903921134 -176.32065614265 0.04112542636800575 -136.3487125469708
9000000000.0 0.03918176695710706 -47.180787708505115 0.9879204237253668 -178.3654872266685 0.9879204237253667 -178.3654872266685 0.040528622794394 -133.6216122987771
9100000000.0 0.0391300826003786 -54.48558633919939 0.9878071257937686 179.58701441530533 0.9878071257937691 179.58701441530533 0.04028056999961029 -130.73093054391165
9200000000.0 0.0394811237014373 -61.77398610687868 0.9876789763041266 177.53710974300296 0.9876789763041266 177.53710974300296 0.04039684510149777 -127.79595781430076
9300000000.0 0.04022327480426458 -68.90372696278602 0.9875360839965313 175.48506548977207 0.987536083996531 175.48506548977207 0.04087552771126351 -124.94084739456034
9400000000.0 0.04132610874985876 -75.75488495562249 0.9873788795581365 173.43115239767658 0.9873788795581364 173.43115239767658 0.0416975663962946 -122.27921157041438
9500000000.0 0.042744793888581524 -82.24170259924549 0.9872081145694807 171.37564086528496 0.9872081145694802 171.37564086528496 0.04282939954164433 -119.90175132479116
9600000000.0 0.0444255372349319 -88.31555467432725 0.9870248462324436 169.31879812310893 0.9870248462324434 169.31879812310893 0.04422698834403821 -117.8698636234816
9700000000.0 0.04631070688673253 -93.9607312938388 0.9868304149172882 167.26088573986877 0.9868304149172882 167.26088573986877 0.04584023692130551 -116.21553502968335
9800000000.0 0.048342827628719075 -99.18648445276509 0.9866264212189473 165.20215570111742 0.9866264212189472 165.20215570111742 0.04761689918496815 -114.94570307583099
9900000000.0 0.050467194430629914 -104.01847132158605 0.9864146919388532 163.14284830171601 0.9864146919388531 163.14284830171601 0.04950551555252886 -114.04866282709513
10000000000.0 0.05263332399740057 -108.4914666891738 0.9861972474411258 161.08318953843863 0.986197247441126 161.08318953843863 0.05145734092214215 -113.50052014018095
10100000000.0 0.054795532760587864 -112.6440372746581 0.9859762545942016 159.02339035730864 0.9859762545942016 159.02339035730864 0.05342739507643645 -113.27056087956906
10200000000.0 0.056913008461994756 -116.5150357169775 0.9857539886097487 156.96364153375956 0.9857539886097494 156.96364153375958 0.05537492106083723 -113.32522614874752
10300000000.0 0.05894956493681587 -120.14158503374853 0.9855327843942969 154.9041161855324 0.9855327843942973 154.90411618553242 0.057263424938086206 -113.63071866869826
10400000000.0 0.06087330452031872 -123.55806347971794 0.985314988048604 152.84496586138104 0.9853149880486043 152.84496586138107 0.05906051489153344 -114.15457082018533
10500000000.0 0.06265622312067608 -126.79576772617891 0.9851029098078723 150.78632164833655 0.985102909807872 150.78632164833658 0.06073763514851168 -114.8664492389407
10600000000.0 0.06427386581939686 -129.8829480554705 0.9848987734018797 148.72829267080425 0.9848987734018796 148.72829267080425 0.06226978490696317 -115.7384674577219
10700000000.0 0.06570500578351338 -132.84507085048912 0.9847046713809288 146.67096755740494 0.9847046713809294 146.67096755740494 0.06363522627615607 -116.74517042562539
10800000000.0 0.06693139131741085 -135.70519168771574 0.9845225162463408 144.61441409736554 0.9845225162463405 144.61441409736554 0.06481524792704452 -117.86335459885346
10900000000.0 0.0679375393996554 -138.48434952209945 0.9843540023548238 142.55868047771105 0.9843540023548238 142.55868047771102 0.0657939439478991 -119.07178529112103
11000000000.0 0.06871057584204723 -141.20200017477632 0.9842005652697553 140.50379652561412 0.9842005652697556 140.50379652561412 0.06655805066016535 -120.35085496423987
11100000000.0 0.06924012141741841 -143.87641995385903 0.9840633468911129 138.44977585207278 0.9840633468911131 138.44977585207278 0.06709680479583556 -121.68224030121371
11200000000.0 0.06951821992791447 -146.52511979034415 0.9839431678599057 136.3966167184728 0.9839431678599058 136.3966167184728 0.06740184829686238 -123.04853023244097
11300000000.0 0.06953930035733288 -149.16523975293373 0.9838405039044587 134.34430560929883 0.9838405039044589 134.34430560929883 0.06746715617123893 -124.43285875477885
11400000000.0 0.06930017318137814 -151.81395939605574 0.9837554686529273 132.29281846957818 0.9837554686529275 132.29281846957818 0.06728900357574821 -125.81853141446754
11500000000.0 0.06880006558089372 -154.4889166114426 0.9836878018640378 130.24212415732424 0.9836878018640381 130.24212415732424 0.06686595387293275 -127.18862162310307
11600000000.0 0.0680406961742863 -157.20866617856703 0.9836368694466496 128.19218690129898 0.9836368694466491 128.192186901299 0.0661988947446719 -128.52554293197858
11700000000.0 0.06702641752309901 -159.9931869141536 0.9836016613442629 126.14296787312782 0.9836016613442626 126.14296787312784 0.0652911287289356 -129.8105749786127
