! Created Sun Feb 16 16:33:43 2025
! List of port names and net name(s): example Port n = <port_name> <net_name1> <net_name2> ...
! Port 1 = P1 P1  
! Port 2 = P2 P1  
# hz S ma R 50
! 2 Port Network Data from data block
! freq  magS11  angS11  magS21  angS21  magS12  angS12  magS22  angS22  
!     
                 0    5.29847101e-05         0.43634381        0.999947017    -4.58754473e-05        0.999947017    -4.58754473e-05     5.29847101e-05        0.436343925
         100000000     0.00331546434        -88.5497214        0.999660663        -2.03058936        0.999660663        -2.03058936      0.00331507944        -88.6538773
         200000000      0.0067179487        -91.7043307        0.999441025        -4.04854399        0.999441025        -4.04854399      0.00671691783        -91.9095785
         300000000      0.0100987914        -94.1860073        0.999230783        -6.06428769        0.999230783        -6.06428769        0.010096983        -94.4926713
         400000000      0.0134507774        -96.4518755        0.999018403        -8.07870472        0.999018403        -8.07870472       0.0134480996        -96.8604666
         500000000      0.0167686166        -98.6262607        0.998802759        -10.0921015        0.998802759        -10.0921015       0.0167650202        -99.1374164
         600000000      0.0200477355        -100.750635        0.998582962          -12.10458        0.998582962          -12.10458       0.0200432024        -101.365095
         700000000      0.0232835878        -102.842487        0.998358147        -14.1161641        0.998358147        -14.1161641       0.0232781198        -103.561091
         800000000       0.026471323        -104.910709        0.998127649        -16.1268559        0.998127649        -16.1268559       0.0264649337        -105.734408
         900000000      0.0296058145        -106.960538        0.997891072        -18.1366527        0.997891072        -18.1366527       0.0295985228        -107.890407
             1e+09      0.0326817787        -108.995409        0.997648294        -20.1455512        0.997648294        -20.1455512       0.0326736054        -110.032657
           1.1e+09       0.035693886        -111.017747        0.997399442        -22.1535484        0.997399442        -22.1535484        0.035684851        -112.163724
           1.2e+09      0.0386368379        -113.029341        0.997144851        -24.1606412        0.997144851        -24.1606412       0.0386269589         -114.28555
           1.3e+09       0.041505419        -115.031552        0.996885023         -26.166827        0.996885023         -26.166827       0.0414947106        -116.399651
           1.4e+09      0.0442945329        -117.025427        0.996620591        -28.1721044        0.996620591        -28.1721044       0.0442830055         -118.50724
           1.5e+09      0.0469992252        -119.011785        0.996352293        -30.1764733        0.996352293        -30.1764733       0.0469868855        -120.609308
           1.6e+09      0.0496147013        -120.991264        0.996080942        -32.1799357        0.996080942        -32.1799357       0.0496015513        -122.706674
           1.7e+09      0.0521363379        -122.964365         0.99580741        -34.1824963         0.99580741        -34.1824963        0.052122375        -124.800031
           1.8e+09      0.0545596939         -124.93148        0.995532609        -36.1841625        0.995532609        -36.1841625       0.0545449102        -126.889971
           1.9e+09      0.0568805174        -126.892908        0.995257476        -38.1849449        0.995257476        -38.1849449       0.0568648997        -128.977007
             2e+09      0.0590947526        -128.848882         0.99498296         -40.184858         0.99498296         -40.184858       0.0590782817        -131.061597
           2.1e+09      0.0611985455         -130.79957         0.99471001        -42.1839195         0.99471001        -42.1839195       0.0611811959        -133.144152
           2.2e+09      0.0631882482        -132.745092        0.994439569        -44.1821515        0.994439569        -44.1821515       0.0631699874        -135.225045
           2.3e+09      0.0650604238        -134.685522        0.994172558        -46.1795794        0.994172558        -46.1795794       0.0650412117        -137.304628
           2.4e+09        0.06681185        -136.620898        0.993909873        -48.1762329        0.993909873        -48.1762329        0.066791638        -139.383231
           2.5e+09      0.0684395225        -138.551221        0.993652374        -50.1721455        0.993652374        -50.1721455        0.068418253        -141.461173
           2.6e+09      0.0699406574        -140.476462        0.993400883        -52.1673542        0.993400883        -52.1673542       0.0699182623        -143.538765
           2.7e+09       0.071312695        -142.396558        0.993156169        -54.1618999        0.993156169        -54.1618999       0.0712890951        -145.616313
           2.8e+09      0.0725533016         -144.31142        0.992918953        -56.1558268        0.992918953        -56.1558268       0.0725284057        -147.694127
           2.9e+09      0.0736603719        -146.220925        0.992689893        -58.1491822        0.992689893        -58.1491822       0.0736340741        -149.772517
             3e+09      0.0746320309         -148.12492        0.992469585        -60.1420167        0.992469585        -60.1420167       0.0746042108        -151.851801
           3.1e+09      0.0754666363        -150.023219         0.99225856        -62.1343833         0.99225856        -62.1343833       0.0754371558        -153.932309
           3.2e+09      0.0761627791        -151.915602        0.992057274        -64.1263375        0.992057274        -64.1263375        0.076131482        -156.014382
           3.3e+09      0.0767192868         -153.80181        0.991866111        -66.1179371        0.991866111        -66.1179371       0.0766859952        -158.098378
           3.4e+09       0.077135223        -155.681542        0.991685379        -68.1092415        0.991685379        -68.1092415       0.0770997362        -160.184674
           3.5e+09      0.0774098907        -157.554449        0.991515307        -70.1003115        0.991515307        -70.1003115       0.0773719816        -162.273673
           3.6e+09      0.0775428319        -159.420133        0.991356043        -72.0912092        0.991356043        -72.0912092       0.0775022448        -164.365801
           3.7e+09      0.0775338302        -161.278135        0.991207656        -74.0819973        0.991207656        -74.0819973       0.0774902768        -166.461519
           3.8e+09      0.0773829114        -163.127931        0.991070133        -76.0727388        0.991070133        -76.0727388       0.0773360677        -168.561323
           3.9e+09       0.077090345        -164.968919        0.990943381        -78.0634967        0.990943381        -78.0634967       0.0770398464        -170.665754
             4e+09      0.0766566454        -166.800413        0.990827226        -80.0543338        0.990827226        -80.0543338       0.0766020818        -172.775402
           4.1e+09      0.0760825733        -168.621625        0.990721416        -82.0453118        0.990721416        -82.0453118       0.0760234838        -174.890914
           4.2e+09      0.0753691372         -170.43165        0.990625622        -84.0364915        0.990625622        -84.0364915       0.0753050032        -177.013008
           4.3e+09      0.0745175949        -172.229452         0.99053944        -86.0279322         0.99053944        -86.0279322       0.0744478328         -179.14248
           4.4e+09      0.0735294554        -174.013833        0.990462394        -88.0196912        0.990462394        -88.0196912       0.0734534075         178.719779
           4.5e+09      0.0724064808        -175.783415        0.990393942        -90.0118238        0.990393942        -90.0118238       0.0723234051         176.572764
           4.6e+09      0.0711506881        -177.536596        0.990333473        -92.0043826        0.990333473        -92.0043826       0.0710597465         174.415339
           4.7e+09      0.0697643537        -179.271519        0.990280319        -93.9974176        0.990280319        -93.9974176       0.0696645966         172.246205
           4.8e+09       0.068250015         179.013988        0.990233756        -95.9909754        0.990233756        -95.9909754       0.0681403646         170.063873
           4.9e+09      0.0666104761         177.322468        0.990193007        -97.9850995        0.990193007        -97.9850995       0.0664897055         167.866617
             5e+09      0.0648488128          175.65692        0.990157251        -99.9798297        0.990157251        -99.9798297       0.0647155209         165.652426
           5.1e+09      0.0629683805         174.020899        0.990125629        -101.975202        0.990125629        -101.975202       0.0628209606         163.418935
           5.2e+09      0.0609728233         172.418642        0.990097248        -103.971248        0.990097248        -103.971248       0.0608094253         161.163341
           5.3e+09      0.0588660874         170.855242        0.990071185        -105.967995        0.990071185        -105.967995       0.0586845707         158.882293
           5.4e+09      0.0566524384          169.33686          0.9900465        -107.965467          0.9900465        -107.965467       0.0564503116         156.571743
           5.5e+09      0.0543364852         167.871016        0.990022239        -109.963683        0.990022239        -109.963683       0.0541108306         154.226752
           5.6e+09      0.0519232128         166.466981        0.989997441        -111.962657        0.989997441        -111.962657        0.051670589         151.841224
           5.7e+09      0.0494180287         165.136295        0.989971144        -113.962399        0.989971144        -113.962399       0.0491343436          149.40755
           5.8e+09      0.0468268278         163.893501        0.989942395        -115.962914        0.989942395        -115.962914       0.0465071715         146.916093
           5.9e+09      0.0441560873         162.757158        0.989910256        -117.964203        0.989910256        -117.964203       0.0437945071          144.35447
             6e+09      0.0414130035         161.751296        0.989873811        -119.966262        0.989873811        -119.966262       0.0410021983         141.706502
           6.1e+09       0.038605698         160.907531        0.989832172        -121.969083        0.989832172        -121.969083       0.0381365943         138.950644
           6.2e+09      0.0357435299          160.26821        0.989784485        -123.972653        0.989784485        -123.972653       0.0352046824         136.057583
           6.3e+09      0.0328375861         159.891186        0.989729943        -125.976956        0.989729943        -125.976956       0.0322143103         132.986441
           6.4e+09       0.029901465         159.857247        0.989667784        -127.981971        0.989667784        -127.981971       0.0291745603         129.678552
           6.5e+09      0.0269525778         160.281907        0.989597301        -129.987675        0.989597301        -129.987675       0.0260963984         126.046855
           6.6e+09      0.0240143701         161.334467        0.989517851         -131.99404        0.989517851         -131.99404       0.0229938644         121.956948
           6.7e+09      0.0211202491         163.268944        0.989428852        -134.001035        0.989428852        -134.001035         0.01988638         117.191446
           6.8e+09      0.0183207001         166.472721        0.989329798        -136.008627        0.989329798        -136.008627       0.0168035482         111.379097
           6.9e+09      0.0156962335         171.533044        0.989220255         -138.01678        0.989220255         -138.01678       0.0137959647         103.846543
             7e+09      0.0133794888         179.280011         0.98909987        -140.025455         0.98909987        -140.025455       0.0109615994         93.3058724
           7.1e+09      0.0115833879        -169.395886        0.988968372        -142.034613        0.988968372        -142.034613      0.00851230146         77.3244302
           7.2e+09      0.0105973268        -154.423368        0.988825577        -144.044213        0.988825577        -144.044213      0.00690522917         52.7059403
           7.3e+09      0.0106611339        -137.894536        0.988671386        -146.054212        0.988671386        -146.054212      0.00678941157         21.8228724
           7.4e+09      0.0117613388        -123.245602        0.988505791        -148.064568        0.988505791        -148.064568      0.00823367294        -4.09233983
           7.5e+09      0.0136460762         -112.32067        0.988328876        -150.075238        0.988328876        -150.075238       0.0106153633        -21.1152643
           7.6e+09       0.016032513        -104.896208        0.988140811         -152.08618        0.988140811         -152.08618       0.0134352068        -32.2438405
           7.7e+09      0.0187176277        -100.063366        0.987941858         -154.09735        0.987941858         -154.09735       0.0164560223        -40.1045244
           7.8e+09      0.0215755357        -97.0155157        0.987732369         -156.10871        0.987732369         -156.10871       0.0195690156        -46.1113902
           7.9e+09      0.0245294384        -95.1892207         0.98751278         -158.12022         0.98751278         -158.12022        0.022718721        -51.0002495
             8e+09      0.0275306784         -94.213726        0.987283615        -160.131842        0.987283615        -160.131842       0.0258729854        -55.1733677
           8.1e+09      0.0305466062        -93.8456665        0.987045476        -162.143543        0.987045476        -162.143543        0.029010784        -58.8643623
           8.2e+09      0.0335539159         -93.922475        0.986799044        -164.155291        0.986799044        -164.155291       0.0321168719        -62.2166433
           8.3e+09      0.0365349611        -94.3329468        0.986545074        -166.167056        0.986545074        -166.167056       0.0351792411        -65.3225485
           8.4e+09      0.0394756613        -94.9991115        0.986284389        -168.178814        0.986284389        -168.178814       0.0381878228        -68.2439866
           8.5e+09      0.0423642763        -95.8649993        0.986017875        -170.190545        0.986017875        -170.190545       0.0411337844        -71.0239177
           8.6e+09      0.0451906625        -96.8895546        0.985746475         -172.20223        0.985746475         -172.20223       0.0440091297        -73.6930418
           8.7e+09      0.0479458107        -98.0420659        0.985471186        -174.213857        0.985471186        -174.213857       0.0468064631        -76.2738625
           8.8e+09      0.0506215497        -99.2991506        0.985193046        -176.225419        0.985193046        -176.225419       0.0495188454        -78.7832458
           8.9e+09      0.0532103527        -100.642723        0.984913133        -178.236913        0.984913133        -178.236913       0.0521397041        -81.2340821
             9e+09      0.0557052084        -102.058595        0.984632553         179.751659        0.984632553         179.751659       0.0546627759        -83.6363979
           9.1e+09      0.0580995328        -103.535494        0.984352438          177.74029        0.984352438          177.74029       0.0570820708        -85.9981164
           9.2e+09        0.06038711        -105.064362        0.984073933         175.728965        0.984073933         175.728965       0.0593918478        -88.3255913
           9.3e+09      0.0625620493        -106.637846        0.983798191         173.717667        0.983798191         173.717667       0.0615866008        -90.6239868
           9.4e+09      0.0646187575        -108.249924        0.983526364         171.706371        0.983526364         171.706371       0.0636610484        -92.8975551
           9.5e+09      0.0665519168        -109.895624        0.983259595         169.695047        0.983259595         169.695047       0.0656101293        -95.1498412
           9.6e+09      0.0683564711        -111.570811        0.982999011          167.68366        0.982999011          167.68366       0.0674289977        -97.3838361
           9.7e+09      0.0700276147        -113.272029        0.982745714         165.672167        0.982745714         165.672167       0.0691130228        -99.6020945
           9.8e+09      0.0715607858         -114.99637        0.982500771         163.660523        0.982500771         163.660523       0.0706577873        -101.806825
           9.9e+09      0.0729516595        -116.741379        0.982265209         161.648674        0.982265209         161.648674       0.0720590877        -103.999961
             1e+10      0.0741961447        -118.504975        0.982040004         159.636562        0.982040004         159.636562       0.0733129347        -106.183215
          1.01e+10      0.0752903797        -120.285391        0.981826074         157.624124        0.981826074         157.624124       0.0744155535        -108.358127
          1.02e+10      0.0762307309        -122.081126        0.981624269         155.611291        0.981624269         155.611291       0.0753633842        -110.526098
          1.03e+10      0.0770137888        -123.890898        0.981435365          153.59799        0.981435365          153.59799       0.0761530828        -112.688421
          1.04e+10      0.0776363682        -125.713619         0.98126005         151.584141         0.98126005         151.584141       0.0767815217        -114.846306
          1.05e+10       0.078095505        -127.548362         0.98109892         149.569662         0.98109892         149.569662       0.0772457904        -117.000902
          1.06e+10      0.0783884561        -129.394341        0.980952468         147.554464        0.980952468         147.554464       0.0775431971        -119.153318
          1.07e+10       0.078512699        -131.250893        0.980821071         145.538458        0.980821071         145.538458       0.0776712696        -121.304634
          1.08e+10       0.078465931        -133.117454        0.980704985         143.521546        0.980704985         143.521546       0.0776277581        -123.455924
          1.09e+10       0.078246071        -134.993554        0.980604331         141.503631        0.980604331         141.503631       0.0774106369        -125.608265
           1.1e+10       0.077851261        -136.878797        0.980519086         139.484613        0.980519086         139.484613       0.0770181095        -127.762757
          1.11e+10      0.0772798695        -138.772851         0.98044907         137.464387         0.98044907         137.464387       0.0764486126        -129.920535
          1.12e+10      0.0765304964        -140.675439        0.980393942          135.44285        0.980393942          135.44285       0.0757008234        -132.082788
          1.13e+10      0.0756019793        -142.586325        0.980353183         133.419898        0.980353183         133.419898       0.0747736668        -134.250784
          1.14e+10      0.0744934021        -144.505308        0.980326091         131.395425        0.980326091         131.395425       0.0736663262        -136.425886
