# Hz S MA R 50.0 
!freq magS11 angS11 magS21 angS21 magS12 angS12 magS22 angS22
0.0 0.8907955381968293 -3.041241708827542 0.47654103911905166 10.865229010588884 0.47654103911905127 10.865229010588921 0.8907829212329513 176.9584588120365
100000000.0 0.08970928158001498 -7.026037359229429 0.9956354779108084 -1.9567823800950246 0.9956354779108086 -1.9567823800950241 0.08934452501744385 179.62647913515767
200000000.0 0.08929254376590186 -11.719608415143242 0.9954517802071761 -3.9189684229067754 0.9954517802071758 -3.9189684229067767 0.08882784136238002 -178.34725751571943
300000000.0 0.08935373248267982 -16.568571364360306 0.9952503177098826 -5.876955185767807 0.9952503177098826 -5.876955185767806 0.08885424537826521 -176.56064011223518
400000000.0 0.08945649687276974 -21.44948358747825 0.9950556148127849 -7.832745710334978 0.9950556148127849 -7.832745710334978 0.08896935740825967 -174.89791364183458
500000000.0 0.08954864209419629 -26.35618863937927 0.9948687754111166 -9.786686075408591 0.9948687754111168 -9.786686075408591 0.08910737225297505 -173.36307506250304
600000000.0 0.08965315441892376 -31.28100869359929 0.9946848667568564 -11.738965023286479 0.9946848667568563 -11.738965023286479 0.0892755692800019 -171.96345658511953
700000000.0 0.08979282980246334 -36.2043132026323 0.994499795143114 -13.689824000107624 0.994499795143114 -13.689824000107624 0.08948472365285519 -170.69599238142504
800000000.0 0.08997542509400552 -41.10299011960595 0.9943115898329464 -15.639522106733954 0.9943115898329467 -15.639522106733954 0.08973517036184786 -169.55320588214903
900000000.0 0.09019603356920557 -45.95639551045497 0.9941200435882076 -17.588299628081522 0.9941200435882076 -17.588299628081508 0.09001780418679782 -168.52777445252747
1000000000.0 0.09044217891570626 -50.74812202610109 0.9939260318789539 -19.536367511918648 0.9939260318789541 -19.536367511918638 0.09031799166061014 -167.61394548977745
1100000000.0 0.09069775136841297 -55.46595260330612 0.9937310066870557 -21.48391352692885 0.993731006687056 -21.48391352692885 0.09061865404819025 -166.8076045757125
1200000000.0 0.09094537110673104 -60.10107530979408 0.993536705687892 -23.431112948994397 0.993536705687892 -23.431112948994404 0.09090215456351149 -166.10576319740616
1300000000.0 0.0911676503502019 -64.64732912270273 0.99334493615931 -25.378131337895496 0.9933449361593097 -25.378131337895503 0.0911512864711806 -165.50629252308926
1400000000.0 0.09134787957685231 -69.10056779304315 0.9931575066252909 -27.32513579112078 0.9931575066252908 -27.32513579112078 0.09134974732312448 -165.00749508998936
1500000000.0 0.091470450481378 -73.45809459177491 0.9929761281883285 -29.272297762318185 0.9929761281883285 -29.272297762318185 0.09148251222241109 -164.60796674145314
1600000000.0 0.091520960987561 -77.718253636849 0.9928023923482253 -31.219794433894144 0.9928023923482253 -31.219794433894116 0.09153584482429897 -164.30650415644538
1700000000.0 0.09148632982920213 -81.88015450253953 0.9926377257124678 -33.16781106740091 0.9926377257124681 -33.16781106740094 0.0914973675924348 -164.10206113941757
1800000000.0 0.09135486409579699 -85.94341366430021 0.9924833903081518 -35.116539622888936 0.992483390308152 -35.11653962288893 0.0913560435100887 -163.99377872783538
1900000000.0 0.09111620421966928 -89.90796748551844 0.9923404637447608 -37.0661812671252 0.992340463744761 -37.066181267125195 0.09110214432470369 -163.98094126150454
2000000000.0 0.09076135984981966 -93.77388937584706 0.9922098191613642 -39.016940264217446 0.992209819161364 -39.01694026421744 0.0907272411224789 -164.06309125938276
2100000000.0 0.09028267367943074 -97.54131548780526 0.9920921346888227 -40.96902831689348 0.9920921346888225 -40.96902831689348 0.09022414762130129 -164.23999830431157
2200000000.0 0.08967382050143675 -101.2102758699184 0.9919878782160796 -42.92265818568417 0.9919878782160797 -42.922658185684185 0.08958692716260523 -164.5117480008736
2300000000.0 0.08892977812473378 -104.78063979755845 0.9918973154935522 -44.87804480522044 0.9918973154935522 -44.87804480522043 0.08881084301400749 -164.87875851087782
2400000000.0 0.08804679367113602 -108.25198390204771 0.9918204997050716 -46.83540023557271 0.9918204997050715 -46.83540023557271 0.08789235882660583 -165.3418604806466
2500000000.0 0.08702238376016783 -111.62354293001704 0.9917572918925343 -48.79493498780579 0.9917572918925338 -48.79493498780576 0.08682911484054835 -165.90230559683246
2600000000.0 0.08585530598914035 -114.894116352308 0.9917073598943527 -50.756853468563676 0.9917073598943525 -50.75685346856368 0.08561991203965645 -166.56186234551947
2700000000.0 0.08454556210341119 -118.06193102960424 0.9916701790901974 -52.72135118152454 0.9916701790901976 -52.72135118152454 0.08426476284801204 -167.32287447437344
2800000000.0 0.08309433197321964 -121.12464505829607 0.9916450568142262 -54.68861466449468 0.9916450568142262 -54.68861466449468 0.08276478846643959 -168.18832528427248
2900000000.0 0.08150405116444989 -124.07917073253785 0.9916311423420345 -56.658818869316036 0.9916311423420346 -56.65881886931603 0.08112232723517053 -169.1619316399218
3000000000.0 0.07977836306006551 -126.92158220791681 0.9916274319619258 -58.63212371910704 0.991627431961926 -58.63212371910706 0.07934090726744462 -170.2482690821658
3100000000.0 0.07792212902390895 -129.64700946273695 0.9916327972060666 -60.60867231711577 0.9916327972060663 -60.608672317115754 0.07742525611054973 -171.45286708938642
3200000000.0 0.07594146618236008 -132.24948260045858 0.991645998398045 -62.58859160845057 0.9916459983980452 -62.58859160845057 0.07538134076607124 -172.7823739547502
3300000000.0 0.07384377464554433 -134.72176694482664 0.9916657005842234 -64.5719880797159 0.9916657005842234 -64.5719880797159 0.07321642319886836 -174.24472273195627
3400000000.0 0.07163773939213186 -137.05519835349813 0.9916904995732545 -66.55894548994978 0.9916904995732544 -66.55894548994978 0.07093905108521863 -175.84935808744487
3500000000.0 0.06933345790134855 -139.2394549500139 0.9917189387618982 -68.54952804115327 0.9917189387618979 -68.54952804115327 0.06855920582225868 -177.6074462976392
3600000000.0 0.0669424428744814 -141.2623295360541 0.9917495343276046 -70.54377416926135 0.9917495343276046 -70.54377416926135 0.06608831084461321 -179.53218665300992
3700000000.0 0.06447778653947382 -143.10946833226774 0.991780792471176 -72.54169849182163 0.9917807924711759 -72.54169849182163 0.06353940968461123 178.36088035432073
3800000000.0 0.0619542227362784 -144.76412575946728 0.9918112383216043 -74.54329130204938 0.9918112383216046 -74.54329130204938 0.06092724237358831 176.0535129085546
3900000000.0 0.059388309346251944 -146.20685965014079 0.9918394306113807 -76.54851668039633 0.9918394306113807 -76.54851668039633 0.058268457997918986 173.52438418883636
4000000000.0 0.05679861495331807 -147.41533275927083 0.9918639835498888 -78.55731333835911 0.991863983549889 -78.55731333835911 0.05558183754921326 170.74870378707706
4100000000.0 0.05420589933531329 -148.36417878143786 0.9918835924760412 -80.56959470099427 0.9918835924760411 -80.56959470099427 0.05288851468029735 167.69790878607844
4200000000.0 0.05163334721796207 -149.02505952538957 0.9918970495857142 -82.58524918852746 0.9918970495857137 -82.58524918852746 0.0502122880910397 164.3395174096474
4300000000.0 0.04910682015423851 -149.3670767820988 0.991903259038116 -84.60414182987928 0.9919032590381158 -84.60414182987928 0.04757997037817343 160.63731304379579
4400000000.0 0.04665502484258683 -149.35773427454905 0.991901254219844 -86.62611362284635 0.9919012542198442 -86.62611362284635 0.04502168576193288 156.5521337292683
4500000000.0 0.04430960190892005 -148.96474670635797 0.991890209479717 -88.65098404940079 0.9918902094797172 -88.65098404940079 0.04257111377966977 152.043667603626
4600000000.0 0.04210499726340942 -148.1590109720745 0.991869459654555 -90.67855196314046 0.991869459654555 -90.67855196314046 0.04026550737946208 147.07372579814285
4700000000.0 0.04007796370098999 -146.91908718506892 0.9918384960655448 -92.70859707943848 0.9918384960655446 -92.70859707943849 0.03814535618235995 141.61157205845652
4800000000.0 0.03826648862438555 -145.23713948864756 0.9917969789595882 -94.74088399771864 0.9917969789595882 -94.74088399771864 0.03625331609080137 135.64157531230936
4900000000.0 0.0367079661717799 -143.12595971101703 0.9917447432898346 -96.77516080875851 0.9917447432898345 -96.77516080875851 0.03463218171904255 129.17278496296004
5000000000.0 0.035436534946174554 -140.62557619964716 0.9916817920626348 -98.811164121559 0.9916817920626351 -98.811164121559 0.033321695044315855 122.24866867447581
5100000000.0 0.03447971378117665 -137.80724029904832 0.991608302945999 -100.84862043787899 0.9916083029459988 -100.84862043787899 0.03235422396546573 114.953634458115
5200000000.0 0.03385485791030208 -134.772071927164 0.9915246126438997 -102.88724848718677 0.9915246126438996 -102.88724848718677 0.03175016782898183 107.41194147314296
5300000000.0 0.03356627015395868 -131.64275597849405 0.9914312160184896 -104.92676274836514 0.9914312160184898 -104.92676274836514 0.031514053378830634 99.77628686356842
5400000000.0 0.03360387618254647 -128.54926232886635 0.9913287532097508 -106.96687492423307 0.9913287532097506 -106.96687492423308 0.03163285492387835 92.20737547427599
5500000000.0 0.033943894210206445 -125.6123336571422 0.9912179948441491 -109.00729693271246 0.9912179948441494 -109.00729693271246 0.032077229924629275 84.85074575913316
5600000000.0 0.03455150485639613 -122.92968738337287 0.9910998296689947 -111.04774316691528 0.9910998296689946 -111.0477431669153 0.03280520103455876 77.81860207246406
5700000000.0 0.035384558555819 -120.56840486813925 0.9909752417409471 -113.08793372577641 0.9909752417409471 -113.0879337257764 0.03376728669387803 71.18163129502838
5800000000.0 0.03639753102865009 -118.56423621975875 0.9908452978742354 -115.12759590092259 0.9908452978742353 -115.12759590092259 0.03491140281072002 64.97062700088624
5900000000.0 0.03754485793241948 -116.92591200602891 0.9907111227443197 -117.16646749047658 0.9907111227443195 -117.16646749047658 0.036186830744995686 59.18444638859014
6000000000.0 0.038783344411741534 -115.64194171684133 0.9905738801206916 -119.20429633259458 0.9905738801206916 -119.20429633259458 0.03754667997164438 53.79994830023229
6100000000.0 0.04007358332667495 -114.68751177362059 0.9904347479017686 -121.24084577183777 0.990434747901769 -121.24084577183777 0.03894918358522042 48.78110593068962
6200000000.0 0.04138062573441773 -114.03029562523668 0.9902948992092929 -123.27589174227747 0.9902948992092931 -123.27589174227745 0.04035809301206901 44.08590932318986
6300000000.0 0.04267411693079732 -113.63474456968375 0.9901554809365516 -125.30922831983682 0.9901554809365514 -125.30922831983682 0.041742530652573585 39.671024541058905
6400000000.0 0.04392813097739948 -113.4648852621858 0.9900175888985507 -127.34066713447284 0.9900175888985511 -127.34066713447284 0.043076582690732466 35.494509346079866
6500000000.0 0.0451208533447049 -113.48603549574246 0.9898822500000563 -129.37003705148373 0.9898822500000563 -129.37003705148373 0.04433879344107275 31.517244441533364
6600000000.0 0.046234204752257 -113.66566257864598 0.989750406459726 -131.39718585173466 0.9897504064597259 -131.39718585173466 0.045511667477830295 27.703465005273
6700000000.0 0.047253486167503786 -113.97369420433728 0.9896228926290079 -133.42198097899373 0.9896228926290082 -133.42198097899373 0.04658122973223436 24.020796465103498
6800000000.0 0.04816704985343276 -114.38254027083788 0.9895004270738795 -135.44430911144454 0.9895004270738795 -135.44430911144454 0.047536639264269924 20.43999837500948
6900000000.0 0.04896603060527692 -114.86693011607801 0.9893835921805791 -137.46407510364372 0.9893835921805791 -137.46407510364372 0.04836988518649222 16.93461221872858
7000000000.0 0.04964411203404424 -115.40361352110061 0.9892728348519828 -139.48120356487507 0.9892728348519827 -139.48120356487507 0.04907555098808086 13.480513293406357
7100000000.0 0.05019735306430106 -115.97109427053064 0.9891684452291085 -141.49563635795874 0.9891684452291084 -141.49563635795874 0.04965061807724029 10.055532359568145
7200000000.0 0.05062404851860892 -116.54931647554866 0.9890705641243642 -143.5073326494441 0.9890705641243643 -143.5073326494441 0.05009433887619069 6.639070674734503
7300000000.0 0.05092461996355176 -117.11940004584643 0.9889791749933532 -145.51626829405683 0.9889791749933533 -145.51626829405683 0.050408129868868966 3.211766536689338
7400000000.0 0.05110155163898948 -117.66339951401602 0.988894103315682 -147.522434266526 0.9888941033156822 -147.522434266526 0.050595506119925325 -0.24475990592997068
7500000000.0 0.05115933053795597 -118.16411381378161 0.9888150271386695 -149.5258362136817 0.9888150271386698 -149.5258362136817 0.050662046681959276 -3.7481220293921704
7600000000.0 0.05110442047996821 -118.60495099844853 0.9887414764584395 -151.52649191793674 0.9887414764584395 -151.52649191793674 0.050615358010834645 -7.3152955990885395
7700000000.0 0.050945237030527425 -118.9698514332876 0.9886728464641773 -153.52443183565816 0.9886728464641773 -153.52443183565816 0.050465069565134565 -10.96268765915249
7800000000.0 0.050692135731082354 -119.2432834742251 0.9886084098749119 -155.51969523240587 0.9886084098749118 -155.51969523240587 0.05022281984126523 -14.706101153423509
7900000000.0 0.050357393542648426 -119.41033184999111 0.988547324036259 -157.51233274547545 0.9885473240362587 -157.51233274547542 0.049902240816366426 -18.560610174444555
8000000000.0 0.049955176753806486 -119.45688043667181 0.9884886559413587 -159.50240168023555 0.988488655941359 -159.50240168023555 0.049518917531553665 -22.540303901427237
8100000000.0 0.049501490853589 -119.36991708051121 0.9884313928473897 -161.48996610646572 0.9884313928473897 -161.48996610646572 0.04909032469970828 -26.657905912187235
8200000000.0 0.04901407647328883 -119.13797192001888 0.9883744622328335 -163.47509583683487 0.9883744622328338 -163.47509583683487 0.04863570026996836 -30.92424598712773
8300000000.0 0.04851226237228354 -118.75168536538109 0.9883167563426433 -165.45786561879103 0.9883167563426428 -165.45786561879103 0.048175849360592785 -35.34757955011855
8400000000.0 0.048016727371699514 -118.204513812375 0.9882571437920701 -167.43835429352268 0.9882571437920701 -167.43835429352268 0.0477328526526709 -39.93280396792526
8500000000.0 0.04754916778625644 -117.49352596447658 0.9881945004859549 -169.41664254552467 0.9881945004859546 -169.41664254552467 0.047329658083835345 -44.68057010789484
8600000000.0 0.047131844704651066 -116.62024890147292 0.9881277203598953 -171.39281427542124 0.9881277203598955 -171.39281427542124 0.04698953315684579 -49.58643848168889
8700000000.0 0.04678700352428279 -115.59144232030563 0.9880557432606718 -173.36695570306773 0.988055743260672 -173.36695570306773 0.04673538601973408 -54.64014266520612
8800000000.0 0.04653617939564738 -114.4196889973868 0.9879775729458099 -175.33915255544494 0.9879775729458099 -175.33915255544494 0.046588970186267495 -59.825161498817515
8900000000.0 0.04639939804005011 -113.12364476702496 0.9878922890107261 -177.30949394420315 0.9878922890107259 -177.30949394420318 0.04657000277583343 -65.11875211931238
9000000000.0 0.046394337656844684 -111.72780335083857 0.9877990719041834 -179.27806895520064 0.9877990719041838 -179.27806895520064 0.04669528349245579 -70.49253374797634
9100000000.0 0.04653551588884641 -110.26168906952718 0.9876972124832463 178.75503246510561 0.987697212483246 178.75503246510561 0.046977889723842696 -75.91370847771346
9200000000.0 0.04683359861303989 -108.75848544008774 0.9875861261995845 176.78971830307933 0.9875861261995842 176.78971830307933 0.047426546393200805 -81.34681789985768
9300000000.0 0.04729489191503488 -107.25320567003965 0.9874653636295752 174.82589585025326 0.9874653636295752 174.82589585025326 0.04804523841716124 -86.75584768893683
9400000000.0 0.047921109946661 -105.78062993194293 0.9873346162953655 172.8634700141719 0.9873346162953651 172.86347001417187 0.048833141447336186 -92.10640367676287
9500000000.0 0.04870942082206249 -104.37328314312364 0.9871937264099908 170.90234367945683 0.9871937264099907 170.90234367945683 0.049784838023694065 -97.36764900274419
9600000000.0 0.04965277238851054 -103.05971695853741 0.9870426810951294 168.9424174837962 0.9870426810951296 168.9424174837962 0.050890812877079465 -102.51378626508057
9700000000.0 0.0507404404626284 -101.86329938685277 0.9868816209503081 166.98358786303265 0.9868816209503078 166.98358786303265 0.05213811422953487 -107.52492190647031
9800000000.0 0.051958708000560794 -100.8015843412573 0.9867108281852836 165.02574855081022 0.9867108281852831 165.02574855081025 0.05351112160263355 -112.38733615142455
9900000000.0 0.053291628493986984 -99.88623702955232 0.9865307259961643 163.0687885099002 0.9865307259961643 163.0687885099002 0.05499234279873384 -117.09321133801433
10000000000.0 0.05472175776426735 -99.12341170013444 0.9863418664169019 161.11259228509536 0.9863418664169024 161.11259228509536 0.05656314494526232 -121.6400140638895
10100000000.0 0.05623084869710317 -98.51444092774088 0.9861449199839164 159.1570379268378 0.9861449199839162 159.15703792683777 0.058204413999970124 -126.02963760101376
10200000000.0 0.057800414151484174 -98.05666379586822 0.9859406654037673 157.20199987074437 0.9859406654037671 157.20199987074434 0.05989707359344703 -130.26749593690732
10300000000.0 0.059412222306925985 -97.74431288875228 0.9857299667595882 155.24734484846323 0.9857299667595882 155.24734484846323 0.06162252750644136 -134.36164166886834
10400000000.0 0.0610486513984463 -97.56932266639444 0.9855137625949362 153.2929342843839 0.9855137625949361 153.29293428438388 0.06336297658879668 -138.32197508111827
10500000000.0 0.06269297593999923 -97.52206698918374 0.9852930437920316 151.33862292668653 0.9852930437920322 151.33862292668653 0.06510165266960787 -142.15958362643494
10600000000.0 0.06432954989173234 -97.59194272787234 0.9850688369781716 149.38425949158815 0.9850688369781718 149.38425949158815 0.06682297563614055 -145.88622661163524
10700000000.0 0.06594394231131062 -97.76785011772675 0.9848421834670845 147.4296862764183 0.9848421834670845 147.4296862764183 0.06851266347537936 -149.51391886770887
10800000000.0 0.06752301800812886 -98.0385485326793 0.9846141164037376 145.4747394742215 0.9846141164037379 145.4747394742215 0.0701577973117747 -153.0546513655516
10900000000.0 0.06905496796502993 -98.39290903966386 0.984385648722927 143.51925038193968 0.9843856487229269 143.5192503819397 0.07174684649118374 -156.52017610178606
11000000000.0 0.07052933556343714 -98.82010108764675 0.9841577467204832 141.56304521127961 0.9841577467204831 141.56304521127961 0.07326969125830783 -159.92187210454927
11100000000.0 0.0719370030072382 -99.30970317833483 0.9839313164114992 139.60594576561928 0.9839313164114991 139.60594576561928 0.0747176085135023 -163.27066163291235
11200000000.0 0.07327017890691434 -99.85177317145862 0.9837071878748385 137.64777122360542 0.9837071878748381 137.64777122360542 0.07608326453824307 -166.57695863418365
11300000000.0 0.07452236801982327 -100.43687956119011 0.9834861010634229 135.6883381415777 0.9834861010634229 135.68833814157767 0.07736068823979064 -169.85064642584675
11400000000.0 0.0756883391342197 -101.05611234400857 0.9832686932184587 133.72746202372082 0.9832686932184587 133.7274620237208 0.07854524295181146 -173.10107488608458
11500000000.0 0.07676408893535484 -101.70107173970582 0.9830554924167889 131.76495866613692 0.9830554924167887 131.76495866613692 0.07963359001194022 -176.33705820805326
11600000000.0 0.07774680734914574 -102.36385189259576 0.982846909211384 129.8006454066242 0.982846909211384 129.80064540662417 0.08062365153974375 -179.56688334697176
11700000000.0 0.07863486620755444 -103.0370169008928 0.9826432335589521 127.8343416615012 0.9826432335589521 127.8343416615012 0.08151458845781287 177.20167958449403
