! Created Sun Feb 16 16:33:10 2025
! List of port names and net name(s): example Port n = <port_name> <net_name1> <net_name2> ...
! Port 1 = P1 P1  
! Port 2 = P2 P1  
# hz S ma R 50
! 2 Port Network Data from data block
! freq  magS11  angS11  magS21  angS21  magS12  angS12  magS22  angS22  
!     
                 0    0.000103174235        0.439279603        0.999896804    -9.15490785e-05        0.999896804    -9.15490785e-05     0.000103174234        0.439279526
         100000000     0.00527994217        -89.9365665        0.999307126         -4.2035974        0.999307126         -4.2035974      0.00528091343        -89.7734414
         200000000      0.0106923185        -95.6426411        0.998835127        -8.38213001        0.998835127        -8.38213001       0.0106950561         -95.318787
         300000000      0.0159995409        -100.517118        0.998371438        -12.5563766        0.998371438        -12.5563766       0.0160047139        -100.030019
         400000000      0.0211671769        -105.135851        0.997899172        -16.7277459        0.997899172        -16.7277459       0.0211753282        -104.482632
         500000000      0.0261652895        -109.645945        0.997418776        -20.8965235        0.997418776        -20.8965235       0.0261767573        -108.823467
         600000000      0.0309646293        -114.093738        0.996930212         -25.062719        0.996930212         -25.062719        0.030979583        -113.098555
         700000000      0.0355359249        -118.498813        0.996434002        -29.2262982        0.996434002        -29.2262982       0.0355544258        -117.327072
         800000000      0.0398501792        -122.871844        0.995931819        -33.3872546        0.995931819        -33.3872546       0.0398722322        -121.519163
         900000000       0.043879369        -127.219726        0.995426444        -37.5456218        0.995426444        -37.5456218       0.0439049654         -125.68109
             1e+09      0.0475970346        -131.547394        0.994921476        -41.7014722        0.994921476        -41.7014722       0.0476261844        -129.817049
           1.1e+09       0.050978691        -135.858606        0.994421027        -45.8549152        0.994421027        -45.8549152       0.0510114471        -133.929951
           1.2e+09      0.0540020999        -140.156348        0.993929438        -50.0060963        0.993929438        -50.0060963       0.0540385772        -138.021822
           1.3e+09      0.0566474531        -144.443084        0.993451037        -54.1551955        0.993451037        -54.1551955       0.0566878418        -142.094018
           1.4e+09      0.0588975034        -148.720903        0.992989942        -58.3024258        0.992989942        -58.3024258       0.0589420838        -146.147371
           1.5e+09      0.0607376536        -152.991641        0.992549892        -62.4480303        0.992549892        -62.4480303       0.0607868052        -150.182257
           1.6e+09      0.0621560242        -157.256961        0.992134118        -66.5922781        0.992134118        -66.5922781       0.0622102373        -154.198634
           1.7e+09      0.0631435025        -161.518408        0.991745235        -70.7354598        0.991745235        -70.7354598       0.0632033878        -158.196048
           1.8e+09      0.0636937721        -165.777464        0.991385169        -74.8778815        0.991385169        -74.8778815        0.063760076        -162.173596
           1.9e+09      0.0638033375         -170.03559        0.991055101        -79.0198593        0.991055101        -79.0198593       0.0638769576        -166.129879
             2e+09      0.0634715312         -174.29427        0.990755439        -83.1617121        0.990755439        -83.1617121        0.063553537        -170.062898
           2.1e+09      0.0627005153        -178.555048        0.990485812        -87.3037555        0.990485812        -87.3037555        0.062792176        -173.969915
           2.2e+09      0.0614952711         177.180408        0.990245083        -91.4462945        0.990245083        -91.4462945        0.061598092        -177.847249
           2.3e+09      0.0598635787         172.910249        0.990031389        -95.5896172        0.990031389        -95.5896172       0.0599793535         178.310015
           2.4e+09      0.0578159872         168.632336        0.989842189        -99.7339886        0.989842189        -99.7339886       0.0579468666         174.508455
           2.5e+09      0.0553657725          164.34411        0.989674344        -103.879645        0.989674344        -103.879645       0.0555143648         170.756938
           2.6e+09      0.0525288808         160.042377        0.989524198        -108.026789        0.989524198        -108.026789       0.0526983993         167.067571
           2.7e+09      0.0493238647         155.722974        0.989387683        -112.175584        0.989387683        -112.175584       0.0495183389         163.457193
           2.8e+09      0.0457717988         151.380236         0.98926043        -116.326154         0.98926043        -116.326154       0.0459964047         159.949778
           2.9e+09      0.0418961864         147.006074        0.989137891        -120.478579        0.989137891        -120.478579       0.0421577681         156.580496
             3e+09      0.0377228552         142.588321        0.989015463        -124.632895        0.989015463        -124.632895        0.038030787         153.402924
           3.1e+09      0.0332798486         138.107558        0.988888615        -128.789091        0.988888615        -128.789091       0.0336475465         150.502624
           3.2e+09      0.0285973338         133.530488        0.988753019        -132.947117        0.988753019        -132.947117       0.0290450936         148.024745
           3.3e+09      0.0237075843         128.794498        0.988604666        -137.106879        0.988604666        -137.106879       0.0242684046         146.235604
           3.4e+09      0.0186452143         123.765909        0.988439983        -141.268247        0.988439983        -141.268247       0.0193782763         145.677791
           3.5e+09      0.0134484375         118.098889        0.988255935        -145.431059        0.988255935        -145.431059       0.0144758759         147.627135
           3.6e+09     0.00816611462         110.541377        0.988050111        -149.595126        0.988050111        -149.595126      0.00979904619         155.712151
           3.7e+09     0.00294505404         90.8141686        0.987820795        -153.760236        0.987820795        -153.760236      0.00620196381        -178.601163
           3.8e+09     0.00297262404        -45.9522433        0.987567022        -157.926166        0.987567022        -157.926166      0.00623510689        -131.068398
           3.9e+09     0.00822055528         -65.506863        0.987288603        -162.092685        0.987288603        -162.092685      0.00988170234          -105.6728
             4e+09      0.0135523799        -73.0601902        0.986986133        -166.259561        0.986986133        -166.259561       0.0146130341        -97.6785509
           4.1e+09      0.0188219837        -78.7417269        0.986660984        -170.426572        0.986660984        -170.426572       0.0195885823        -95.7434235
           4.2e+09      0.0239791754        -83.7942649        0.986315265        -174.593512        0.986315265        -174.593512       0.0245720754        -96.2843391
           4.3e+09      0.0289838869        -88.5620196        0.985951765        -178.760197        0.985951765        -178.760197       0.0294612699        -98.0382783
           4.4e+09      0.0337992173        -93.1783882        0.985573875         177.073529        0.985573875         177.073529       0.0341933793        -100.466736
           4.5e+09      0.0383902185         -97.706107          0.9851855         172.907788          0.9851855         172.907788         0.03872091        -103.304625
           4.6e+09      0.0427236986        -102.178794        0.984790942         168.742661        0.984790942         168.742661       0.0430039045        -106.406863
           4.7e+09      0.0467682819        -106.616333        0.984394785          164.57819        0.984394785          164.57819        0.047007051        -109.687346
           4.8e+09      0.0504945439        -111.031486        0.984001764         160.414369        0.984001764         160.414369       0.0506985035        -113.091558
           4.9e+09      0.0538751692        -115.433086         0.98361663         156.251151         0.98361663         156.251151       0.0540493966        -116.583053
             5e+09      0.0568851025        -119.827706        0.983244014          152.08844        0.983244014          152.08844        0.057033664        -120.136261
           5.1e+09      0.0595016971        -124.220613        0.982888296         147.926097        0.982888296         147.926097       0.0596279922        -123.732389
           5.2e+09      0.0617048451        -128.616347        0.982553472         143.763944        0.982553472         143.763944       0.0618118481        -127.356972
           5.3e+09      0.0634771006        -133.019108        0.982243044         139.601765        0.982243044         139.601765       0.0635675338        -130.998299
           5.4e+09      0.0648037888        -137.433036        0.981959905         135.439311        0.981959905         135.439311       0.0648802549        -134.646356
           5.5e+09      0.0656731027        -141.862448        0.981706252         131.276311        0.981706252         131.276311       0.0657382022        -138.292055
           5.6e+09      0.0660761952        -146.312057        0.981483512         127.112471        0.981483512         127.112471        0.066132627        -141.926612
           5.7e+09      0.0660072574        -150.787214        0.981292286         122.947489        0.981292286         122.947489       0.0660579261        -145.540997
           5.8e+09       0.065463598        -155.294198        0.981132317         118.781058        0.981132317         118.781058       0.0655117247        -149.125371
           5.9e+09       0.064445714        -159.840582        0.981002476         114.612878        0.981002476         114.612878       0.0644949718        -152.668456
             6e+09       0.062957367        -164.435747        0.980900779         110.442663        0.980900779         110.442663       0.0630120447        -156.156748
           6.1e+09      0.0610056639        -169.091603        0.980824416         106.270145        0.980824416         106.270145       0.0610708823        -159.573456
           6.2e+09      0.0586011533        -173.823658        0.980769814         102.095092        0.980769814         102.095092       0.0586831573        -162.897015
           6.3e+09      0.0557579575        -178.652629        0.980732711         97.9173034        0.980732711         97.9173034       0.0558645251        -166.098886
           6.4e+09      0.0524939636         176.393016         0.98070826         93.7366257         0.98070826         93.7366257       0.0526350028         -169.14017
           6.5e+09      0.0488311334         171.272923        0.980691147         89.5529533        0.980691147         89.5529533       0.0490195778        -171.966206
           6.6e+09      0.0447960496         165.927825        0.980675723         85.3662342        0.980675723         85.3662342       0.0450492526        -174.497606
           6.7e+09      0.0404209161         160.266994        0.980656156         81.1764731        0.980656156         81.1764731       0.0407629156         -176.61469
           6.8e+09      0.0357455381         154.144489         0.98062658         76.9837325         0.98062658         76.9837325       0.0362108944        -178.129203
           6.9e+09      0.0308215106         147.310983        0.980581264         72.7881331        0.980581264         72.7881331       0.0314621175        -178.730362
             7e+09      0.0257218951         139.307675         0.98051477         68.5898524         0.98051477         68.5898524       0.0266195448        -177.877409
           7.1e+09      0.0205661646         129.210818        0.980422112         64.3891209        0.980422112         64.3891209       0.0218557564        -174.584085
           7.2e+09      0.0155933945         114.974381        0.980298906         60.1862184        0.980298906         60.1862184       0.0174979108        -167.047871
           7.3e+09      0.0113967946         92.0009639         0.98014151         55.9814669         0.98014151         55.9814669       0.0142043511        -152.600533
           7.4e+09     0.00944456671         55.0403725        0.979947136         51.7752238        0.979947136         51.7752238       0.0130538046         -130.94066
           7.5e+09      0.0111910658         16.8869803        0.979713955          47.567873        0.979713955          47.567873       0.0147024602        -109.859415
           7.6e+09      0.0154954274        -7.39297083        0.979441164         43.3598155        0.979441164         43.3598155       0.0184678158        -96.3265981
           7.7e+09      0.0208268112        -22.2614176        0.979129035         39.1514588        0.979129035         39.1514588       0.0233442116        -89.4186281
           7.8e+09      0.0265319017         -32.656972        0.978778926         34.9432068        0.978778926         34.9432068       0.0287314264        -86.5086224
           7.9e+09       0.032345802        -40.8120745        0.978393268         30.7354486        0.978393268         30.7354486       0.0343244145        -85.9062254
             8e+09      0.0381336881        -47.7259773        0.977975521          26.528548        0.977975521          26.528548       0.0399542965        -86.6913183
           8.1e+09        0.04380949        -53.8897478        0.977530092         22.3228337        0.977530092         22.3228337       0.0455133789        -88.3574239
           8.2e+09      0.0493085359        -59.5677205        0.977062237         18.1185897        0.977062237         18.1185897       0.0509236125        -90.6119418
           8.3e+09      0.0545771491        -64.9132901        0.976577933          13.916047        0.976577933          13.916047       0.0561228492        -93.2768824
           8.4e+09        0.05956827        -70.0210296        0.976083726         9.71537661        0.976083726         9.71537661       0.0610584809        -96.2388383
           8.5e+09      0.0642394816        -74.9521685        0.975586565         5.51668421        0.975586565         5.51668421       0.0656843358        -99.4226292
           8.6e+09      0.0685520929        -79.7479637        0.975093624         1.32000595        0.975093624         1.32000595       0.0699590998        -102.776747
           8.7e+09      0.0724707135        -84.4371383        0.974612111        -2.87469358        0.974612111        -2.87469358       0.0738455023        -106.264939
           8.8e+09      0.0759630749        -89.0402279        0.974149082        -7.06752194        0.974149082        -7.06752194        0.077309895        -109.861147
           8.9e+09      0.0789999733        -93.5722301        0.973711246        -11.2586572        0.973711246        -11.2586572       0.0803220392        -113.546352
             9e+09      0.0815552767        -98.0442667        0.973304786        -15.4483449        0.973304786        -15.4483449       0.0828550127        -117.306548
           9.1e+09      0.0836059604        -102.464656        0.972935186        -19.6368932        0.972935186        -19.6368932       0.0848851822        -121.131411
           9.2e+09      0.0851321633        -106.839611        0.972607074         -23.824666        0.972607074         -23.824666       0.0863922097        -125.013407
           9.3e+09      0.0861172439        -111.173698        0.972324081        -28.0120753        0.972324081        -28.0120753       0.0873590783        -128.947194
           9.4e+09      0.0865478446        -115.470121        0.972088724        -32.1995717        0.972088724        -32.1995717       0.0877721335        -132.929227
           9.5e+09      0.0864139537        -119.730886        0.971902317        -36.3876342        0.971902317        -36.3876342       0.0876211314        -136.957507
           9.6e+09      0.0857089687        -123.956859          0.9717649        -40.5767583          0.9717649        -40.5767583       0.0868992887        -141.031458
           9.7e+09      0.0844297615        -128.147732        0.971675204        -44.7674451        0.971675204        -44.7674451       0.0856033434        -145.151907
           9.8e+09      0.0825767444        -132.301891        0.971630645         -48.960188        0.971630645         -48.960188       0.0837336117        -149.321179
           9.9e+09      0.0801539371        -136.416147        0.971627347        -53.1554608        0.971627347        -53.1554608       0.0812940598        -153.543331
             1e+10      0.0771690401        -140.485302        0.971660197        -57.3537056        0.971660197        -57.3537056       0.0782923724        -157.824582
          1.01e+10      0.0736335127        -144.501449        0.971722936        -61.5553205        0.971722936        -61.5553205       0.0747400398        -162.174012
          1.02e+10      0.0695626661        -148.452847        0.971808273        -65.7606494        0.971808273        -65.7606494       0.0706524586        -166.604715
          1.03e+10      0.0649757854        -152.322073        0.971908035         -69.969971        0.971908035         -69.969971       0.0660490688        -171.135706
          1.04e+10       0.059896305         -156.08289        0.972013339         -74.183491        0.972013339         -74.183491       0.0609535586        -175.795163
          1.05e+10      0.0543521086        -159.694656        0.972114792        -78.4013345        0.972114792        -78.4013345       0.0553942137         179.373813
          1.06e+10      0.0483760915        -163.091752        0.972202711        -82.6235408        0.972202711        -82.6235408       0.0494045667         174.302375
          1.07e+10      0.0420073445         -166.16197        0.972267358          -86.85006        0.972267358          -86.85006       0.0430247467         168.874058
          1.08e+10      0.0352939017        -168.697847        0.972299187        -91.0807515        0.972299187        -91.0807515       0.0363045562         162.876291
          1.09e+10      0.0283000296        -170.271891        0.972289097        -95.3153856        0.972289097        -95.3153856        0.029311434         155.878978
           1.1e+10       0.021129342        -169.854411         0.97222868        -99.5536462         0.97222868        -99.5536462       0.0221548318         146.876241
          1.11e+10      0.0140213412        -164.311961        0.972110471        -103.795137        0.972110471        -103.795137       0.0150820112         132.969445
          1.12e+10     0.00795497294         -140.89841        0.971928173        -108.039389        0.971928173        -108.039389      0.00900774689         103.559174
          1.13e+10     0.00746425921        -82.3418829        0.971676866         -112.28587        0.971676866         -112.28587      0.00782339049          42.526707
          1.14e+10      0.0134180813        -54.3396776        0.971353193        -116.533998        0.971353193        -116.533998       0.0131884943         2.94494788
