! Created Sat Feb 15 11:44:24 2025
! List of port names and net name(s): example Port n = <port_name> <net_name1> <net_name2> ...
! Port 1 = P1 P1  
! Port 2 = P2 P1  
# hz S ma R 50
! 2 Port Network Data from data block
! freq  magS11  angS11  magS21  angS21  magS12  angS12  magS22  angS22  
!     
                 0    0.000110283148        0.438436843        0.999889714    -9.75741228e-05        0.999889714    -9.75741228e-05     0.000110283147         0.43843681
         100000000     0.00514269382        -89.7573026        0.999262832        -4.50875621        0.999262832        -4.50875621      0.00514283358        -89.7425441
         200000000      0.0104195154        -95.8178957        0.998761454        -8.99098436        0.998761454        -8.99098436       0.0104198653        -95.7890896
         300000000       0.015576559        -100.968513        0.998271051        -13.4688283        0.998271051        -13.4688283       0.0155771402        -100.925862
         400000000      0.0205751903        -105.841907        0.997774979         -17.943768        0.997774979         -17.943768       0.0205759994        -105.785824
         500000000      0.0253819693        -110.597363        0.997274321        -22.4160785        0.997274321        -22.4160785        0.025382976        -110.528478
         600000000      0.0299643418        -115.283956        0.996769201        -26.8857556        0.996769201        -26.8857556       0.0299654942        -115.203132
         700000000       0.034289832        -119.921889        0.996260152        -31.3527656        0.996260152        -31.3527656       0.0342910626        -119.830237
         800000000      0.0383264709        -124.521893        0.995748877        -35.8171187        0.995748877        -35.8171187       0.0383276988        -124.420792
         900000000      0.0420436412        -129.090722        0.995238213        -40.2788775        0.995238213        -40.2788775       0.0420447741        -128.981852
             1e+09      0.0454127858        -133.633026        0.994731818        -44.7381526        0.994731818        -44.7381526       0.0454137188        -133.518409
           1.1e+09      0.0484078974        -138.152137        0.994233822        -49.1950978        0.994233822        -49.1950978        0.048408512        -138.034194
           1.2e+09      0.0510058435        -142.650466        0.993748495        -53.6499069        0.993748495        -53.6499069       0.0510060062        -142.532081
           1.3e+09       0.053186589        -147.129719        0.993279981        -58.1028112        0.993279981        -58.1028112       0.0531861477        -147.014329
           1.4e+09      0.0549333467        -151.591027         0.99283207        -62.5540749         0.99283207        -62.5540749       0.0549321256        -151.482732
           1.5e+09      0.0562326826        -156.035015        0.992408019        -67.0039907        0.992408019        -67.0039907       0.0562304792        -155.938716
           1.6e+09      0.0570745968        -160.461831        0.992010415        -71.4528737        0.992010415        -71.4528737       0.0570711731        -160.383409
           1.7e+09      0.0574525697        -164.871125        0.991641077        -75.9010546        0.991641077        -75.9010546        0.057447644        -164.817674
           1.8e+09      0.0573635969        -169.261998        0.991300987        -80.3488723        0.991300987        -80.3488723       0.0573568312        -169.242127
           1.9e+09       0.056808203        -173.632897        0.990990262        -84.7966656        0.990990262        -84.7966656       0.0567991891        -173.657133
             2e+09      0.0557904416        -177.981447        0.990708149        -89.2447651        0.990708149        -89.2447651       0.0557786797        -178.062778
           2.1e+09      0.0543178822          177.69579        0.990453056        -93.6934854        0.990453056        -93.6934854       0.0543027533         177.541169
           2.2e+09       0.052401583         173.403705        0.990222605        -98.1431173        0.990222605        -98.1431173       0.0523823091         173.155345
           2.3e+09      0.0500560503         169.149214         0.99001371         -102.59392         0.99001371         -102.59392        0.050031641         168.780914
           2.4e+09      0.0472991935          164.94218        0.989822683        -107.046117        0.989822683        -107.046117       0.0472683617         164.419774
           2.5e+09      0.0441522708         160.796899        0.989645347        -111.499887        0.989645347        -111.499887       0.0441133119         160.074888
           2.6e+09      0.0406398477         156.734632        0.989477175        -115.955364        0.989477175        -115.955364        0.040590443         155.750853
           2.7e+09      0.0367897875         152.788128        0.989313439        -120.412631        0.989313439        -120.412631        0.036726683         151.454924
           2.8e+09      0.0326333417         149.010242        0.989149356        -124.871724        0.989149356        -124.871724        0.032551781          147.19897
           2.9e+09      0.0282054865         145.491712        0.988980249        -129.332625        0.988980249        -129.332625       0.0280981415         143.003554
             3e+09      0.0235459195         142.401799        0.988801698         -133.79527        0.988801698         -133.79527       0.0234006664         138.907375
           3.1e+09      0.0187020305         140.094998        0.988609683        -138.259549        0.988609683        -138.259549       0.0184966751         134.992691
           3.2e+09      0.0137390545         139.451969        0.988400725        -142.725314        0.988400725        -142.725314       0.0134261902         131.470414
           3.3e+09      0.0087862491         143.348683        0.988171992        -147.192379        0.988171992        -147.192379      0.00823434911         129.092826
           3.4e+09     0.00439674119         166.406459        0.987921408        -151.660535        0.987921408        -151.660535      0.00300257654         133.913333
           3.5e+09     0.00420935406        -121.433916        0.987647715        -156.129552        0.987647715        -156.129552      0.00254195042        -82.0126737
           3.6e+09     0.00855103646        -95.8811176        0.987350526         -160.59919        0.987350526         -160.59919      0.00780465553        -74.7844178
           3.7e+09       0.013581486        -91.5055219        0.987030342        -165.069209        0.987030342        -165.069209       0.0130882044        -76.9410849
           3.8e+09      0.0186769262        -92.0086822         0.98668854        -169.539374         0.98668854        -169.539374       0.0182958772        -80.3824563
           3.9e+09      0.0236978444        -94.2675513        0.986327336        -174.009472        0.986327336        -174.009472       0.0233794019        -84.2411254
             4e+09       0.028574173        -97.3459824        0.985949715        -178.479311        0.985949715        -178.479311       0.0282954912        -88.2838892
           4.1e+09      0.0332541514        -100.871987        0.985559338         177.051267        0.985559338         177.051267       0.0330029698        -92.4213937
           4.2e+09      0.0376933889        -104.669523        0.985160427          172.58238        0.985160427          172.58238       0.0374624708        -96.6117273
           4.3e+09      0.0418517467        -108.644898        0.984757631         168.114099        0.984757631         168.114099       0.0416365585        -100.832339
           4.4e+09      0.0456923444        -112.743921        0.984355874          163.64645        0.984355874          163.64645       0.0454899527        -105.069751
           4.5e+09      0.0491812699        -116.933309        0.983960194         159.179405        0.983960194         159.179405       0.0489897667        -109.315148
           4.6e+09      0.0522875569        -121.191729        0.983575581         154.712886        0.983575581         154.712886       0.0521057388        -113.562264
           4.7e+09      0.0549832663        -125.505134        0.983206808         150.246762        0.983206808         150.246762       0.0548104481        -117.806245
           4.8e+09      0.0572436058        -129.864173        0.982858274         145.780856        0.982858274         145.780856       0.0570795117        -122.042991
           4.9e+09      0.0590470618        -134.262696        0.982533851         141.314946        0.982533851         141.314946       0.0588917615        -126.268724
             5e+09      0.0603755253        -138.696863        0.982236748         136.848773        0.982236748         136.848773       0.0602294043        -130.479668
           5.1e+09      0.0612144116        -143.164618        0.981969397         132.382047        0.981969397         132.382047       0.0610781623        -134.671765
           5.2e+09      0.0615527666        -147.665387        0.981733352         127.914456        0.981733352         127.914456       0.0614274004        -138.840395
           5.3e+09      0.0613833616        -152.199958        0.981529225         123.445673        0.981529225         123.445673       0.0612702409        -142.980052
           5.4e+09      0.0607027738        -156.770491        0.981356644         118.975371        0.981356644         118.975371       0.0606036674        -147.083936
           5.5e+09      0.0595114584        -161.380684        0.981214236         114.503229        0.981214236         114.503229       0.0594286224          -151.1434
           5.6e+09      0.0578138068         -166.03611        0.981099649         110.028942        0.981099649         110.028942       0.0577501068        -155.147173
           5.7e+09      0.0556181979        -170.744812          0.9810096         105.552234          0.9810096         105.552234        0.055577286        -159.080201
           5.8e+09      0.0529370448        -175.518286        0.980939957         101.072866        0.980939957         101.072866       0.0529236246         -162.92189
           5.9e+09      0.0497868476         179.626882        0.980885839         96.5906447        0.980885839         96.5906447       0.0498070736        -166.643292
             6e+09      0.0461882698         174.666216        0.980841758         92.1054304        0.980841758         92.1054304       0.0462503739        -170.202439
           6.1e+09      0.0421662812         169.562373         0.98080177         87.6171424         0.98080177         87.6171424       0.0422815969        -173.536211
           6.2e+09       0.037750461         164.255763        0.980759655         83.1257642        0.980759655         83.1257642       0.0379351786        -176.545344
           6.3e+09       0.032975685         158.645527        0.980709103         78.6313457        0.980709103         78.6313457       0.0332540537        -179.064859
           6.4e+09      0.0278838041         152.547148        0.980643913         74.1340041        0.980643913         74.1340041       0.0282944422          179.19923
           6.5e+09      0.0225281579           145.5852        0.980558195         69.6339219        0.980558195         69.6339219       0.0231377314         178.819555
           6.6e+09      0.0169878169          136.87057        0.980446565         65.1313438        0.980446565         65.1313438       0.0179242676        -178.955799
           6.7e+09      0.0114257417         123.755067        0.980304332         60.6265709        0.980304332         60.6265709       0.0129667457        -171.052712
           6.8e+09     0.00644718514         95.3592661        0.980127665         56.1199532        0.980127665         56.1199532      0.00916710823        -150.100478
           6.9e+09      0.0052746797          27.410861        0.979913741         51.6118799        0.979913741         51.6118799      0.00866614217        -113.685122
             7e+09     0.00965719653        -14.3275176        0.979660859         47.1027691        0.979660859         47.1027691       0.0120508556        -87.8518456
           7.1e+09      0.0154728971        -30.8235695        0.979368523         42.5930552        0.979368523         42.5930552       0.0172008087        -77.4785415
           7.2e+09      0.0215700909        -40.6738478        0.979037488         38.0831767        0.979037488         38.0831767       0.0229342044        -74.1962891
           7.3e+09      0.0276998305        -48.1494182        0.978669767         33.5735623        0.978669767         33.5735623       0.0288433875        -74.0681377
           7.4e+09      0.0337548681        -54.5336069        0.978268595          29.064618        0.978268595          29.064618        0.034751248        -75.5320078
           7.5e+09      0.0396633948        -60.3303909        0.977838351          24.556714        0.977838351          24.556714       0.0405541241         -77.894156
           7.6e+09      0.0453663196        -65.7757121        0.977384453         20.0501728        0.977384453         20.0501728       0.0461768315        -80.8078344
           7.7e+09      0.0508107455        -70.9942174        0.976913202         15.5452582        0.976913202         15.5452582       0.0515575811         -84.082452
           7.8e+09      0.0559477938        -76.0578148        0.976431611          11.042166        0.976431611          11.042166       0.0566422146        -87.6051649
           7.9e+09       0.060731864        -81.0108745        0.975947194         6.54101683        0.975947194         6.54101683       0.0613818128         -91.305124
             8e+09      0.0651204354        -85.8822869        0.975467752         2.04185071        0.975467752         2.04185071       0.0657316702        -95.1357101
           8.1e+09       0.069074091        -90.6917229        0.975001133        -2.45537593        0.975001133        -2.45537593       0.0696508773        -99.0650606
           8.2e+09      0.0725566292        -95.4531047        0.974554996        -6.95079082        0.974554996        -6.95079082       0.0731021811        -103.070711
           8.3e+09      0.0755352096        -100.176633        0.974136572         -11.444604        0.974136572         -11.444604       0.0760519808        -107.136415
           8.4e+09      0.0779805043        -104.870026        0.973752432        -15.9371034        0.973752432        -15.9371034       0.0784703871        -111.250165
           8.5e+09      0.0798668432        -109.539301        0.973408281        -20.4286486        0.973408281        -20.4286486       0.0803313098        -115.402925
           8.6e+09      0.0811723497        -114.189288        0.973108753        -24.9196617        0.973108753        -24.9196617       0.0816125504        -119.587784
           8.7e+09      0.0818790655        -118.823973        0.972857252        -29.4106168        0.972857252        -29.4106168       0.0822959042        -123.799365
           8.8e+09      0.0819730629        -123.446735        0.972655813        -33.9020276        0.972655813        -33.9020276       0.0823672517        -128.033412
           8.9e+09       0.081444548        -128.060512        0.972504999        -38.3944337        0.972504999        -38.3944337       0.0818166508        -132.286474
             9e+09      0.0802879564        -132.667926         0.97240384        -42.8883857         0.97240384        -42.8883857       0.0806384203        -136.555665
           9.1e+09      0.0785020368        -137.271384        0.972349807        -47.3844298        0.972349807        -47.3844298       0.0788312202        -140.838458
           9.2e+09      0.0760899288        -141.873163        0.972338835        -51.8830921        0.972338835        -51.8830921       0.0763981223        -145.132497
           9.3e+09       0.073059228        -146.475496        0.972365387         -56.384863        0.972365387         -56.384863       0.0733466732         -149.43541
           9.4e+09      0.0694220376        -151.080687        0.972422557        -60.8901823        0.972422557        -60.8901823       0.0696889431        -153.744581
           9.5e+09      0.0651950043        -155.691261        0.972502221        -65.3994249        0.972502221        -65.3994249       0.0654415605        -158.056859
           9.6e+09      0.0603993292        -160.310208        0.972595228        -69.9128884        0.972595228        -69.9128884       0.0606257248        -162.368108
           9.7e+09       0.055060758        -164.941407        0.972691623        -74.4307827        0.972691623        -74.4307827       0.0552671972        -166.672462
           9.8e+09      0.0492095322         -169.59042        0.972780908        -78.9532208        0.972780908        -78.9532208       0.0493962586        -170.960958
           9.9e+09      0.0428803108        -174.266123        0.972852323        -83.4802132        0.972852323        -83.4802132        0.043047643        -175.218768
             1e+10       0.036112053        -178.984411        0.972895155        -88.0116647        0.972895155        -88.0116647       0.0362604522        -179.418916
          1.01e+10      0.0289478796         176.222044        0.972899051        -92.5473739        0.972899051        -92.5473739       0.0290780975         176.494177
          1.02e+10      0.0214349793         171.272206        0.972854333        -97.0870367        0.972854333        -97.0870367       0.0215484678         172.657872
          1.03e+10      0.0136249598         165.892171        0.972752312        -101.630252        0.972752312        -101.630252        0.013725477         169.533369
          1.04e+10     0.00557982445         158.195601        0.972585576         -106.17653        0.972585576         -106.17653      0.00568651837         170.240979
          1.05e+10     0.00273909865        -10.4588215        0.972348258        -110.725308        0.972348258        -110.725308      0.00278588514        -41.1629967
          1.06e+10      0.0110811258        -23.1463721        0.972036256        -115.275959        0.972036256        -115.275959       0.0110778914        -31.9560583
          1.07e+10      0.0195236328        -28.8950201         0.97164742        -119.827816         0.97164742        -119.827816       0.0195289767        -34.4731912
          1.08e+10      0.0279766471        -33.9577154        0.971181672        -124.380185        0.971181672        -124.380185       0.0279960061        -38.1699123
          1.09e+10      0.0363751794        -38.8109874        0.970641079        -128.932368        0.970641079        -128.932368       0.0364098509        -42.2291296
           1.1e+10      0.0446555713        -43.5732731        0.970029854        -133.483684        0.970029854        -133.483684       0.0447057702        -46.4468491
          1.11e+10      0.0527547959         -48.287954        0.969354302        -138.033488        0.969354302        -138.033488       0.0528202915        -50.7475896
          1.12e+10       0.060610781        -52.9746363        0.968622696        -142.581193        0.968622696        -142.581193       0.0606910919        -55.0966781
          1.13e+10      0.0681628743        -57.6434919        0.967845097        -147.126288        0.967845097        -147.126288       0.0682573444        -59.4757723
          1.14e+10      0.0753523221        -62.3003877        0.967033122        -151.668359        0.967033122        -151.668359       0.0754601519        -63.8741437
