! Created Sat Feb 15 11:44:36 2025
! List of port names and net name(s): example Port n = <port_name> <net_name1> <net_name2> ...
! Port 1 = P1 P1  
! Port 2 = P2 P1  
# hz S ma R 50
! 2 Port Network Data from data block
! freq  magS11  angS11  magS21  angS21  magS12  angS12  magS22  angS22  
!     
                 0    0.000122089179        0.431643408        0.999877894    -0.000107606113        0.999877894    -0.000107606113     0.000122089179        0.431643385
         100000000     0.00577108197         -90.274851        0.999172293        -5.02247953        0.999172293        -5.02247953      0.00577100403        -90.2383882
         200000000      0.0116806579        -96.8231339        0.998598264        -10.0154441        0.998598264        -10.0154441       0.0116802834         -96.748271
         300000000      0.0174345764        -102.477596        0.998031224        -15.0036247        0.998031224        -15.0036247       0.0174337745        -102.363117
         400000000       0.022982202        -107.863724        0.997455493        -19.9885727        0.997455493        -19.9885727       0.0229808515        -107.708414
         500000000      0.0282799744        -113.137134        0.996874224        -24.9704749        0.996874224        -24.9704749       0.0282779462        -112.939665
         600000000      0.0332858317        -118.344579        0.996288912        -29.9492403        0.996288912        -29.9492403       0.0332829945        -118.103441
         700000000      0.0379582709        -123.504954        0.995701319        -34.9247869        0.995701319        -34.9247869       0.0379545028        -123.218392
         800000000      0.0422570285        -128.628385        0.995114505          -39.89712        0.995114505          -39.89712       0.0422522252        -128.294336
         900000000      0.0461442364        -133.721472        0.994532771        -44.8663335        0.994532771        -44.8663335       0.0461383204        -133.337502
             1e+09      0.0495853673        -138.788982        0.993961256        -49.8325995        0.993961256        -49.8325995       0.0495782903         -138.35222
           1.1e+09      0.0525498844        -143.834548        0.993405451        -54.7961581        0.993405451        -54.7961581       0.0525416338        -143.341607
           1.2e+09      0.0550116733         -148.86101        0.992870765        -59.7573094        0.992870765        -59.7573094       0.0550022764        -148.307891
           1.3e+09      0.0569493199        -153.870606        0.992362153        -64.7164048        0.992362153        -64.7164048       0.0569388483        -153.252581
           1.4e+09      0.0583462981        -158.865101        0.991883828        -69.6738387        0.991883828        -69.6738387       0.0583348739        -158.176555
           1.5e+09      0.0591910846        -163.845851        0.991439035        -74.6300372        0.991439035        -74.6300372       0.0591788883        -163.080089
           1.6e+09      0.0594772318        -168.813846        0.991029897        -79.5854468        0.991029897        -79.5854468       0.0594645104         -167.96283
           1.7e+09      0.0592033935        -173.769708        0.990657323        -84.5405215        0.990657323        -84.5405215       0.0591904748        -172.823716
           1.8e+09      0.0583733229        -178.713664        0.990320971        -89.4957101        0.990320971        -89.4957101       0.0583606332        -177.660825
           1.9e+09      0.0569958394         176.354514         0.99001927        -94.4514427         0.99001927        -94.4514427       0.0569839257         177.528865
             2e+09      0.0550847615         171.435629        0.989749483        -99.4081184        0.989749483        -99.4081184       0.0550743252         172.749849
           2.1e+09       0.052658813         166.531236        0.989507826        -104.366094        0.989507826        -104.366094       0.0526507588         168.008679
           2.2e+09      0.0497414954         161.643946        0.989289618        -109.325672        0.989289618        -109.325672       0.0497370038         163.314889
           2.3e+09      0.0463609266         156.777916        0.989089467        -114.287097        0.989089467        -114.287097       0.0463615621         158.682535
           2.4e+09      0.0425496448         151.939705        0.988901484        -119.250543        0.988901484        -119.250543       0.0425575338         154.132816
           2.5e+09      0.0383443742          147.13984        0.988719511        -124.216114        0.988719511        -124.216114       0.0383625036         149.698876
           2.6e+09      0.0337857676         142.395858        0.988537365        -129.183844        0.988537365        -129.183844       0.0338185139         145.435108
           2.7e+09       0.028918128         137.738823        0.988349072        -134.153692        0.988349072        -134.153692       0.0289722932          141.43689
           2.8e+09      0.0237891736         133.228907        0.988149106        -139.125554        0.988149106        -139.125554       0.0238761997         137.887336
           2.9e+09      0.0184500164         128.999336        0.987932603        -144.099263        0.987932603        -144.099263       0.0185914931          135.18644
             3e+09      0.0129561331         125.414618        0.987695548        -149.074602        0.987695548        -149.074602        0.013200797         134.397424
           3.1e+09     0.00737489407         123.951543        0.987434935        -154.051311        0.987434935        -154.051311      0.00787395025          139.45365
           3.2e+09     0.00193751865         143.238031         0.98714888        -159.029103         0.98714888        -159.029103      0.00355078351         175.048323
           3.3e+09     0.00415332504        -88.4538945        0.986836699        -164.007676        0.986836699        -164.007676      0.00523092895        -112.192576
           3.4e+09     0.00967691051         -85.104136        0.986498926        -168.986725        0.986498926        -168.986725       0.0102473045         -97.537101
           3.5e+09      0.0151397869        -87.8250341        0.986137291        -173.965958        0.986137291        -173.965958       0.0155499868        -96.1109272
           3.6e+09      0.0204427121        -91.7451545         0.98575465         -178.94511         0.98575465         -178.94511       0.0207766173        -97.9929318
           3.7e+09       0.025525637        -96.1011915        0.985354863         176.076048        0.985354863         176.076048       0.0258151887        -101.149331
           3.8e+09      0.0303353962        -100.662494        0.984942641         171.097695        0.984942641         171.097695       0.0305959342         -104.92392
           3.9e+09      0.0348226108        -105.335392        0.984523346         166.119951        0.984523346         166.119951        0.035062577        -109.043113
             4e+09      0.0389413461         -110.07454        0.984102779         161.142874        0.984102779         161.142874       0.0391658113        -113.372928
           4.1e+09      0.0426492866        -114.855217        0.983686941         156.166453        0.983686941         156.166453       0.0428614771        -117.840069
           4.2e+09      0.0459080242        -119.662694        0.983281783         151.190607        0.983281783         151.190607       0.0461100723        -122.401041
           4.3e+09      0.0486833586        -124.487544        0.982892968         146.215189        0.982892968         146.215189       0.0488767043        -127.028352
           4.4e+09      0.0509455786        -129.323325         0.98252563         141.239988         0.98252563         141.239988       0.0511312014        -131.703704
           4.5e+09      0.0526697132         -134.16533        0.982184162         136.264739        0.982184162         136.264739       0.0528482728        -136.414343
           4.6e+09      0.0538357478        -139.009844        0.981872027         131.289127        0.981872027         131.289127       0.0540076732        -141.150976
           4.7e+09      0.0544288074        -143.853655        0.981591604         126.312807        0.981591604         126.312807       0.0545943538        -145.906487
           4.8e+09      0.0544393048        -148.693685        0.981344069         121.335409        0.981344069         121.335409        0.054598593        -150.675089
           4.9e+09      0.0538630576        -153.526658        0.981129335         116.356556        0.981129335         116.356556       0.0540160973        -155.451716
             5e+09      0.0527013717        -158.348742        0.980946025         111.375879        0.980946025         111.375879       0.0528480779        -160.231506
           5.1e+09      0.0509610917        -163.155097        0.980791498         106.393031        0.980791498         106.393031       0.0511012899        -165.009301
           5.2e+09       0.048654622        -167.939237        0.980661936         101.407702        0.980661936         101.407702       0.0487880464         -169.77905
           5.3e+09       0.045799911        -172.692013        0.980552461         96.4196316        0.980552461         96.4196316       0.0459261929        -174.532977
           5.4e+09      0.0424204095        -177.399916        0.980457309         91.4286218        0.980457309         91.4286218       0.0425390491        -179.260252
           5.5e+09       0.038545005         177.958017        0.980370039          86.434546        0.980370039          86.434546       0.0386553191          176.05534
           5.6e+09      0.0342079592         173.416269        0.980283772         81.4373566        0.980283772         81.4373566       0.0343089779         171.439943
           5.7e+09      0.0294489165         169.035931        0.980191457         76.4370891        0.980191457         76.4370891       0.0295391772         166.939355
           5.8e+09      0.0243131914         164.936591        0.980086149         71.4338633        0.980086149         71.4338633        0.024390275         162.642716
           5.9e+09      0.0188530721         161.388429        0.979961294         66.4278811        0.979961294         66.4278811        0.018912405         158.750969
             6e+09      0.0131336081         159.156587        0.979810998         61.4194215        0.979810998         61.4194215       0.0131645023         155.833947
           6.1e+09     0.00726940557         161.542261        0.979630288         56.4088314        0.979630288         56.4088314       0.0072347036          156.38142
           6.2e+09     0.00218943017        -151.446529         0.97941533         51.3965148         0.97941533         51.3965148      0.00176413238        -161.355614
           6.3e+09     0.00582964318        -65.0107564        0.979163621         46.3829179        0.979163621         46.3829179      0.00559333406         -61.354264
           6.4e+09       0.011962946         -59.339842        0.978874118         41.3685138        0.978874118         41.3685138       0.0118141586        -57.9470502
           6.5e+09       0.018213595        -60.9181709        0.978547321         36.3537842        0.978547321         36.3537842       0.0180984546        -60.3326921
           6.6e+09      0.0244175737        -64.2383579        0.978185287         31.3392014        0.978185287         31.3392014       0.0243228349        -64.0573017
           6.7e+09      0.0304925998        -68.2363043         0.97779159         26.3252095         0.97779159         26.3252095       0.0304131228         -68.298695
           6.8e+09      0.0363701235        -72.5661781        0.977371214         21.3122067        0.977371214         21.3122067       0.0363034188         -72.793177
           6.9e+09      0.0419866343        -77.0820704        0.976930385         16.3005288        0.976930385         16.3005288       0.0419313263        -77.4302259
             7e+09      0.0472820086        -81.7117132        0.976476357         11.2904348        0.976476357         11.2904348       0.0472372655         -82.155368
           7.1e+09      0.0521993465        -86.4151628        0.976017148         6.28209481        0.976017148         6.28209481       0.0521646302        -86.9386758
           7.2e+09        0.05668521        -91.1685039        0.975561242         1.27558153        0.975561242         1.27558153       0.0566601513        -91.7624018
           7.3e+09      0.0606899807        -95.9565123        0.975117274          -3.729135        0.975117274          -3.729135       0.0606743085        -96.6154414
           7.4e+09      0.0641682259        -100.769009        0.974693687        -8.73218909        0.974693687        -8.73218909       0.0641617313        -101.490593
           7.5e+09      0.0670790589        -105.598898        0.974298409         -13.733817        0.974298409         -13.733817       0.0670815659        -106.383099
           7.6e+09      0.0693864579        -110.441032        0.973938532        -18.7343507        0.973938532        -18.7343507       0.0693978069        -111.289813
           7.7e+09      0.0710595566         -115.29151         0.97362001        -23.7342087         0.97362001        -23.7342087       0.0710795941        -116.208709
           7.8e+09      0.0720728997        -120.147211        0.973347404        -28.7338823        0.973347404        -28.7338823       0.0721014647         -121.13857
           7.9e+09      0.0724066662        -125.005446        0.973123662        -33.7339201        0.973123662        -33.7339201       0.0724435834        -126.078798
             8e+09      0.0720468653        -129.863681        0.972949954        -38.7349094        0.972949954        -38.7349094       0.0720919347        -131.029287
           8.1e+09      0.0709855079        -134.719266        0.972825571        -43.7374562        0.972825571        -43.7374562       0.0710384933        -135.990363
           8.2e+09       0.069220753         -139.56913        0.972747873        -48.7421632        0.972747873        -48.7421632       0.0692813697        -140.962753
           8.3e+09      0.0667570279        -144.409408        0.972712325        -53.7496085        0.972712325        -53.7496085       0.0668249251        -145.947625
           8.4e+09      0.0636051322        -149.234896        0.972712587        -58.7603236        0.972712587        -58.7603236       0.0636798639        -150.946686
           8.5e+09      0.0597823025        -154.038216        0.972740677        -63.7747729        0.972740677        -63.7747729       0.0598632916         -155.96239
           8.6e+09      0.0553122603          -158.8084        0.972787205        -68.7933347        0.972787205        -68.7933347       0.0553987354        -160.998357
           8.7e+09      0.0502252302        -163.528347        0.972841654        -73.8162852        0.972841654        -73.8162852       0.0503161207        -166.060156
           8.8e+09      0.0445579504         -168.16982        0.972892732        -78.8437853        0.972892732        -78.8437853       0.0446516981        -171.156908
           8.9e+09      0.0383537299        -172.682655        0.972928755        -83.8758714        0.972928755        -83.8758714       0.0384479166        -176.304778
             9e+09      0.0316627288        -176.968412        0.972938064        -88.9124507        0.972938064        -88.9124507       0.0317532569         178.464434
           9.1e+09      0.0245431204         179.196064        0.972909463        -93.9533008        0.972909463        -93.9533008       0.0246220893         173.078356
           9.2e+09      0.0170662265         176.447034        0.972832652        -98.9980746        0.972832652        -98.9980746       0.0171148791          167.32947
           9.3e+09     0.00934997333         177.586258        0.972698651         -104.04631        0.972698651         -104.04631      0.00930139357         160.288423
           9.4e+09     0.00240067049        -135.842803         0.97250018        -109.097446         0.97250018        -109.097446      0.00139896497         128.864417
           9.5e+09     0.00756048117        -42.6041104        0.972231999        -114.150837        0.972231999        -114.150837      0.00708162547        -19.5407767
           9.6e+09      0.0157451523        -38.8257845        0.971891178         -119.20578        0.971891178         -119.20578       0.0154084414        -27.7168106
           9.7e+09      0.0240689662        -41.0768577         0.97147728         -124.26154         0.97147728         -124.26154       0.0237721006        -33.6911923
           9.8e+09      0.0323647128         -44.754117         0.97099246        -129.317375         0.97099246        -129.317375       0.0320837945        -39.1768425
           9.9e+09      0.0405371693        -48.9854947        0.970441474        -134.372566        0.970441474        -134.372566       0.0402630664        -44.4762157
             1e+10       0.048502739        -53.4885438        0.969831571        -139.426447        0.969831571        -139.426447       0.0482310965        -49.6848409
          1.01e+10      0.0561820944         -58.144151        0.969172302        -144.478431        0.969172302        -144.478431       0.0559105724        -54.8422812
          1.02e+10      0.0634989845        -62.8932957        0.968475237        -149.528035        0.968475237        -149.528035       0.0632262384        -59.9678487
          1.03e+10      0.0703803253        -67.7033661        0.967753595        -154.574904        0.967753595        -154.574904       0.0701055637        -65.0721361
          1.04e+10      0.0767566187        -72.5548873        0.967021811        -159.618828        0.967021811        -159.618828       0.0764793857        -70.1615465
          1.05e+10      0.0825624442         -77.435561        0.966295048        -164.659753        0.966295048        -164.659753       0.0822825012        -75.2403253
          1.06e+10      0.0877369387        -82.3373084        0.965588686        -169.697791        0.965588686        -169.697791       0.0874541961        -80.3115685
          1.07e+10      0.0922242306        -87.2546801        0.964917775        -174.733222        0.964917775        -174.733222       0.0919387114        -85.3777693
          1.08e+10       0.095973826        -92.1839472        0.964296511        -179.766486        0.964296511        -179.766486       0.0956856387        -90.4411275
          1.09e+10       0.098940944        -97.1225391        0.963737709         175.201821        0.963737709         175.201821       0.0986502738        -95.5037388
           1.1e+10       0.101086808        -102.068677        0.963252333         170.170965        0.963252333         170.170965         0.10079391        -100.567717
          1.11e+10       0.102378913        -107.021114        0.962849056         165.140098        0.962849056         165.140098        0.102084112         -105.63528
          1.12e+10       0.102791262        -111.978936        0.962533896         160.108278        0.962533896         160.108278        0.102494953        -110.708822
          1.13e+10       0.102304602        -116.941388        0.962309919           155.0745        0.962309919           155.0745         0.10200726        -115.790989
          1.14e+10       0.100906646        -121.907705        0.962177028         150.037731        0.962177028         150.037731        0.100608833        -120.884765
