! Created Sat Feb 15 09:35:58 2025
! List of port names and net name(s): example Port n = <port_name> <net_name1> <net_name2> ...
! Port 1 = P1 P1  
! Port 2 = P2 P1  
# hz S ma R 50
! 2 Port Network Data from data block
! freq  magS11  angS11  magS21  angS21  magS12  angS12  magS22  angS22  
!     
                 0    0.000192939012        0.412615534        0.999807039    -0.000173361029        0.999807039    -0.000173361029     0.000192939014        0.412615903
         100000000      0.0156626516        -95.2082393        0.998511195        -8.22922612        0.998511195        -8.22922612        0.015658156        -95.4518429
         200000000      0.0312929174        -104.168966        0.997241036        -16.4056251        0.997241036        -16.4056251       0.0312797048        -104.653297
         300000000      0.0461458266        -112.578212        0.995812913        -24.5673905        0.995812913        -24.5673905       0.0461202573        -113.312484
         400000000      0.0599125749        -120.802024        0.994250708         -32.714629        0.994250708         -32.714629       0.0598711076        -121.800484
         500000000      0.0723230564         -128.92989        0.992620454        -40.8459697        0.992620454        -40.8459697       0.0722623737        -130.212298
         600000000      0.0831403971        -136.985277        0.990989819         -48.960614        0.990989819         -48.960614       0.0830572236        -138.577864
         700000000        0.09216213        -144.974773        0.989425562        -57.0589073        0.989425562        -57.0589073       0.0920530018        -146.911689
         800000000      0.0992230117         -152.89956        0.987990016        -65.1424247        0.987990016        -65.1424247       0.0990840605        -155.224933
         900000000       0.104197703        -160.758013        0.986736364        -73.2138246        0.986736364        -73.2138246        0.104024441        -163.528851
             1e+09       0.107002403        -168.545703        0.985704221        -81.2766032        0.985704221        -81.2766032        0.106789471        -171.836077
           1.1e+09       0.107595588        -176.254271        0.984916323        -89.3347981        0.984916323        -89.3347981        0.107336423         179.838505
           1.2e+09       0.105978307         176.130686        0.984376677        -97.3926635        0.984376677        -97.3926635        0.105664674         171.476682
           1.3e+09       0.102194441         168.633186         0.98407026        -105.454341         0.98407026        -105.454341        0.101815708         163.055069
           1.4e+09       0.096331159         161.292982        0.983964222        -113.523545        0.983964222        -113.523545       0.0958731174         154.541686
           1.5e+09      0.0885198709          154.17681        0.984010519        -121.603281        0.984010519        -121.603281       0.0879627006         145.889258
           1.6e+09      0.0789381841         147.400793        0.984149755        -129.695624        0.984149755        -129.695624       0.0782526797         137.021208
           1.7e+09      0.0678146259          141.17973        0.984315998        -137.801564        0.984315998        -137.801564        0.066954582         127.799673
           1.8e+09      0.0554418931         135.950095        0.984442214        -145.920947        0.984442214        -145.920947       0.0543269092         117.942308
           1.9e+09      0.0422207231         132.731789        0.984465896        -154.052497        0.984465896        -154.052497       0.0406909835          106.76049
             2e+09      0.0288400405         134.449889        0.984334396        -162.193942        0.984334396        -162.193942       0.0265110166         92.0488556
           2.1e+09      0.0172779525         151.648142        0.984009479        -170.342228        0.984009479        -170.342228       0.0130440616         62.3149343
           2.2e+09      0.0149637101        -160.340249         0.98347061        -178.493787         0.98347061        -178.493787      0.00994199004        -28.2512471
           2.3e+09      0.0246777675        -133.311226        0.982716652         173.355133        0.982716652         173.355133       0.0221375083        -71.6610028
           2.4e+09      0.0376174953        -128.548496         0.98176579         165.208136         0.98176579         165.208136       0.0361259204        -88.6174296
           2.5e+09      0.0506708093        -130.698997        0.980653684         157.068361        0.980653684         157.068361       0.0496898585         -100.42122
           2.6e+09      0.0629513812        -135.458729        0.979430083         148.938205        0.979430083         148.938205       0.0622761074        -110.473605
           2.7e+09      0.0740156212        -141.440801         0.97815426         140.819131         0.97815426         140.819131       0.0735500158        -119.717392
           2.8e+09      0.0835622195        -148.084415        0.976889744         132.711542        0.976889744         132.711542       0.0832544915        -128.511477
           2.9e+09      0.0913648003        -155.123831        0.975698865          124.61477        0.975698865          124.61477        0.091184267        -137.020496
             3e+09      0.0972523875        -162.418791        0.974637564         116.527137        0.974637564         116.527137       0.0971797385        -145.329375
           3.1e+09       0.101102506        -169.889659          0.9737509         108.446112          0.9737509         108.446112        0.101125202        -153.484866
           3.2e+09       0.102838218        -177.488987        0.973069559         100.368529        0.973069559         100.368529        0.102948165        -161.512609
           3.3e+09       0.102426573         174.812335        0.972607554         92.2908516        0.972607554         92.2908516        0.102618959        -169.424317
           3.4e+09      0.0998776282         167.032445         0.97236127         84.2094677         0.97236127         84.2094677        0.100150458        -177.220129
           3.5e+09      0.0952437571         159.182668        0.972309868         76.1209864        0.972309868         76.1209864       0.0955979346         175.112305
           3.6e+09      0.0886189741         151.269956        0.972417025          68.022517        0.972417025          68.022517       0.0890590274         167.602252
           3.7e+09      0.0801380819         143.298225        0.972633902         59.9119084        0.972633902         59.9119084       0.0806738704          160.30616
           3.8e+09      0.0699752976         135.268751        0.972903127         51.7879295        0.972903127         51.7879295       0.0706256922         153.330519
           3.9e+09      0.0583420863          127.17919        0.973163569         43.6503755        0.973163569         43.6503755       0.0591432274         146.887151
             4e+09       0.045483871          119.01918        0.973355475          35.500088        0.973355475          35.500088       0.0465102938         141.448296
           4.1e+09      0.0316754745         110.752398        0.973425609          27.338886        0.973425609          27.338886       0.0331070701         138.291713
           4.2e+09      0.0172153917         102.204942        0.973331871         19.1694104        0.973331871         19.1694104       0.0196463025         142.235907
           4.3e+09     0.00242791119         88.8523563        0.973046977         10.9948956        0.973046977         10.9948956      0.00956931802        -179.085656
           4.4e+09      0.0124027441        -92.1879457        0.972560816         2.81888622        0.972560816         2.81888622       0.0153470154        -118.383418
           4.5e+09      0.0269103921        -101.065754        0.971881216        -5.35507262        0.971881216        -5.35507262       0.0283313109        -108.233073
           4.6e+09      0.0408012819        -109.518897        0.971033063        -13.5237442        0.971033063        -13.5237442       0.0417327172        -109.746261
           4.7e+09      0.0537800722        -117.898041        0.970055878        -21.6844784        0.970055878        -21.6844784       0.0544971343        -114.410019
           4.8e+09      0.0655767133        -126.265809        0.969000109         -29.835434        0.969000109         -29.835434       0.0661953214        -120.298067
           4.9e+09      0.0759517541        -134.645452        0.967922561        -37.9757264        0.967922561        -37.9757264       0.0765361027        -126.755966
             5e+09      0.0847007536        -143.051703        0.966881402        -46.1054899        0.966881402        -46.1054899       0.0852941592        -133.498378
           5.1e+09      0.0916574204        -151.498406        0.965931218        -54.2258528        0.965931218        -54.2258528        0.092294064        -140.376725
           5.2e+09      0.0966956545        -160.001489        0.965118527        -62.3388297        0.965118527        -62.3388297       0.0974061289        -147.300648
           5.3e+09      0.0997307789        -168.580858        0.964478092        -70.4471449        0.964478092        -70.4471449        0.100545331        -154.205425
           5.4e+09       0.100720277        -177.262376        0.964030281        -78.5540004        0.964030281        -78.5540004        0.101671256        -161.035437
           5.5e+09      0.0996643749         173.919333        0.963779619        -86.6628114        0.963779619        -86.6628114        0.100788614        -167.733292
           5.6e+09      0.0966067493         164.916343        0.963714605        -94.7769279        0.963714605        -94.7769279       0.0979484615        -174.229955
           5.7e+09      0.0916357392         155.659562        0.963808794        -102.899365        0.963808794        -102.899365       0.0932505601          179.56739
           5.8e+09      0.0848866027         146.044419        0.964023064        -111.032559        0.964023064        -111.032559       0.0868477845         173.793648
           5.9e+09      0.0765461142         135.903343        0.964308893         -119.17818        0.964308893         -119.17818       0.0789545917         168.656953
             6e+09      0.0668627695         124.949308        0.964612452        -127.336996        0.964612452        -127.336996       0.0698642039          164.49557
           6.1e+09      0.0561717637         112.650771        0.964879179        -135.508822        0.964879179        -135.508822       0.0599856498         161.885748
           6.2e+09       0.044962647          97.932136        0.965058465        -143.692548        0.965058465        -143.692548       0.0499272815          161.83951
           6.3e+09      0.0340818285         78.4378129        0.965108051        -151.886245        0.965108051        -151.886245       0.0406813074         166.067314
           6.4e+09      0.0253417153         49.3340085        0.964997703        -160.087349        0.964997703        -160.087349       0.0339273334         176.648274
           6.5e+09      0.0223633995         7.90454267        0.964711809        -168.292896        0.964711809        -168.292896        0.031886815        -167.217058
           6.6e+09      0.0271724743        -30.6539894        0.964250618         -176.49979        0.964250618         -176.49979       0.0354193592        -152.435308
           6.7e+09      0.0364207807        -56.3626849        0.963630006         175.294909        0.963630006         175.294909       0.0428215657        -144.173307
           6.8e+09      0.0469468778        -74.0691562        0.962879797         167.093733        0.962879797         167.093733       0.0519015743        -141.675831
           6.9e+09      0.0573269297        -87.8397157        0.962040836         158.898578        0.962040836         158.898578        0.061241799        -142.833523
             7e+09      0.0668804795        -99.5485486        0.961161127         150.710556        0.961161127         150.710556       0.0700291309        -146.192805
           7.1e+09      0.0752098799         -110.06384         0.96029145         142.529905         0.96029145         142.529905       0.0777678734        -150.919884
           7.2e+09      0.0820506757        -119.821652        0.959480861         134.355991        0.959480861         134.355991       0.0841323009        -156.540908
           7.3e+09      0.0872197178        -129.057465        0.958772497         126.187384        0.958772497         126.187384        0.088900981        -162.778645
           7.4e+09       0.090594978        -137.904169        0.958200015         118.021994        0.958200015         118.021994       0.0919269089        -169.466142
           7.5e+09      0.0921067805          -146.4363        0.957784934         109.857276        0.957784934         109.857276       0.0931230149        -176.501718
           7.6e+09      0.0917336181        -154.690483        0.957535051         101.690454        0.957535051         101.690454       0.0924545569         176.174741
           7.7e+09      0.0895000613        -162.673793         0.95744403         93.5187704         0.95744403         93.5187704       0.0899347698         168.593925
           7.8e+09       0.085475838        -170.364311        0.957492159         85.3397315        0.957492159         85.3397315       0.0856221379         160.761982
           7.9e+09      0.0797758908        -177.704222        0.957648216         77.1513221        0.957648216         77.1513221       0.0796185137         152.659313
             8e+09      0.0725618421         175.417917         0.95787229         68.9521823         0.95787229         68.9521823       0.0720678039         144.231531
           8.1e+09      0.0640464812         169.205689        0.958119346          60.741724        0.958119346          60.741724       0.0631554873         135.365874
           8.2e+09      0.0545059861         164.039995        0.958343227         52.5201806        0.958343227         52.5201806       0.0531105296         125.833192
           8.3e+09      0.0443140328         160.681237        0.958500767         44.2885806        0.958500767         44.2885806       0.0422155264          115.13159
           8.4e+09      0.0340444525          160.78569        0.958555624         36.0486512        0.958555624         36.0486512       0.0308491767         101.984049
           8.5e+09      0.0248044851         168.147557        0.958481463         27.8026559        0.958481463         27.8026559       0.0196932553         82.2523263
           8.6e+09      0.0191249103        -171.111317        0.958264183         19.5531843        0.958264183         19.5531843        0.011127834         39.1311232
           8.7e+09      0.0203977493        -143.744391        0.957902945         11.3029127        0.957902945         11.3029127       0.0128459975        -29.6763041
           8.8e+09      0.0272781121        -128.787522         0.95740991         3.05435978         0.95740991         3.05435978        0.022113821        -62.6401468
           8.9e+09      0.0360965446        -124.928587        0.956808738         -5.1903394        0.956808738         -5.1903394        0.032382274        -79.5985198
             9e+09      0.0450126584        -126.476511        0.956132014        -13.4296187        0.956132014        -13.4296187       0.0421534795        -91.7882376
           9.1e+09      0.0532385199         -130.67973        0.955417908        -21.6626092        0.955417908        -21.6626092       0.0509343284        -102.048049
           9.2e+09      0.0603599932        -136.331449        0.954706413        -29.8891999        0.954706413        -29.8891999       0.0584486931        -111.327961
           9.3e+09      0.0661203789        -142.859389        0.954035544        -38.1100268        0.954035544        -38.1100268       0.0645081244        -120.020179
           9.4e+09      0.0703510222        -149.970053        0.953437859         -46.326395        0.953437859         -46.326395       0.0689815537        -128.306812
           9.5e+09      0.0729461799        -157.506107        0.952937603        -54.5401419        0.952937603        -54.5401419       0.0717864908        -136.274151
           9.6e+09      0.0738527355        -165.384802        0.952548703         -62.753457        0.952548703         -62.753457       0.0728862013        -143.955697
           9.7e+09      0.0730654691        -173.570369        0.952273754         -70.968674        0.952273754         -70.968674         0.07228889        -151.348234
           9.8e+09      0.0706246408         177.936975        0.952104081        -79.1880564        0.952104081        -79.1880564       0.0700478344        -158.414682
           9.9e+09      0.0666147278         169.101298        0.952020817        -87.4135936        0.952020817        -87.4135936       0.0662624244        -165.077121
             1e+10      0.0611640954         159.840282        0.951996925        -95.6468268        0.951996925        -95.6468268        0.061080788        -171.197811
          1.01e+10      0.0544462557         149.996928         0.95199997        -103.888721         0.95199997        -103.888721       0.0547059344        -176.539522
          1.02e+10      0.0466851442         139.273559         0.95199539        -112.139592         0.95199539        -112.139592       0.0474103277         179.315833
          1.03e+10      0.0381720922         127.070358        0.951949968        -120.399102        0.951949968        -120.399102       0.0395717424         177.137323
          1.04e+10      0.0293210003         112.048029        0.951835166        -128.666314        0.951835166        -128.666314       0.0317644789         178.388027
          1.05e+10      0.0208667747         90.8431828        0.951629977        -136.939811        0.951629977        -136.939811       0.0249812126        -174.324493
          1.06e+10      0.0146003839         55.5242324           0.951323        -145.217865           0.951323        -145.217865       0.0209544122        -158.495924
          1.07e+10      0.0141466534         5.80022882        0.950913504        -153.498626        0.950913504        -153.498626       0.0214508418        -138.810418
          1.08e+10      0.0195269991        -31.0117894        0.950411359        -161.780338        0.950411359        -161.780338       0.0259063827        -125.540623
          1.09e+10       0.026862153        -53.0490643        0.949835847        -170.061527        0.949835847        -170.061527       0.0321859507        -120.347313
           1.1e+10      0.0342026635        -68.5625153        0.949213467        -178.341171        0.949213467        -178.341171       0.0387617675        -120.246059
          1.11e+10      0.0408009357        -81.1749671        0.948574991         173.381195        0.948574991         173.381195       0.0448181035        -122.991954
          1.12e+10      0.0462765422         -92.327885        0.947952069         165.105419        0.947952069         165.105419       0.0498918987        -127.372061
          1.13e+10      0.0503900669        -102.672503        0.947373757         156.830752        0.947373757         156.830752        0.053690951        -132.736895
          1.14e+10      0.0529800324        -112.545008        0.946863308         148.555929        0.946863308         148.555929       0.0560218148        -138.716919
