! Created Sun Feb 16 15:49:20 2025
! List of port names and net name(s): example Port n = <port_name> <net_name1> <net_name2> ...
! Port 1 = P1 P1  
! Port 2 = P2 P1  
# hz S ma R 50
! 2 Port Network Data from data block
! freq  magS11  angS11  magS21  angS21  magS12  angS12  magS22  angS22  
!     
                 0    0.000105550316        0.440285452        0.999894435    -9.35113038e-05        0.999894435    -9.35113038e-05     0.000105550315        0.440285353
         100000000     0.00501366433        -89.5863314        0.999289565        -4.30168904        0.999289565        -4.30168904      0.00501366534        -89.5461363
         200000000      0.0101655538        -95.4411259        0.998807326        -8.57758862        0.998807326        -8.57758862       0.0101655273        -95.3586757
         300000000      0.0152105848        -100.399368        0.998337249        -12.8491314        0.998337249        -12.8491314       0.0152106363        -100.272998
         400000000      0.0201128244        -105.082242        0.997862019        -17.1178028        0.997862019        -17.1178028        0.020113056        -104.910245
         500000000       0.024841445        -109.647952        0.997381999        -21.3839149        0.997381999        -21.3839149       0.0248419006        -109.428537
         600000000      0.0293664861        -114.146045        0.996896927        -25.6474957        0.996896927        -25.6474957       0.0293671506        -113.877291
         700000000      0.0336580531        -118.597311        0.996407046        -29.9085287        0.996407046        -29.9085287       0.0336588682        -118.277089
         800000000      0.0376866093        -123.012991        0.995913745        -34.1670264        0.995913745        -34.1670264       0.0376874975        -122.638893
         900000000      0.0414237122        -127.400283        0.995419518        -38.4230427        0.995419518        -38.4230427       0.0414245953        -126.969552
             1e+09      0.0448426238        -131.764271         0.99492767        -42.6766698         0.99492767        -42.6766698       0.0448434393        -131.273727
           1.1e+09      0.0479187469        -136.108755        0.994441999        -46.9280364        0.994441999        -46.9280364       0.0479194616        -135.554723
           1.2e+09      0.0506299098        -140.436677        0.993966506        -51.1773058        0.993966506        -51.1773058       0.0506305292        -139.814897
           1.3e+09      0.0529565648        -144.750368        0.993505146        -55.4246744        0.993505146        -55.4246744       0.0529571429        -144.055901
           1.4e+09      0.0548819192        -149.051714        0.993061624        -59.6703689        0.993061624        -59.6703689       0.0548825648        -148.278819
           1.5e+09      0.0563920408        -153.342265        0.992639234        -63.9146434        0.992639234        -63.9146434       0.0563929251        -152.484249
           1.6e+09      0.0574759222        -157.623303        0.992240723        -68.1577749        0.992240723        -68.1577749       0.0574772858        -156.672339
           1.7e+09      0.0581255334        -161.895899        0.991868198        -72.4000576        0.991868198        -72.4000576       0.0581276953        -160.842785
           1.8e+09      0.0583358581        -166.160933        0.991523052        -76.6417977        0.991523052        -76.6417977       0.0583392262        -164.994796
           1.9e+09      0.0581049106        -170.419123        0.991205921        -80.8833059        0.991205921        -80.8833059       0.0581099946        -169.127017
             2e+09      0.0574337436        -174.671018        0.990916668        -85.1248916        0.990916668        -85.1248916       0.0574411741        -173.237413
           2.1e+09      0.0563264439        -178.916995        0.990654388        -89.3668551        0.990654388        -89.3668551       0.0563369962        -177.323078
           2.2e+09      0.0547901133         176.842761        0.990417439        -93.6094812        0.990417439        -93.6094812       0.0548047432         178.620033
           2.3e+09      0.0528348397         172.608296        0.990203489        -97.8530326        0.990203489        -97.8530326        0.052854729         174.597514
           2.4e+09      0.0504736514         168.379947         0.99000959        -102.097744         0.99000959        -102.097744        0.050500279         170.617125
           2.5e+09       0.047722456         164.158443        0.989832265        -106.343816        0.989832265        -106.343816       0.0477577017         166.689756
           2.6e+09      0.0445999678         159.945057        0.989667609        -110.591414        0.989667609        -110.591414       0.0446462644          162.83098
           2.7e+09      0.0411276127         155.741887        0.989511408        -114.840658        0.989511408        -114.840658        0.041188193         159.063654
           2.8e+09      0.0373294161         151.552326        0.989359262        -119.091627        0.989359262        -119.091627       0.0374087139         155.422504
           2.9e+09       0.033231873         147.381969        0.989206711        -123.344355        0.989206711        -123.344355       0.0333362198         151.962699
             3e+09      0.0288638004         143.240456        0.989049377        -127.598831        0.989049377        -127.598831       0.0290027161         148.777129
           3.1e+09      0.0242561756         139.145633        0.988883088        -131.855001        0.988883088        -131.855001       0.0244449844          146.03468
           3.2e+09      0.0194419756         135.134318         0.98870401        -136.112769         0.98870401        -136.112769       0.0197077781         144.076336
           3.3e+09      0.0144560792         131.296313        0.988508763        -140.372003        0.988508763        -140.372003       0.0148538949         143.701967
           3.4e+09      0.0093355486         127.923014        0.988294524        -144.632538        0.988294524        -144.632538       0.0100048368         147.268655
           3.5e+09     0.00412388661         126.794535        0.988059119        -148.894184        0.988059119        -148.894184      0.00559035637         164.555282
           3.6e+09     0.00124518205         -81.793944        0.987801097         -153.15673        0.987801097         -153.15673      0.00413525128        -135.902007
           3.7e+09     0.00649654381        -70.8018425        0.987519775        -157.419954        0.987519775        -157.419954      0.00768421268        -99.1794403
           3.8e+09      0.0117788124        -73.4557398        0.987215268        -161.683627        0.987215268        -161.683627       0.0125238797        -90.9387275
           3.9e+09      0.0170077804        -77.0948851        0.986888492        -165.947524        0.986888492        -165.947524       0.0175668549        -89.7955312
             4e+09      0.0221418505        -81.0182842        0.986541146        -170.211434        0.986541146        -170.211434       0.0225999167        -91.0954502
           4.1e+09      0.0271418108        -85.0612283        0.986175663         -174.47516        0.986175663         -174.47516       0.0275366047         -93.496133
           4.2e+09      0.0319696153        -89.1646625        0.985795148        -178.738535        0.985795148        -178.738535       0.0323210062        -96.4817571
           4.3e+09      0.0365884084        -93.3020718        0.985403288          176.99858        0.985403288          176.99858       0.0369080677        -99.8139008
           4.4e+09      0.0409627237        -97.4597115        0.985004247         172.736282        0.985004247         172.736282       0.0412580416        -103.367628
           4.5e+09      0.0450587088        -101.629684        0.984602547         168.474631        0.984602547         168.474631       0.0453346244        -107.071285
           4.6e+09      0.0488443557        -105.807083         0.98420293         164.213637         0.98420293         164.213637       0.0491043001        -110.880893
           4.7e+09      0.0522897104        -109.988659        0.983810226         159.953266        0.983810226         159.953266       0.0525361352        -114.767995
           4.8e+09      0.0553670724         -114.17213        0.983429201         155.693436        0.983429201         155.693436       0.0556017627        -118.713396
           4.9e+09      0.0580511737        -118.355802        0.983064417         151.434019        0.983064417         151.434019       0.0582754406        -122.703702
             5e+09      0.0603193395        -122.538337        0.982720093         147.174841        0.982720093         147.174841        0.060534148          -126.7293
           5.1e+09      0.0621516354        -126.718601        0.982399966          142.91569        0.982399966          142.91569       0.0623576857         -130.78313
           5.2e+09      0.0635309939        -130.895551         0.98210718         138.656317         0.98210718         138.656317       0.0637287788        -134.859897
           5.3e+09       0.064443329        -135.068142        0.981844174         134.396445        0.981844174         134.396445       0.0646331712         -138.95555
           5.4e+09      0.0648776353        -139.235244        0.981612597         130.135774        0.981612597         130.135774       0.0650597136        -143.066925
           5.5e+09      0.0648260736         -143.39554        0.981413239         125.873991        0.981413239         125.873991       0.0650004389         -147.19149
           5.6e+09      0.0642840452        -147.547427         0.98124599         121.610776         0.98124599         121.610776         0.06445063        -151.327154
           5.7e+09      0.0632502537        -151.688866        0.981109817         117.345813        0.981109817         117.345813        0.063408874        -155.472111
           5.8e+09      0.0617267555        -155.817199        0.981002768         113.078798        0.981002768         113.078798       0.0618771062        -159.624709
           5.9e+09      0.0597189978        -159.928882        0.980922009          108.80945        0.980922009          108.80945       0.0598606405        -163.783328
             6e+09      0.0572358464        -164.019089         0.98086387         104.537516         0.98086387         104.537516       0.0573681881        -167.946238
           6.1e+09      0.0542896015        -168.081108        0.980823938         100.262784        0.980823938         100.262784       0.0544118555         -172.11143
           6.2e+09      0.0508960034        -172.105371         0.98079715         95.9850866         0.98079715         95.9850866       0.0510071311        -176.276381
           6.3e+09      0.0470742342        -176.077823        0.980777927         91.7043074        0.980777927         91.7043074       0.0471728463          179.56232
           6.4e+09      0.0428469268        -179.977032        0.980760317         87.4203879        0.980760317         87.4203879         0.04293112         175.409598
           6.5e+09      0.0382402085         176.231283        0.980738148         83.1333303        0.980738148         83.1333303       0.0383072756         171.273065
           6.6e+09      0.0332838585         172.605445        0.980705208         78.8431988        0.980705208         78.8431988        0.033329741         167.165408
           6.7e+09      0.0280117733         169.253237        0.980655416         74.5501207        0.980655416         74.5501207         0.02802993         163.109803
           6.8e+09      0.0224633931         166.398102        0.980583003         70.2542844        0.980583003         70.2542844       0.0224421411          159.15415
           6.9e+09      0.0166886057         164.589565        0.980482684         65.9559362        0.980482684         65.9559362       0.0166035813         155.417088
             7e+09      0.0107701051         165.620595        0.980349831         61.6553755        0.980349831         61.6553755       0.0105551862           152.2978
           7.1e+09     0.00501212747         179.746964        0.980180615         57.3529475        0.980180615         57.3529475      0.00435162771         152.511771
           7.2e+09     0.00348010725        -89.4917564        0.979972147         53.0490358        0.979972147         53.0490358      0.00212170268        -55.1130337
           7.3e+09     0.00900656069        -59.5710604         0.97972258         48.7440523         0.97972258         48.7440523      0.00850202173         -47.517077
           7.4e+09      0.0152987788        -56.4421775        0.979431189         44.4384266        0.979431189         44.4384266       0.0149738545        -50.1107606
           7.5e+09      0.0216903308        -57.6431111        0.979098423          40.132595        0.979098423          40.132595       0.0214446102        -53.7213297
           7.6e+09      0.0280629745        -60.2480717        0.978725916         35.8269885        0.978725916         35.8269885       0.0278643642        -57.6442963
           7.7e+09      0.0343514726        -63.4769806        0.978316469          31.522021        0.978316469          31.522021       0.0341858453        -61.7040672
           7.8e+09       0.040502743        -67.0358016        0.977873993         27.2180772        0.977873993         27.2180772       0.0403626987        -65.8358854
           7.9e+09       0.046468249        -70.7892715        0.977403427         22.9155021        0.977403427         22.9155021       0.0463494635        -70.0102028
             8e+09      0.0522020651        -74.6664825        0.976910612         18.6145903        0.976910612         18.6145903       0.0521018112        -74.2115716
           8.1e+09      0.0576603801        -78.6266581        0.976402152         14.3155771        0.976402152         14.3155771       0.0575768378        -78.4311275
           8.2e+09      0.0628014565        -82.6446748        0.975885238         10.0186312        0.975885238         10.0186312       0.0627333546        -82.6634482
           8.3e+09      0.0675857476        -86.7042125        0.975367463         5.72384851        0.975367463         5.72384851       0.0675321624        -86.9050788
           8.4e+09      0.0719760699        -90.7942224         0.97485662         1.43124834         0.97485662         1.43124834       0.0719363067        -91.1537786
           8.5e+09      0.0759377887         -94.906977         0.97436049        -2.85922865         0.97436049        -2.85922865       0.0759113046        -95.4081089
           8.6e+09      0.0794389931          -99.03693         0.97388663        -7.14772043         0.97388663        -7.14772043       0.0794253499         -99.667194
           8.7e+09       0.082450662        -103.180017        0.973442163        -11.4344415        0.973442163        -11.4344415       0.0824494923        -103.930578
           8.8e+09      0.0849468094        -107.333206         0.97303358        -15.7196787         0.97303358        -15.7196787       0.0849577956        -108.198134
           8.9e+09      0.0869046167        -111.494195        0.972666548        -20.0037853        0.972666548        -20.0037853       0.0869274742        -112.470006
             9e+09      0.0883045483        -115.661198        0.972345744        -24.2871733        0.972345744        -24.2871733       0.0883390155        -116.746574
           9.1e+09      0.0891304556        -119.832791        0.972074707        -28.5703035        0.972074707        -28.5703035       0.0891762859        -121.028429
           9.2e+09       0.089369669        -124.007782        0.971855715        -32.8536752        0.971855715        -32.8536752       0.0894266264        -125.316367
           9.3e+09      0.0890130853        -128.185103        0.971689695        -37.1378139        0.971689695        -37.1378139       0.0890809402        -129.611392
           9.4e+09      0.0880552439        -132.363714        0.971576157        -41.4232585        0.971576157        -41.4232585       0.0881337722        -133.914727
           9.5e+09      0.0864944018        -136.542493        0.971513175        -45.7105478        0.971513175        -45.7105478        0.086583384        -138.227855
           9.6e+09      0.0843326001        -140.720123        0.971497385        -50.0002066        0.971497385        -50.0002066       0.0844318216        -142.552576
           9.7e+09      0.0815757273        -144.894942        0.971524033         -54.292732        0.971524033         -54.292732       0.0816849795        -146.891099
           9.8e+09      0.0782335731        -149.064745        0.971587053          -58.58858        0.971587053          -58.58858       0.0783526554        -151.246203
           9.9e+09      0.0743198749        -153.226504        0.971679184        -62.8881527        0.971679184        -62.8881527       0.0744485974         -155.62148
             1e+10       0.069852351        -157.375936        0.971792112        -67.1917867        0.971792112        -67.1917867       0.0699905377         -160.02174
          1.01e+10      0.0648527203        -161.506806        0.971916659        -71.4997427        0.971916659        -71.4997427       0.0650002131        -164.453687
          1.02e+10      0.0593467077        -165.609738        0.972042989        -75.8121967        0.972042989        -75.8121967       0.0595033725        -168.927104
          1.03e+10      0.0533640363        -169.670043        0.972160843        -80.1292333        0.972160843        -80.1292333       0.0535297697        -173.457035
          1.04e+10      0.0469384247        -173.663449        0.972259797        -84.4508414        0.972259797        -84.4508414       0.0471131641        -178.068086
          1.05e+10      0.0401076266        -177.546904         0.97232953        -88.7769116         0.97232953        -88.7769116       0.0402913674         177.196304
          1.06e+10      0.0329136539         178.763845        0.972360108        -93.1072367        0.972360108        -93.1072367       0.0331064788         172.251346
          1.07e+10      0.0254036685         175.458932        0.972342254         -97.441515        0.972342254         -97.441515       0.0256058103         166.906298
          1.08e+10      0.0176338342         173.076532        0.972267632        -101.779355        0.972267632        -101.779355       0.0178458202         160.624924
          1.09e+10     0.00969377929         173.955244        0.972129095        -106.120286        0.972129095        -106.120286      0.00991658155         151.117419
           1.1e+10      0.0023233167        -145.830917        0.971920925        -110.463765        0.971920925        -110.463765      0.00250283755         105.811436
          1.11e+10     0.00727945614        -41.4809606        0.971639033        -114.809193        0.971639033        -114.809193      0.00707224403        -9.72192721
          1.12e+10      0.0155220731        -37.5916717        0.971281131         -119.15593        0.971281131         -119.15593       0.0152904923        -22.9216066
          1.13e+10      0.0238669332        -39.4205344        0.970846847        -123.503306        0.970846847        -123.503306       0.0236226626        -29.9180653
          1.14e+10      0.0321803674        -42.5535732        0.970337805        -127.850649        0.970337805        -127.850649       0.0319253775         -35.532037
