! Created Sat Feb 15 09:36:04 2025
! List of port names and net name(s): example Port n = <port_name> <net_name1> <net_name2> ...
! Port 1 = P1 P1  
! Port 2 = P2 P1  
# hz S ma R 50
! 2 Port Network Data from data block
! freq  magS11  angS11  magS21  angS21  magS12  angS12  magS22  angS22  
!     
                 0    0.000145728633        0.436246014        0.999854276    -0.000128914172        0.999854276    -0.000128914172     0.000145728628        0.436246029
         100000000      0.0058201372        -90.3013769        0.999003329        -6.03959778        0.999003329        -6.03959778        0.005820257        -90.2627933
         200000000      0.0117909626        -98.1502041        0.998313239        -12.0435946        0.998313239        -12.0435946       0.0117910684        -98.0727936
         300000000      0.0175446534        -104.920831        0.997635277        -18.0418689        0.997635277        -18.0418689       0.0175444917         -104.80401
         400000000      0.0230054595        -111.370515        0.996952609        -24.0363241        0.996952609        -24.0363241       0.0230046824        -111.214006
         500000000      0.0281088988        -117.685831        0.996271162        -30.0272072        0.996271162        -30.0272072       0.0281070665        -117.489638
         600000000      0.0327947233        -123.921842        0.995594534         -36.014448        0.995594534         -36.014448       0.0327913281        -123.686244
         700000000      0.0370057258        -130.099986        0.994926214        -41.9980235        0.994926214        -41.9980235       0.0370002159        -129.825532
         800000000      0.0406886998        -136.231193         0.99427077         -47.978052         0.99427077         -47.978052       0.0406804983        -135.918721
         900000000      0.0437960542        -142.322167        0.993633717        -53.9547907        0.993633717        -53.9547907       0.0437845669        -141.972841
             1e+09      0.0462871426        -148.377366          0.9930209        -59.9286127          0.9930209        -59.9286127       0.0462717669        -147.992743
           1.1e+09      0.0481291885        -154.399689        0.992437836        -65.8999834        0.992437836        -65.8999834       0.0481093145        -153.981813
           1.2e+09      0.0492978802        -160.390726        0.991889129        -71.8694382        0.991889129        -71.8694382       0.0492728912        -159.942274
           1.3e+09      0.0497777448        -166.350792        0.991378033        -77.8375595        0.991378033        -77.8375595         0.04974701        -165.875264
           1.4e+09      0.0495623424        -172.278799        0.990906139        -83.8049525        0.990906139        -83.8049525       0.0495252097        -171.780801
           1.5e+09      0.0486543524        -178.171926        0.990473228          -89.77222        0.990473228          -89.77222       0.0486101367        -177.657574
           1.6e+09      0.0470655527         175.974968        0.990077245         -95.739938        0.990077245         -95.739938        0.047013509         176.497438
           1.7e+09      0.0448167135         170.170359        0.989714389        -101.708632        0.989714389        -101.708632       0.0447560073         170.689661
           1.8e+09       0.041937409         164.427859        0.989379319        -107.678756        0.989379319        -107.678756       0.0418670566         164.928166
           1.9e+09       0.038465776         158.769492        0.989065439        -113.650672        0.989065439        -113.650672       0.0383845569         159.227942
             2e+09      0.0344482332          153.23208        0.988765265        -119.624643        0.988765265        -119.624643        0.034354521         153.614337
           2.1e+09      0.0299392554         147.880738        0.988470835        -125.600816        0.988470835        -125.600816       0.0298307012           148.1325
           2.2e+09      0.0250014325         142.840789        0.988174145        -131.579225        0.988174145        -131.579225       0.0248742925         142.869847
           2.3e+09      0.0197066429         138.385783        0.987867598        -137.559794        0.987867598        -137.559794       0.0195541222          138.01865
           2.4e+09      0.0141418411         135.242761        0.987544421        -143.542343        0.987544421        -143.542343       0.0139490651         134.097166
           2.5e+09      0.0084424299         136.145935        0.987199047        -149.526602        0.987199047        -149.526602       0.0081645848          133.12871
           2.6e+09     0.00321496432         162.818126        0.986827424        -155.512233        0.986827424        -155.512233      0.00259886551         155.418221
           2.7e+09      0.0046572864        -104.263986         0.98642725        -161.498849         0.98642725        -161.498849      0.00440103468        -92.7485746
           2.8e+09      0.0102933671        -92.3202327        0.985998105        -167.486041        0.985998105        -167.486041        0.010252445        -85.7039378
           2.9e+09      0.0161175999        -93.2750556        0.985541482        -173.473403        0.985541482        -173.473403       0.0161437943        -88.1402317
             3e+09       0.021817456        -96.9500515        0.985060712        -179.460556        0.985060712        -179.460556        0.021879624          -92.44515
           3.1e+09      0.0272766913        -101.620075        0.984560782         174.552824        0.984560782         174.552824       0.0273636046        -97.4223421
           3.2e+09      0.0324086778        -106.761201        0.984048073         168.566988        0.984048073         168.566988       0.0325151571        -102.712511
           3.3e+09      0.0371379602        -112.161369        0.983530002         162.582098        0.983530002         162.582098       0.0372612883        -108.170208
           3.4e+09      0.0413968398         -117.71861        0.983014625         156.598211        0.983014625         156.598211       0.0415355085         -113.72498
           3.5e+09      0.0451248769        -123.377909        0.982510193         150.615277        0.982510193         150.615277       0.0452780543        -119.338161
           3.6e+09      0.0482691287        -129.107034        0.982024697         144.633138        0.982024697         144.633138       0.0484364115        -124.986342
           3.7e+09      0.0507845788        -134.885904        0.981565431         138.651532        0.981565431         138.651532       0.0509658696        -130.654052
           3.8e+09      0.0526345833        -140.701379        0.981138583         132.670109        0.981138583         132.670109       0.0528300272        -136.330103
           3.9e+09      0.0537912655        -146.544504        0.980748891         126.688443        0.980748891         126.688443       0.0540012231        -142.005553
             4e+09       0.054235838        -152.408909        0.980399371         120.706058        0.980399371         120.706058       0.0544608898        -147.672392
           4.1e+09       0.053958846        -158.289837        0.980091128         114.722448        0.980091128         114.722448       0.0541998112        -153.322548
           4.2e+09      0.0529603239        -164.183479        0.979823278         108.737108        0.979823278         108.737108       0.0532183056         -158.94693
           4.3e+09      0.0512498592        -170.086469        0.979592968         102.749557        0.979592968         102.749557       0.0515263223        -164.534313
           4.4e+09      0.0488465664        -175.995423        0.979395502         96.7593662        0.979395502         96.7593662       0.0491434613        -170.069763
           4.5e+09       0.045778958         178.093578        0.979224568          90.766184        0.979224568          90.766184       0.0460989247        -175.532183
           4.6e+09      0.0420847134         172.185731        0.979072557         84.7697534        0.979072557         84.7697534       0.0424314226         179.109948
           4.7e+09      0.0378103334         166.288765        0.978930954         78.7699294        0.978930954         78.7699294       0.0381890882         173.906512
           4.8e+09      0.0330106774         160.415429        0.978790785         72.7666884        0.978790785         72.7666884       0.0334295554         168.941965
           4.9e+09      0.0277483913         154.589164        0.978643107          66.760132        0.978643107          66.760132       0.0282206121         164.372119
             5e+09      0.0220932484         148.859242        0.978479487         60.7504835        0.978479487         60.7504835       0.0226427562         160.519839
           5.1e+09      0.0161215284         143.351421         0.97829248         54.7380777         0.97829248         54.7380777       0.0167988522         158.177741
           5.2e+09     0.00991619456         138.513938        0.978076053         48.7233451        0.978076053         48.7233451       0.0108592551         159.897145
           5.3e+09     0.00357940498         138.001146         0.97782593         42.7067896         0.97782593         42.7067896      0.00541361069          178.69466
           5.4e+09     0.00293766569        -67.2379831        0.977539861         36.6889626        0.977539861         36.6889626      0.00465552674        -108.356143
           5.5e+09      0.0093049147         -66.066556        0.977217763         30.6704329        0.977217763         30.6704329      0.00979135266        -81.4541065
           5.6e+09      0.0155845723        -70.8023931        0.976861752         24.6517561        0.976861752         24.6517561       0.0157534037        -78.2160329
           5.7e+09      0.0216635113        -76.3281298        0.976476049         18.6334436        0.976476049         18.6334436       0.0216893497        -80.0574859
           5.8e+09      0.0274524659        -82.1186992        0.976066755         12.6159337        0.976066755         12.6159337        0.027395182        -83.6603674
           5.9e+09      0.0328674029        -88.0350283        0.975641535         6.59956608        0.975641535         6.59956608       0.0327545533         -88.061712
             6e+09      0.0378292844        -94.0253495        0.975209191        0.584561452        0.975209191        0.584561452       0.0376760111        -92.8837934
           6.1e+09      0.0422648727        -100.067031        0.974779177        -5.42899275        0.974779177        -5.42899275       0.0420806196          -97.94779
           6.2e+09      0.0461076366        -106.149788        0.974361067        -11.4411497        0.974361067        -11.4411497       0.0458989347        -103.156985
           6.3e+09      0.0492985995        -112.269674        0.973964009        -17.4521031        0.973964009        -17.4521031       0.0490704097         -108.45314
           6.4e+09      0.0517870998        -118.426666        0.973596191        -23.4621791        0.973596191        -23.4621791       0.0515435414         -113.79751
           6.5e+09      0.0535314577        -124.623727        0.973264355         -29.471822        0.973264355         -29.471822       0.0532762541        -119.161451
           6.6e+09      0.0544995482        -130.866608        0.972973375        -35.4815722        0.972973375        -35.4815722       0.0542363371        -124.521121
           6.7e+09      0.0546692911        -137.164171        0.972725932        -41.4920394        0.972725932        -41.4920394       0.0544018846        -129.853939
           6.8e+09      0.0540290722        -143.529252        0.972522295        -47.5038719        0.972522295        -47.5038719       0.0537617116        -135.135601
           6.9e+09       0.052578114        -149.980237        0.972360229        -53.5177219        0.972360229        -53.5177219       0.0523157721        -140.336835
             7e+09      0.0503268248        -156.543844        0.972235033        -59.5342117        0.972235033        -59.5342117       0.0500756175        -145.419001
           7.1e+09       0.047297184        -163.260063        0.972139711        -65.5538989        0.972139711        -65.5538989       0.0470649913        -150.327142
           7.2e+09      0.0435232899        -170.191307        0.972065276        -71.5772455        0.972065276        -71.5772455       0.0433207765        -154.977764
           7.3e+09      0.0390523579        -177.440512        0.972001171         -77.604591        0.972001171         -77.604591       0.0388947846        -159.235384
           7.4e+09      0.0339469263         174.810006        0.971935785        -83.6361311        0.971935785        -83.6361311       0.0338576503        -162.863227
           7.5e+09      0.0282904668         166.205364        0.971857058        -89.6719038        0.971857058        -89.6719038       0.0283084028        -165.408206
           7.6e+09      0.0222039594         155.959372        0.971753126        -95.7117845        0.971753126        -95.7117845        0.022401482         -165.89669
           7.7e+09      0.0159060576          141.98061        0.971612983        -101.755489        0.971612983        -101.755489       0.0164376734        -161.912491
           7.8e+09      0.0100075801         117.235939         0.97142712        -107.802585         0.97142712        -107.802585       0.0112319281        -146.815384
           7.9e+09     0.00709285406         63.0911529        0.971188112        -113.852517        0.971188112        -113.852517      0.00923943472        -111.405938
             8e+09      0.0106902461         11.5188039        0.970891105        -119.904628        0.970891105        -119.904628       0.0125872876        -80.2162227
           8.1e+09      0.0172349867        -11.8377711        0.970534179        -125.958204        0.970534179        -125.958204       0.0187120412        -68.5848312
           8.2e+09      0.0244386656        -25.3801403         0.97011856        -132.012505         0.97011856        -132.012505       0.0256691635         -65.998779
           8.3e+09      0.0317343087        -35.4531214        0.969648667        -138.066816        0.969648667        -138.066816       0.0328131023        -67.1384043
           8.4e+09      0.0388896733        -43.9760478        0.969131979        -144.120482        0.969131979        -144.120482       0.0398651198        -70.0579534
           8.5e+09      0.0457545131        -51.6822554        0.968578733        -150.172954        0.968578733        -150.172954       0.0466530793         -73.946956
           8.6e+09       0.052207946        -58.9062917        0.968001463        -156.223823        0.968001463        -156.223823       0.0530450541        -78.4180125
           8.7e+09      0.0581442369        -65.8210824        0.967414402        -162.272848        0.967414402        -162.272848       0.0589292554        -83.2650431
           8.8e+09      0.0634684854        -72.5244976        0.966832775        -168.319982        0.966832775        -168.319982       0.0642072244        -88.3692174
           8.9e+09      0.0680954411        -79.0758142        0.966272031        -174.365376        0.966272031        -174.365376        0.068791497        -93.6577404
             9e+09      0.0719494289        -85.5128143         0.96574703         179.590615         0.96574703         179.590615       0.0726049603        -99.0839895
           9.1e+09      0.0749646818        -91.8604748        0.965271256         173.547442        0.965271256         173.547442       0.0755808767        -104.617183
           9.2e+09      0.0770858046        -98.1356447        0.964856063         167.504384        0.964856063         167.504384       0.0776631769        -110.236676
           9.3e+09      0.0782682649        -104.349645        0.964510017          161.46058        0.964510017          161.46058       0.0788068453        -115.928668
           9.4e+09       0.078478862        -110.509692        0.964238358         155.415064        0.964238358         155.415064       0.0789783215        -121.684255
           9.5e+09      0.0776961603        -116.619587        0.964042598         149.366811        0.964042598         149.366811       0.0781558884        -127.498299
           9.6e+09      0.0759108839        -122.679847        0.963920308         143.314791        0.963920308         143.314791       0.0763300298        -133.368871
           9.7e+09       0.073126267        -128.687303        0.963865074         137.258021        0.963865074         137.258021       0.0735037469        -139.297161
           9.8e+09      0.0693583614        -134.634015        0.963866658         131.195616        0.963866658         131.195616       0.0696928253        -145.287948
           9.9e+09      0.0646362993        -140.505083        0.963911365         125.126842        0.963911365         125.126842        0.064926043        -151.350851
             1e+10      0.0590025246        -146.274382        0.963982584         119.051161        0.963982584         119.051161       0.0592453048        -157.503043
          1.01e+10       0.052513054          -151.8959        0.964061524         112.968272        0.964061524         112.968272       0.0527057226         -163.77497
          1.02e+10      0.0452379553         -157.28464        0.964128084         106.878135        0.964128084         106.878135       0.0453757009        -170.223203
          1.03e+10        0.03726269         -162.26909        0.964161847         100.780989        0.964161847         100.780989       0.0373373108        -176.962753
          1.04e+10       0.028692726        -166.450349        0.964143133         94.6773543        0.964143133         94.6773543       0.0286880481         175.736152
          1.05e+10      0.0196733057        -168.655397        0.964054076         88.5680195        0.964054076         88.5680195       0.0195495538         167.064847
          1.06e+10      0.0105221895        -163.512165        0.963879638         82.4540151        0.963879638         82.4540151       0.0101319231         153.110267
          1.07e+10     0.00423780176         -100.13906        0.963608534         76.3365722        0.963608534         76.3365722      0.00285552309         69.6514223
          1.08e+10      0.0111175473        -41.8912018        0.963233975         70.2170694        0.963233975         70.2170694       0.0106558685         -7.0783668
          1.09e+10      0.0207972257         -37.410486        0.962754202         64.0969692        0.962754202         64.0969692       0.0205841233        -20.6561238
           1.1e+10      0.0306442126        -39.7571902        0.962172759         57.9777479        0.962172759         57.9777479       0.0305433931        -29.2890375
          1.11e+10      0.0403359468        -43.9886304        0.961498483         51.8608223        0.961498483         51.8608223       0.0403084642         -36.619603
          1.12e+10       0.049699492        -48.9942635        0.960745206         45.7474773        0.960745206         45.7474773       0.0497284955        -43.4203339
          1.13e+10      0.0585926779        -54.3905351        0.959931178         39.6387979        0.959931178         39.6387979       0.0586689092        -49.9525368
          1.14e+10      0.0668866692        -60.0104794        0.959078239         33.5356103        0.959078239         33.5356103       0.0670041334         -56.328475
