! Created Sat Feb 15 09:35:39 2025
! List of port names and net name(s): example Port n = <port_name> <net_name1> <net_name2> ...
! Port 1 = P1 P1  
! Port 2 = P2 P2  
# hz S ma R 50
! 2 Port Network Data from data block
! freq  magS11  angS11  magS21  angS21  magS12  angS12  magS22  angS22  
!     
                 0        0.99979757         179.999867     3.19141886e-06        -5.77299433     3.19141886e-06        -5.77299433        0.999797561         179.999867
         100000000       0.998959336         176.133331     0.000110171011         93.0961831     0.000110171011         93.0961831        0.998968388         176.139887
         200000000        0.99844135         172.301792      0.00020790144         96.7097323      0.00020790144         96.7097323        0.998460478          172.31437
         300000000       0.998010958         168.471603     0.000290324194         98.4959314     0.000290324194         98.4959314        0.998040098          168.48994
         400000000        0.99762377         164.639623     0.000359623039         98.5487581     0.000359623039         98.5487581        0.997662914         164.663481
         500000000       0.997269399         160.803914     0.000420394692         97.1950478     0.000420394692         97.1950478        0.997318464         160.833053
         600000000       0.996939564         156.963019     0.000476879306         94.8190321     0.000476879306         94.8190321        0.996998426         156.997185
         700000000       0.996627635         153.115668     0.000532071515         91.7502223     0.000532071515         91.7502223        0.996696141         153.154584
         800000000       0.996328483         149.260673     0.000587807135         88.2297909     0.000587807135         88.2297909        0.996406463         149.304039
         900000000       0.996038182         145.396903     0.000645105195         84.4180714     0.000645105195         84.4180714        0.996125446         145.444395
             1e+09       0.995753734         141.523297     0.000704477953          80.414963     0.000704477953          80.414963        0.995850077         141.574564
           1.1e+09       0.995472852         137.638862     0.000766144684         76.2799786     0.000766144684         76.2799786        0.995578054         137.693528
           1.2e+09        0.99519379         133.742684     0.000830163571         72.0474848     0.000830163571         72.0474848        0.995307617         133.800347
           1.3e+09       0.994915212          129.83393     0.000896507215         67.7370532     0.000896507215         67.7370532        0.995037417         129.894167
           1.4e+09       0.994636103         125.911857     0.000965104398         63.3599406     0.000965104398         63.3599406        0.994766426         125.974221
           1.5e+09       0.994355693         121.975813      0.00103586179         58.9230133      0.00103586179         58.9230133        0.994493864         122.039835
           1.6e+09       0.994073412         118.025242      0.00110867407         54.4309536      0.00110867407         54.4309536        0.994219146         118.090436
           1.7e+09       0.993788847          114.05969        0.001183429         49.8874666        0.001183429         49.8874666        0.993941849         114.125553
           1.8e+09       0.993501718         110.078808      0.00126000747         45.2959413      0.00126000747         45.2959413        0.993661684         110.144822
           1.9e+09       0.993211857         106.082353      0.00133828277         40.6597537      0.00133828277         40.6597537        0.993378471         106.147989
             2e+09       0.992919189         102.070197      0.00141811796         35.9823712      0.00141811796         35.9823712        0.993092131         102.134917
           2.1e+09       0.992623728         98.0423236      0.00149936445         31.2673642      0.00149936445         31.2673642        0.992802667         98.1055852
           2.2e+09       0.992325557         93.9988339      0.00158185781         26.5184094      0.00158185781         26.5184094        0.992510158         94.0600927
           2.3e+09       0.992024831         89.9399468      0.00166541701         21.7392101      0.00166541701         21.7392101        0.992214752         89.9986603
           2.4e+09       0.991721762         85.8659997      0.00174984126         16.9334747      0.00174984126         16.9334747        0.991916662         85.9216315
           2.5e+09        0.99141662         81.7774487      0.00183490901         12.1048528      0.00183490901         12.1048528        0.991616154         81.8294721
           2.6e+09       0.991109726         77.6748673      0.00192037654         7.25692246      0.00192037654         7.25692246         0.99131355         77.7227695
           2.7e+09       0.990801446         73.5589444       0.0020059782         2.39311905       0.0020059782         2.39311905        0.991009219         73.6022306
           2.8e+09       0.990492188          69.430481      0.00209142574        -2.48323354      0.00209142574        -2.48323354        0.990703573         69.4686787
           2.9e+09       0.990182398         65.2903864      0.00217641044        -7.36900452      0.00217641044        -7.36900452        0.990397064         65.3230496
             3e+09       0.989872552         61.1396725      0.00226060391        -12.2612131      0.00226060391        -12.2612131        0.990090176         61.1663854
           3.1e+09       0.989563154         56.9794476      0.00234365997        -17.1570534      0.00234365997        -17.1570534        0.989783423         56.9998287
           3.2e+09       0.989254728         52.8109087      0.00242521885        -22.0539067      0.00242521885        -22.0539067        0.989477342         52.8246146
           3.3e+09       0.988947817         48.6353331      0.00250490888        -26.9493387      0.00250490888        -26.9493387        0.989172487         48.6420619
           3.4e+09       0.988642968         44.4540689      0.00258235069        -31.8410883      0.00258235069        -31.8410883        0.988869423         44.4535628
           3.5e+09       0.988340739         40.2685244      0.00265716176        -36.7270639      0.00265716176        -36.7270639        0.988568722         40.2605732
           3.6e+09       0.988041679         36.0801569      0.00272895967        -41.6053591      0.00272895967        -41.6053591        0.988270952         36.0645999
           3.7e+09       0.987746331         31.8904611      0.00279736683        -46.4742453      0.00279736683        -46.4742453        0.987976675         31.8671888
           3.8e+09       0.987455225         27.7009564      0.00286201567        -51.3321583      0.00286201567        -51.3321583        0.987686438         27.6699125
           3.9e+09       0.987168867         23.5131742      0.00292255047         -56.177701      0.00292255047         -56.177701        0.987400769          23.474356
             4e+09       0.986887737         19.3286452      0.00297863491        -61.0096651      0.00297863491        -61.0096651        0.987120167         19.2821042
           4.1e+09       0.986612285         15.1488863      0.00302995293        -65.8270048      0.00302995293        -65.8270048        0.986845102         15.0947278
           4.2e+09       0.986342922         10.9753879      0.00307621291        -70.6288468      0.00307621291        -70.6288468        0.986576004         10.9137705
           4.3e+09       0.986080018         6.80960107       0.0031171518        -75.4145106       0.0031171518        -75.4145106        0.986313262         6.74073573
           4.4e+09       0.985823898         2.65292602      0.00315253736         -80.183478      0.00315253736         -80.183478        0.986057219         2.57707396
           4.5e+09       0.985574838        -1.49329964      0.00318216893        -84.9354363      0.00318216893        -84.9354363        0.985808169        -1.57582887
           4.6e+09       0.985333063        -5.62781143       0.0032058814        -89.6702544       0.0032058814        -89.6702544        0.985566352        -5.71666235
           4.7e+09       0.985098746        -9.74942785      0.00322354451        -94.3879921      0.00322354451        -94.3879921        0.985331955        -9.84420197
           4.8e+09       0.984872002        -13.8570592       0.0032350649        -99.0889381       0.0032350649        -99.0889381        0.985105108        -13.9573182
           4.9e+09       0.984652895        -17.9497152        0.003240385         -103.77358        0.003240385         -103.77358        0.984885884        -18.0549845
             5e+09       0.984441432         -22.026512      0.00323948396         -108.44263      0.00323948396         -108.44263        0.984674303        -22.1362844
           5.1e+09       0.984237567         -26.086678      0.00323237757        -113.097024      0.00323237757        -113.097024        0.984470327        -26.2004171
           5.2e+09       0.984041201        -30.1295576      0.00321911489        -117.737952      0.00321911489        -117.737952        0.984273865        -30.2467021
           5.3e+09       0.983852182        -34.1546153      0.00319977931         -122.36686      0.00319977931         -122.36686        0.984084768        -34.2745829
           5.4e+09       0.983670314        -38.1614378       0.0031744868        -126.985454       0.0031744868        -126.985454        0.983902848        -38.2836289
           5.5e+09       0.983495352        -42.1497355      0.00314338397         -131.59573      0.00314338397         -131.59573         0.98372786        -42.2735374
           5.6e+09       0.983327008        -46.1193426        0.003106645         -136.19999        0.003106645         -136.19999         0.98355952         -46.244133
           5.7e+09       0.983164956        -50.0702166      0.00306447225         -140.80086      0.00306447225         -140.80086        0.983397502        -50.1953676
           5.8e+09       0.983008833        -54.0024374      0.00301709224        -145.401315      0.00301709224        -145.401315        0.983241444        -54.1273187
           5.9e+09       0.982858244        -57.9162044      0.00296475463        -150.004701      0.00296475463        -150.004701         0.98309095         -58.040187
             6e+09       0.982712766        -61.8118346      0.00290773086        -154.614786      0.00290773086        -154.614786        0.982945593        -61.9342938
           6.1e+09       0.982571948        -65.6897586      0.00284631145        -159.235756      0.00284631145        -159.235756        0.982804922        -65.8100772
           6.2e+09       0.982435322        -69.5505172      0.00278080498        -163.872305      0.00278080498        -163.872305        0.982668465        -69.6680882
           6.3e+09       0.982302396        -73.3947571      0.00271153699        -168.529648      0.00271153699        -168.529648        0.982535726        -73.5089863
           6.4e+09       0.982172667        -77.2232263      0.00263884855        -173.213583      0.00263884855        -173.213583        0.982406199        -77.3335345
           6.5e+09       0.982045619         -81.036769      0.00256309412        -177.930553      0.00256309412        -177.930553        0.982279364        -81.1425947
           6.6e+09       0.981920728        -84.8363211      0.00248464319         177.312292      0.00248464319         177.312292         0.98215469        -84.9371224
           6.7e+09       0.981797463        -88.6229047      0.00240387897          172.50703      0.00240387897          172.50703        0.982031644        -88.7181608
           6.8e+09       0.981675291        -92.3976227      0.00232119695         167.644869      0.00232119695         167.644869        0.981909686        -92.4868359
           6.9e+09       0.981553675        -96.1616535      0.00223700628         162.716078      0.00223700628         162.716078        0.981788276        -96.2443509
             7e+09       0.981432085        -99.9162455      0.00215173155         157.709952      0.00215173155         157.709952        0.981666876        -99.9919801
           7.1e+09        0.98130999        -103.662712      0.00206580995         152.614671      0.00206580995         152.614671        0.981544952        -103.731064
           7.2e+09       0.981186869        -107.402424      0.00197969566         147.417319      0.00197969566         147.417319        0.981421974        -107.463003
           7.3e+09       0.981062206        -111.136808      0.00189385978         142.103803      0.00189385978         142.103803        0.981297423        -111.189253
           7.4e+09       0.980935495        -114.867336      0.00180879064         136.658979      0.00180879064         136.658979        0.981170786        -114.911317
           7.5e+09       0.980806244        -118.595525       0.0017249955         131.066731       0.0017249955         131.066731        0.981041566        -118.630743
           7.6e+09       0.980673973        -122.322926      0.00164300071         125.310257      0.00164300071         125.310257        0.980909275        -122.349116
           7.7e+09       0.980538218        -126.051123      0.00156335153         119.372549      0.00156335153         119.372549        0.980773444        -126.068052
           7.8e+09       0.980398534        -129.781722      0.00148660941         113.237129      0.00148660941         113.237129        0.980633618        -129.789196
           7.9e+09       0.980254492        -133.516351      0.00141334785          106.88907      0.00141334785          106.88907        0.980489366        -133.514208
             8e+09       0.980105687        -137.256651      0.00134414396         100.316485      0.00134414396         100.316485        0.980340273        -137.244766
           8.1e+09       0.979951738        -141.004266      0.00127956573         93.5124306      0.00127956573         93.5124306         0.98018595        -140.982553
           8.2e+09       0.979792287        -144.760843      0.00122015406         86.4770635      0.00122015406         86.4770635        0.980026035        -144.729255
           8.3e+09       0.979627007        -148.528021      0.00116639887         79.2200867      0.00116639887         79.2200867        0.979860189         -148.48655
           8.4e+09       0.979455599        -152.307425      0.00111870755         71.7629648      0.00111870755         71.7629648        0.979688108        -152.256102
           8.5e+09       0.979277797        -156.100658      0.00107737185         64.1403906      0.00107737185         64.1403906        0.979509519        -156.039558
           8.6e+09       0.979093372        -159.909293      0.00104253478         56.4004559      0.00104253478         56.4004559        0.979324183        -159.838533
           8.7e+09       0.978902129        -163.734867      0.00101416265         48.6031054      0.00101416265         48.6031054          0.9791319        -163.654604
           8.8e+09       0.978703918        -167.578866     0.000992029051         40.8166196     0.000992029051         40.8166196        0.978932511        -167.489306
           8.9e+09       0.978498627        -171.442725     0.000975718101         33.1127502     0.000975718101         33.1127502        0.978725897        -171.344115
             9e+09       0.978286192        -175.327809     0.000964643935         25.5612787     0.000964643935         25.5612787        0.978511987        -175.220442
           9.1e+09       0.978066594         -179.23541     0.000958087326          18.225027     0.000958087326          18.225027        0.978290758        -179.119626
           9.2e+09       0.977839864         176.833269     0.000955244133         11.1564501     0.000955244133         11.1564501        0.978062233         176.957085
           9.3e+09       0.977606082          172.87712     0.000955275687         4.39606614     0.000955275687         4.39606614        0.977826492         173.008536
           9.4e+09        0.97736538         168.895145     0.000957357383        -2.02750316     0.000957357383        -2.02750316        0.977583661         169.033684
           9.5e+09       0.977117944         164.886465     0.000960720008        -8.09596641     0.000960720008        -8.09596641        0.977333925         165.031605
           9.6e+09       0.976864006         160.850334     0.000964681478        -13.7992687     0.000964681478        -13.7992687        0.977077519         161.001507
           9.7e+09       0.976603851         156.786148     0.000968669403        -19.1332681     0.000968669403        -19.1332681        0.976814729         156.942744
           9.8e+09       0.976337812         152.693458     0.000972236584        -24.0977096     0.000972236584        -24.0977096        0.976545893         152.854825
           9.9e+09       0.976066265         148.571983     0.000975068778        -28.6946291     0.000975068778        -28.6946291        0.976271395         148.737429
             1e+10       0.975789624         144.421615     0.000976989541        -32.9273145     0.000976989541        -32.9273145        0.975991661         144.590411
          1.01e+10       0.975508338         140.242435     0.000977959678        -36.7998702     0.000977959678        -36.7998702        0.975707153         140.413821
          1.02e+10        0.97522288         136.034719     0.000978072434        -40.3172694     0.000978072434        -40.3172694         0.97541836         136.207902
          1.03e+10       0.974933737         131.798945     0.000977546678        -43.4859789     0.000977546678        -43.4859789        0.975125793         131.973109
          1.04e+10       0.974641406         127.535802      0.00097671308        -46.3149249      0.00097671308        -46.3149249        0.974829971          127.71011
          1.05e+10       0.974346372         123.246193     0.000975996207        -48.8168277     0.000975996207        -48.8168277        0.974531411         123.419793
          1.06e+10       0.974049101         118.931237     0.000975889654        -51.0095777     0.000975889654        -51.0095777        0.974230609         119.103268
          1.07e+10       0.973750027          114.59227     0.000976924728        -52.9175225     0.000976924728        -52.9175225        0.973928036         114.761869
          1.08e+10        0.97344953         110.230843     0.000979633113        -54.5723131     0.000979633113        -54.5723131        0.973624114         110.397152
          1.09e+10       0.973147929         105.848719     0.000984506839        -56.0130041     0.000984506839        -56.0130041        0.973319205         106.010892
           1.1e+10       0.972845462         101.447861     0.000991957565        -57.2852051     0.000991957565        -57.2852051        0.973013593         101.605071
          1.11e+10       0.972542277         97.0304282        0.001002281        -58.4392025        0.001002281        -58.4392025        0.972707477          97.181877
          1.12e+10       0.972238418         92.5987592      0.00101563114        -59.5272591      0.00101563114        -59.5272591        0.972400952         92.7436818
          1.13e+10       0.971933821          88.155357      0.00103200709         -60.600578      0.00103200709         -60.600578        0.972094008         88.2930314
          1.14e+10       0.971628304         83.7028717      0.00105125466        -61.7063715      0.00105125466        -61.7063715        0.971786519         83.8326252
