! Created Sat Feb 15 09:35:28 2025
! List of port names and net name(s): example Port n = <port_name> <net_name1> <net_name2> ...
! Port 1 = P1 P1  
! Port 2 = P2 P1  
# hz S ma R 50
! 2 Port Network Data from data block
! freq  magS11  angS11  magS21  angS21  magS12  angS12  magS22  angS22  
!     
                 0    9.84653298e-05        0.422979413        0.999901537    -8.61960392e-05        0.999901537    -8.61960392e-05     9.84653492e-05        0.422979376
         100000000     0.00588400605        -90.3528059         0.99933815        -4.00764635         0.99933815        -4.00764635      0.00588441304        -90.3306277
         200000000       0.011894333        -95.5609599        0.998875588         -7.9912793        0.998875588         -7.9912793        0.011895574          -95.51898
         300000000       0.017801942        -100.056911        0.998407973        -11.9706923        0.998407973        -11.9706923       0.0178043209         -99.995408
         400000000      0.0235696013        -104.332208        0.997919824        -15.9473923        0.997919824        -15.9473923       0.0235733834        -104.251271
         500000000      0.0291658774        -108.517471        0.997414529        -19.9217104        0.997414529        -19.9217104       0.0291712864        -108.417095
         600000000      0.0345620102         -112.65399        0.996895028        -23.8935929        0.996895028        -23.8935929       0.0345692376         -112.53412
         700000000      0.0397301372        -116.757794        0.996363818        -27.8628889        0.996363818        -27.8628889       0.0397393498        -116.618338
         800000000      0.0446426798        -120.836423        0.995823654        -31.8294709        0.995823654        -31.8294709       0.0446540265        -120.677255
         900000000      0.0492726285        -124.894155        0.995277881        -35.7932672        0.995277881        -35.7932672        0.049286244         -124.71512
             1e+09      0.0535940342        -128.933833        0.994730467        -39.7542646        0.994730467        -39.7542646       0.0536100422        -128.734747
           1.1e+09      0.0575824459        -132.957563        0.994185876        -43.7125048        0.994185876        -43.7125048       0.0576009619        -132.738212
           1.2e+09      0.0612152398        -136.966996        0.993648881        -47.6680803        0.993648881        -47.6680803       0.0612363714        -136.727135
           1.3e+09      0.0644718485        -140.963473        0.993124357        -51.6211302        0.993124357        -51.6211302       0.0644956977        -140.702826
           1.4e+09      0.0673339246        -144.948091        0.992617083        -55.5718371        0.992617083        -55.5718371       0.0673605884        -144.666355
           1.5e+09      0.0697854602        -148.921756        0.992131574        -59.5204235        0.992131574        -59.5204235       0.0698150306        -148.618595
           1.6e+09      0.0718128628        -152.885207         0.99167193        -63.4671473         0.99167193        -63.4671473       0.0718454278        -152.560253
           1.7e+09      0.0734050137        -156.839031        0.991241706        -67.4122973        0.991241706        -67.4122973       0.0734406578        -156.491887
           1.8e+09      0.0745533059        -160.783673        0.990843815        -71.3561877        0.990843815        -71.3561877       0.0745921099        -160.413909
           1.9e+09      0.0752516687        -164.719431         0.99048045        -75.2991519         0.99048045        -75.2991519       0.0752937098        -164.326583
             2e+09      0.0754965824        -168.646443        0.990153024         -79.241536        0.990153024         -79.241536        0.075541935        -168.230018
           2.1e+09      0.0752870834        -172.564667        0.989862143        -83.1836921        0.989862143        -83.1836921       0.0753358185        -172.124138
           2.2e+09      0.0746247657        -176.473849        0.989607589        -87.1259714        0.989607589        -87.1259714       0.0746769506        -176.008657
           2.3e+09      0.0735137712         179.626529        0.989388329         -91.068717        0.989388329         -91.068717       0.0735694699        -179.883028
           2.4e+09       0.071960778         175.737311        0.989202546        -95.0122572        0.989202546        -95.0122572        0.072020051         176.253618
           2.5e+09      0.0699749804         171.859763        0.989047683        -98.9568991        0.989047683        -98.9568991        0.070037883         172.402572
           2.6e+09       0.067568061         167.995704        0.988920504        -102.902922        0.988920504        -102.902922       0.0676346441         168.565668
           2.7e+09      0.0647541585         164.147703        0.988817181        -106.850573        0.988817181        -106.850573       0.0648244671         164.745475
           2.8e+09      0.0615498229         160.319358        0.988733379         -110.80006        0.988733379         -110.80006       0.0616238953         160.945577
           2.9e+09      0.0579739673         156.515736        0.988664367        -114.751551        0.988664367        -114.751551       0.0580518327         157.170996
             3e+09      0.0540478066         152.744063        0.988605128         -118.70517        0.988605128         -118.70517       0.0541294838         153.428861
           3.1e+09      0.0497947956         149.014854        0.988550486        -122.660991        0.988550486        -122.660991        0.049880289         149.729514
           3.2e+09      0.0452405667         145.343873        0.988495227        -126.619045        0.988495227        -126.619045       0.0453298606         146.088407
           3.3e+09      0.0404128844         141.755695        0.988434231        -130.579314        0.988434231        -130.579314       0.0405059342         142.529561
           3.4e+09      0.0353416555         138.290683        0.988362594        -134.541732        0.988362594        -134.541732       0.0354383709         139.092308
           3.5e+09      0.0300590879         135.019862        0.988275754        -138.506194        0.988275754        -138.506194       0.0301592996         135.845673
           3.6e+09      0.0246002717         132.080575        0.988169603        -142.472552        0.988169603        -142.472552       0.0247036569         132.922709
           3.7e+09      0.0190051155         129.776726        0.988040589        -146.440624        0.988040589        -146.440624       0.0191109981         130.616732
           3.8e+09      0.0133257919         128.937078        0.987885807        -150.410198        0.987885807        -150.410198       0.0134324537         129.723393
           3.9e+09     0.00766850944         132.841696        0.987703075        -154.381038        0.987703075        -154.381038      0.00776940861         133.363315
             4e+09     0.00278733478         170.135378        0.987490988        -158.352891        0.987490988        -158.352891      0.00281481821         168.649977
           4.1e+09     0.00506700164        -101.643072        0.987248954        -162.325494        0.987248954        -162.325494      0.00493220435        -100.664542
           4.2e+09      0.0105836604          -90.43196        0.986977214        -166.298581        0.986977214        -166.298581        0.010443993        -89.0689538
           4.3e+09      0.0162655926        -89.7754481        0.986676833        -170.271893        0.986676833        -170.271893       0.0161235585        -88.3369139
           4.4e+09      0.0218966642        -91.5508226        0.986349675        -174.245182        0.986349675        -174.245182       0.0217517821        -90.0530965
           4.5e+09      0.0274089892        -94.2505808        0.985998357         -178.21822        0.985998357         -178.21822       0.0272609853        -92.6894343
           4.6e+09      0.0327575559        -97.3983149        0.985626183         177.809195        0.985626183         177.809195       0.0326063231        -95.7669657
           4.7e+09      0.0379042917          -100.7969        0.985237057         173.837234        0.985237057         173.837234       0.0377498243        -99.0881318
           4.8e+09      0.0428144876        -104.350236         0.98483539         169.866027         0.98483539         169.866027        0.042656848        -102.556571
           4.9e+09      0.0474557848        -108.006006        0.984425981         165.895667        0.984425981         165.895667       0.0472950881        -106.119574
             5e+09      0.0517978888        -111.733403          0.9840139         161.926199          0.9840139         161.926199       0.0516342971         -109.74576
           5.1e+09        0.05581253        -115.513216        0.983604358         157.957624        0.983604358         157.957624       0.0556462501        -113.415169
           5.2e+09      0.0594735124        -119.332963        0.983202573         153.989894        0.983202573         153.989894       0.0593047974        -117.114376
           5.3e+09      0.0627567963        -123.184307        0.982813638         150.022914        0.982813638         150.022914         0.06258595        -120.833901
           5.4e+09      0.0656405891        -127.061605        0.982442389         146.056544        0.982442389         146.056544       0.0654679711        -124.566726
           5.5e+09      0.0681054338        -130.961045        0.982093284         142.090601        0.982093284         142.090601       0.0679314682        -128.307395
           5.6e+09       0.070134293        -134.880129        0.981770283         138.124864        0.981770283         138.124864        0.069959478        -132.051446
           5.7e+09      0.0717126232        -138.817343        0.981476743         134.159076        0.981476743         134.159076       0.0715375444        -135.795007
           5.8e+09      0.0728284425        -142.771956        0.981215328         130.192954        0.981215328         130.192954       0.0726537889        -139.534511
           5.9e+09      0.0734723904        -146.743898        0.980987934          126.22619        0.980987934          126.22619       0.0732989757        -143.266445
             6e+09      0.0736377809        -150.733705        0.980795629         122.258465        0.980795629         122.258465        0.073466569        -146.987141
           6.1e+09       0.073320649        -154.742506        0.980638611         118.289449        0.980638611         118.289449       0.0731527884        -150.692542
           6.2e+09       0.072519792         -158.77207        0.980516193         114.318818        0.980516193         114.318818       0.0723566599        -154.377952
           6.3e+09      0.0712368053        -162.824896          0.9804268         110.346253          0.9804268         110.346253       0.0710800655         -158.03772
           6.4e+09      0.0694761144        -166.904382        0.980367993         106.371453        0.980367993         106.371453       0.0693277949        -161.664831
           6.5e+09      0.0672450001        -171.015091        0.980336508         102.394143        0.980336508         102.394143       0.0671076002         -165.25033
           6.6e+09      0.0645536232        -175.163164        0.980328323         98.4140803        0.980328323         98.4140803       0.0644302614        -168.782513
           6.7e+09      0.0614150458         -179.35696        0.980338736         94.4310609        0.980338736         94.4310609       0.0613096719        -172.245701
           6.8e+09      0.0578452553         176.391915        0.980362471         90.4449264        0.980362471         90.4449264       0.0577629617        -175.618357
           6.9e+09      0.0538632014         172.066929        0.980393789         86.4555691        0.980393789         86.4555691       0.0538106955        -178.870048
             7e+09      0.0494908645         167.643765        0.980426626         82.4629354        0.980426626         82.4629354       0.0494772119         178.043644
           7.1e+09      0.0447533996         163.085187        0.980454727         78.4670295        0.980454727         78.4670295       0.0447912468         175.190118
           7.2e+09      0.0396794497         158.331267        0.980471805          74.467914        0.980471805          74.467914       0.0397871528         172.676576
           7.3e+09      0.0343018745         153.279217        0.980471692         70.4657107        0.980471692         70.4657107       0.0345074486         170.683824
           7.4e+09      0.0286595396         147.737334        0.980448498         66.4605989        0.980448498         66.4605989       0.0290086335         169.540337
           7.5e+09      0.0228022459         141.304471        0.980396763         62.4528125        0.980396763         62.4528125       0.0233760129         169.902666
           7.6e+09      0.0168069764         132.987928        0.980311605         58.4426362        0.980311605         58.4426362        0.017767536         173.251772
           7.7e+09      0.0108499862         119.596239        0.980188855         54.4303995        0.980188855         54.4303995       0.0125685657        -176.626083
           7.8e+09     0.00572789534         86.2393326        0.980025179           50.41647        0.980025179           50.41647      0.00896528683        -151.053251
           7.9e+09     0.00574514284          12.024503        0.979818173         46.4012454        0.979818173         46.4012454      0.00938834044        -112.923462
             8e+09      0.0110256575         -21.519975        0.979566452          42.385145        0.979566452          42.385145       0.0135819194        -90.3712912
           8.1e+09      0.0173086141        -34.9476233        0.979269697         38.3685995        0.979269697         38.3685995        0.019246203        -81.7334415
           8.2e+09      0.0237900598        -43.2677707        0.978928683         34.3520415        0.978928683         34.3520415       0.0253934176        -79.0345885
           8.3e+09        0.03028812        -49.6926779        0.978545285         30.3358949        0.978545285         30.3358949       0.0316908913        -79.0131658
           8.4e+09      0.0367191011        -55.2196935        0.978122443         26.3205648        0.978122443         26.3205648       0.0379910101        -80.3732674
           8.5e+09      0.0430251031        -60.2512035        0.977664113         22.3064276        0.977664113         22.3064276       0.0442064259        -82.5289012
           8.6e+09      0.0491578031        -64.9791217        0.977175177         18.2938214        0.977175177         18.2938214       0.0502737205         -85.182272
           8.7e+09       0.055073619        -69.5060414        0.976661343         14.2830378        0.976661343         14.2830378       0.0561408604        -88.1675959
           8.8e+09      0.0607320309        -73.8914875        0.976129017         10.2743139        0.976129017         10.2743139        0.061762255        -91.3858581
           8.9e+09      0.0660949779        -78.1721591         0.97558515         6.26782623         0.97558515         6.26782623       0.0670966292        -94.7746179
             9e+09      0.0711266691        -82.3717352        0.975037088         2.26368549        0.975037088         2.26368549       0.0721060606        -98.2928132
           9.1e+09      0.0757935654        -86.5060143        0.974492392        -1.73806664        0.974492392        -1.73806664       0.0767555477        -101.912578
           9.2e+09       0.080064437        -90.5857773        0.973958664        -5.73745977        0.973958664        -5.73745977       0.0810128269        -105.614583
           9.3e+09      0.0839104478        -94.6184592        0.973443371        -9.73459505        0.973443371        -9.73459505       0.0848483143        -109.385265
           9.4e+09      0.0873052475          -98.60916        0.972953659        -13.7296438        0.972953659        -13.7296438       0.0882351084        -113.215112
           9.5e+09      0.0902250633        -102.561269        0.972496192         -17.722845        0.972496192         -17.722845       0.0911490244        -117.097576
           9.6e+09      0.0926487858        -106.476848         0.97207698        -21.7145003         0.97207698        -21.7145003       0.0935686423        -121.028372
           9.7e+09      0.0945580503        -110.356861        0.971701237        -25.7049691        0.971701237        -25.7049691       0.0954753611        -125.005029
           9.8e+09      0.0959373129        -114.201292        0.971373242        -29.6946604        0.971373242        -29.6946604       0.0968534573        -129.026608
           9.9e+09      0.0967739248        -118.009177        0.971096227        -33.6840255        0.971096227        -33.6840255       0.0976901472         -133.09354
             1e+10      0.0970582078        -121.778562        0.970872283         -37.673548        0.970872283         -37.673548       0.0979756518        -137.207576
          1.01e+10      0.0967835355        -125.506399        0.970702283        -41.6637339        0.970702283        -41.6637339       0.0977032703        -141.371807
          1.02e+10      0.0959464199        -129.188344        0.970585843        -45.6551009        0.970585843        -45.6551009       0.0968694629        -145.590796
          1.03e+10       0.094546615        -132.818473        0.970521291         -49.648167        0.970521291         -49.648167       0.0954739491        -149.870801
          1.04e+10      0.0925872392        -136.388853        0.970505676        -53.6434393        0.970505676        -53.6434393       0.0935198257        -154.220139
          1.05e+10      0.0900749275        -139.888941        0.970534798        -57.6414021        0.970534798        -57.6414021       0.0910137157         -158.64973
          1.06e+10      0.0870200276        -143.304704        0.970603267        -61.6425063        0.970603267        -61.6425063       0.0879659602         -163.17391
          1.07e+10      0.0834368657        -146.617336        0.970704589        -65.6471579        0.970704589        -65.6471579       0.0843908755        -167.811625
          1.08e+10      0.0793441153        -149.801346        0.970831273        -69.6557088        0.970831273        -69.6557088       0.0803071153        -172.588244
          1.09e+10      0.0747653446        -152.821623        0.970974978        -73.6684466        0.970974978        -73.6684466       0.0757381979        -177.538326
           1.1e+10      0.0697298594        -155.628827        0.971126666        -77.6855874        0.971126666        -77.6855874       0.0707133214         177.290025
          1.11e+10      0.0642740745        -158.151884        0.971276787        -81.7072687        0.971276787        -81.7072687       0.0652686774         171.828097
          1.12e+10      0.0584438612        -160.285336        0.971415483        -85.7335444        0.971415483        -85.7335444       0.0594496833         165.974738
          1.13e+10      0.0522987883        -161.867147        0.971532804         -89.764381        0.971532804         -89.764381       0.0533149807         159.575755
          1.14e+10      0.0459202307        -162.638188        0.971618936        -93.7996568        0.971618936        -93.7996568       0.0469440052         152.386654
