!Keysight Technologies,N5247B,MY61255062,A.15.50.07
!Date: Wednesday, February 12, 2025 16:38:20
!Correction: S11(C  2-Port  ) 
!S21(C  2-Port  ) 
!S12(C  2-Port  ) 
!S22(C  2-Port  ) 
!S2P File: Measurements: S11, S21, S12, S22:
# Hz S  MA   R 50
500000000 5.205357e-006 -47.264282 0.00017460177 85.520073 0.00018086922 93.558929 1.3878901e-005 135.60197
600000000 3.0795865e-005 54.190559 0.00020746827 86.780457 0.0001944666 88.416306 1.5048901e-005 52.32621
700000000 9.3922235e-006 166.67305 0.00022919843 91.478386 0.00024259476 88.604469 2.425427e-005 -143.70413
800000000 1.8216082e-005 25.499748 0.00026662482 91.054062 0.00027706352 88.772545 3.0957035e-005 88.839233
900000000 6.4518399e-006 108.2241 0.00030186269 87.637741 0.00031670069 87.012413 1.9553558e-005 143.26248
1000000000 1.6565829e-005 105.36862 0.00034030908 87.545174 0.00033603466 90.042191 2.033772e-005 117.84663
1100000000 5.1009151e-006 53.381054 0.00039089608 88.41832 0.00038721625 90.57135 2.1736476e-005 147.07683
1200000000 2.4949988e-005 109.16807 0.00044193296 87.630127 0.00042868743 88.241066 1.3379526e-005 84.123444
1300000000 5.4590546e-006 48.774204 0.00047943881 89.58773 0.00047782864 88.219826 2.5093957e-005 121.85229
1400000000 7.3942624e-006 -10.708861 0.00051466434 89.647682 0.00051981246 88.181252 2.771531e-005 61.681492
1500000000 1.7106728e-005 125.86048 0.00060596108 87.753174 0.00059300818 87.922112 1.1961558e-005 148.10046
1600000000 2.0166919e-005 106.73737 0.00065709761 86.370934 0.00064020843 85.58065 2.6612468e-005 -177.11163
1700000000 2.0731826e-005 110.61651 0.00074423657 83.571671 0.00072085275 82.065964 2.2841874e-005 103.96066
1800000000 2.5741019e-005 101.39757 0.00080805348 78.568748 0.00080756046 77.613525 1.2823879e-005 -60.472973
1900000000 9.5477926e-006 92.705742 0.00090371026 68.023491 0.0009013185 67.547661 3.9494513e-005 88.281326
2000000000 2.3806357e-005 95.46373 0.00076914718 55.194824 0.00078909431 55.084061 1.8310029e-005 126.71157
2100000000 2.6801323e-005 74.259979 0.0006613172 50.780472 0.00065802154 50.883846 1.1666649e-005 103.08808
2200000000 4.1192605e-005 119.87144 0.00052835105 49.032688 0.00051167415 49.968864 2.4477109e-005 60.212696
2300000000 5.2282645e-005 62.07933 0.00038889484 75.068642 0.00038105989 75.184525 1.514397e-005 178.02983
2400000000 1.9410387e-005 129.07095 0.00052681728 92.615845 0.00052134949 90.461327 1.9587897e-005 107.85069
2500000000 1.2597261e-005 135.55286 0.00068137411 93.797066 0.00068315538 93.382858 6.8566205e-006 50.705761
2600000000 1.1647176e-005 20.133263 0.00076926261 89.207184 0.00076170475 87.780502 5.0794017e-005 87.218369
2700000000 2.2871411e-005 72.322639 0.00085479888 88.370392 0.00085989997 88.004227 3.8608418e-005 102.06268
2800000000 2.0286596e-005 169.57991 0.00099031639 83.265373 0.00096995739 82.466354 3.0748593e-005 46.485043
2900000000 5.2043772e-005 86.437447 0.00096865988 73.36837 0.00096762122 74.158173 2.4341474e-005 172.82944
3000000000 2.8968467e-005 123.97617 0.00095202989 69.204475 0.00093458232 70.663918 4.153372e-005 96.886467
3100000000 3.3791137e-005 59.385059 0.00079617265 68.769211 0.00079530739 69.599007 4.5829296e-005 136.57433
3200000000 3.2852669e-005 119.78034 0.00076740282 75.52195 0.00076790719 74.266197 5.2161053e-005 84.596977
3300000000 3.1332427e-005 116.93797 0.0008195276 82.428749 0.00082027965 81.472946 4.7602935e-005 71.816383
3400000000 2.7213091e-005 108.62895 0.00086178817 83.372131 0.00087875128 82.396606 3.415563e-005 109.76579
3500000000 2.8196049e-005 65.78495 0.00090918998 82.34523 0.00091226323 82.4888 9.1192313e-005 98.486252
3600000000 3.1832424e-005 77.031815 0.00092533766 84.510658 0.00093900284 83.694954 3.6183214e-005 82.848785
3700000000 3.859778e-005 87.311768 0.00095387554 80.993317 0.00092542521 81.177567 5.5328608e-005 97.253181
3800000000 3.6419213e-005 62.608295 0.00095045578 83.641884 0.00094632857 84.100876 7.8624682e-005 91.217758
3900000000 7.1216709e-005 55.937061 0.00097026979 85.531723 0.00096865551 85.14959 8.851348e-006 13.423833
4000000000 3.30652e-005 113.06905 0.00099494809 85.857483 0.00099005539 86.083916 4.456141e-005 90.405022
4100000000 4.6697263e-005 77.660042 0.0010231228 87.878944 0.0010422405 87.817703 4.8136193e-005 101.72883
4200000000 5.4681896e-005 95.547333 0.0010547478 88.079124 0.0010670426 87.662872 7.0746115e-005 69.313095
4300000000 3.3453129e-005 81.042145 0.0010942557 88.680443 0.0011101787 88.336021 6.1484396e-005 95.359283
4400000000 2.6614482e-005 136.13194 0.0011407404 89.138191 0.0011148779 88.868141 7.8631558e-005 77.58316
4500000000 4.5925768e-005 90.796776 0.0011824843 88.271523 0.0011718731 89.793579 4.4244396e-005 82.684525
4600000000 5.0803726e-005 91.137589 0.0011987514 89.581902 0.0011855668 89.409241 8.2556799e-005 108.56319
4700000000 3.1216852e-005 43.518238 0.001210542 89.878387 0.0012251138 90.6838 8.4070882e-005 101.80439
4800000000 3.3500633e-005 107.30834 0.0012381116 89.708076 0.0012346284 90.540878 8.8798202e-005 128.07004
4900000000 5.8672271e-005 92.78643 0.0012534593 90.063614 0.0012765886 90.914948 7.0947339e-005 91.26252
5000000000 3.395e-005 92.177834 0.0013288558 92.095177 0.0013055785 91.018089 4.7491656e-005 127.97275
5100000000 5.3766322e-005 40.912212 0.0013157326 90.868599 0.001339482 91.047859 3.7385787e-005 54.989132
5200000000 4.6522437e-005 83.459526 0.0013885265 91.944588 0.0013769134 90.893272 5.7282024e-005 89.770576
5300000000 2.1504316e-005 118.23825 0.0014186099 91.343391 0.0014308309 91.426842 8.8543326e-005 93.971642
5400000000 6.348735e-005 102.79837 0.0014311431 91.274765 0.0014550983 91.394226 8.4852581e-005 84.263542
5500000000 5.5131684e-005 76.109283 0.0014907705 91.38575 0.0014760183 91.856056 5.4231114e-005 126.32529
5600000000 6.1492523e-005 91.954338 0.0015178114 91.175735 0.0015065434 91.506035 6.6581066e-005 95.312088
5700000000 2.4376144e-005 15.904262 0.0015173034 91.529716 0.0015164346 91.344452 5.152771e-005 98.691238
5800000000 5.7452118e-005 93.494141 0.001548596 92.402733 0.0015576261 91.889313 5.0172344e-005 109.61334
5900000000 4.3712909e-005 117.46462 0.0015941991 92.595665 0.0015930535 91.717896 3.1506173e-005 94.041534
6000000000 5.7940575e-005 77.153496 0.0016199942 92.691513 0.0016024144 92.785065 5.444113e-005 85.731194
6100000000 7.4006122e-005 72.506927 0.0016501526 93.098267 0.0016566599 92.368767 6.1568186e-005 120.08437
6200000000 6.0810289e-005 71.371124 0.0016800669 92.215935 0.0016768675 92.607513 7.2776122e-005 75.771957
6300000000 4.1787025e-005 86.425156 0.0017160075 92.772133 0.0017211606 92.721619 9.8205703e-005 83.07766
6400000000 7.6247677e-005 97.054642 0.0017413429 92.658913 0.0017287529 92.881714 4.9505223e-005 95.370476
6500000000 7.6108758e-005 87.994438 0.0017753562 92.97271 0.0017693866 92.805527 9.5649237e-005 84.477615
6600000000 5.7566616e-005 108.53461 0.0018002804 93.327431 0.0017974974 92.797424 9.0615278e-005 116.37774
6700000000 5.9775233e-005 92.967247 0.0018335377 93.058525 0.0018394376 93.223068 4.4329627e-005 109.83912
6800000000 5.6465728e-005 90.969711 0.0018558399 93.294937 0.0018455099 93.331306 6.0933908e-005 101.11182
6900000000 5.9317037e-005 88.800537 0.0018739917 93.737595 0.0019004934 93.883247 6.6506349e-005 63.725147
7000000000 6.1615283e-005 101.22964 0.0019220781 93.536972 0.0019380186 94.096855 9.4358089e-005 95.247444
7100000000 7.1942595e-005 65.643303 0.0019619106 94.040367 0.001949566 93.92292 7.193393e-005 67.286049
7200000000 7.6859673e-005 66.568321 0.0019923984 93.966072 0.0020008183 93.895035 9.2023787e-005 96.845352
7300000000 9.7155433e-005 72.055779 0.0020127923 93.886955 0.002031883 93.990982 7.9063502e-005 90.611412
7400000000 7.2100898e-005 108.89175 0.0020532764 94.42923 0.0020477297 94.158043 6.8530389e-005 112.2255
7500000000 6.4436688e-005 79.374916 0.0020993697 94.382706 0.0020891211 94.109787 6.156796e-005 98.170685
7600000000 9.0530986e-005 100.11806 0.0021221505 94.106163 0.0021332409 93.921471 8.7678585e-005 114.12092
7700000000 7.7618788e-005 96.582603 0.0021518827 94.200142 0.0021607399 94.075264 8.3253581e-005 89.088882
7800000000 0.00010929847 106.04369 0.0021614782 94.494377 0.0021998361 94.942352 0.00010246911 93.00547
7900000000 6.8310786e-005 79.369682 0.0022426627 94.166985 0.0022383749 94.038979 9.5355419e-005 76.162483
8000000000 6.6494773e-005 67.674904 0.0022478292 94.471489 0.0022649874 94.848022 9.5226402e-005 103.90015
8100000000 3.7648217e-005 69.575279 0.0023180128 94.873398 0.0023057456 94.950478 0.00010726583 86.652199
8200000000 0.00010495609 82.567963 0.002323963 95.093712 0.002360896 94.944023 0.00012455252 102.5134
8300000000 6.6230088e-005 122.46626 0.002406155 94.864014 0.0023919269 94.976425 7.0767906e-005 92.257843
8400000000 9.0481677e-005 104.63474 0.0024159076 94.820602 0.0024408218 94.092674 0.00011873693 92.455727
8500000000 4.8252903e-005 112.07363 0.0024619766 94.726974 0.0024730915 94.414215 9.1058915e-005 81.651016
8600000000 0.0001026372 93.992683 0.0025255692 94.215424 0.0025319532 94.255478 0.00011700708 95.116974
8700000000 9.0179208e-005 100.38416 0.0025841636 94.102005 0.0025595175 92.9748 0.00011440035 80.761513
8800000000 7.2719427e-005 103.07442 0.0025826988 92.290779 0.0025752299 92.864151 0.00012104814 89.896957
8900000000 8.7062566e-005 84.101883 0.0025917585 93.113487 0.0025883897 93.093742 0.000105219 88.844833
9000000000 6.8619789e-005 72.211906 0.0026210714 93.448761 0.002613364 93.233147 0.000116546 76.534821
9100000000 9.5575153e-005 93.203384 0.0026637453 92.755264 0.0026728737 93.19194 9.5761323e-005 104.3095
9200000000 9.6738739e-005 78.290146 0.0026994115 92.698029 0.0026823361 92.78508 0.00011516145 108.85588
9300000000 0.00012638804 104.1367 0.0027327305 92.580849 0.0027379729 92.650429 0.00010030812 77.277451
9400000000 0.00010271036 87.689278 0.0027751529 92.179062 0.0027335172 92.187386 8.8648456e-005 63.465038
9500000000 7.1784118e-005 112.54247 0.0027712884 91.845947 0.0027617684 91.601837 0.00013494547 85.625366
9600000000 0.0001040566 92.781326 0.0027509229 92.242226 0.00278001 91.62738 9.3751885e-005 87.669518
9700000000 5.631895e-005 81.516167 0.0027589931 91.551361 0.0027794268 92.046776 0.0001198645 80.225952
9800000000 9.8272445e-005 70.346161 0.0028149034 91.816536 0.0028216983 92.237312 0.00011017543 95.556419
9900000000 0.00011889773 91.554543 0.0028207952 92.258354 0.002831792 92.208664 0.00013534803 88.961456
10000000000 9.5795484e-005 80.955276 0.0028510739 92.981827 0.0028387983 93.120819 0.00011979284 89.670197
10100000000 9.5348245e-005 81.686676 0.0028878539 92.855156 0.0029053744 92.999817 0.00011708576 98.736496
10200000000 9.8111559e-005 107.103 0.0029361609 92.249359 0.0029736434 91.948524 7.0192254e-005 96.927628
10300000000 9.0534275e-005 112.40025 0.0029572509 91.133995 0.0029958216 91.679459 0.00012800342 95.316681
10400000000 0.00010242438 80.764038 0.0029869108 91.012764 0.0030003365 91.429817 0.00013071933 94.231712
10500000000 8.5831576e-005 102.1713 0.0029866176 91.226395 0.0029644922 91.217834 0.00019762431 87.158348
10600000000 8.6120424e-005 71.911896 0.0029974917 91.255478 0.0029949809 90.908455 0.00011281824 74.180565
10700000000 7.049588e-005 96.139511 0.0030012412 91.300598 0.003012836 91.177711 0.00020000146 98.045029
10800000000 0.0001115714 99.596252 0.0030100255 91.408119 0.0029978862 91.04496 0.00014581827 93.224831
10900000000 0.0001047456 76.149315 0.003044605 92.296425 0.0030476523 91.815086 0.00010838459 84.427307
11000000000 8.694471e-005 81.180656 0.0030336031 92.133049 0.0030389663 91.909126 0.0001071029 106.63876
11100000000 0.00010240947 110.2525 0.003064425 91.850388 0.0030926692 92.359581 0.00013675936 89.615211
11200000000 0.00010744368 84.614433 0.0030810251 91.835258 0.0030905902 91.903671 0.00011265006 84.228477
11300000000 0.0001145057 101.11022 0.0030712539 92.338142 0.0031178754 91.984779 0.00014698076 80.569008
11400000000 0.00010506606 66.58284 0.0031233896 93.095436 0.0030981393 92.322624 0.00017175825 96.855461
11500000000 0.00011238993 108.86549 0.0031461385 92.508621 0.0031461869 93.005577 0.0001576654 91.512077
11600000000 0.00011306549 109.7121 0.0031411864 93.565979 0.0031715077 93.43779 0.00016755761 104.97395
11700000000 0.00010661564 78.095886 0.0031876657 93.487358 0.0032085921 93.384773 0.00018683361 96.054314
11800000000 8.9700749e-005 59.809933 0.0031927419 94.230347 0.0032143178 93.883575 0.0001929492 99.926521
11900000000 0.00010084894 88.387291 0.0032446911 94.207825 0.0032510287 94.119797 0.00015352698 94.183563
12000000000 0.0001309613 85.56514 0.0032886278 94.549004 0.0032550292 94.033607 0.0001388981 86.119476
12100000000 0.00014141787 82.435822 0.0032932854 94.144867 0.0033087784 94.433022 0.00014391307 90.212845
12200000000 0.00011286409 89.811348 0.0033283471 94.772186 0.0033231827 94.66378 0.0001383287 87.589592
12300000000 0.00013503696 97.939583 0.0033957013 95.115211 0.0033633094 94.738937 0.00011217157 112.68606
12400000000 9.3331109e-005 62.812946 0.0034111356 94.909378 0.0034058914 95.191032 0.00017421128 86.371834
12500000000 0.0001204911 93.401222 0.0034487103 94.767609 0.0034292308 95.17392 0.00015159768 104.09906
12600000000 0.00010755371 94.143036 0.0034692907 95.482246 0.0034775792 95.01635 0.00014878002 73.712967
12700000000 0.0001158584 90.32975 0.003507877 95.45887 0.0035021256 95.260605 0.00015584388 109.36424
12800000000 8.6112181e-005 62.580856 0.0035464787 95.234612 0.0035464258 95.339287 0.00013240818 88.856125
12900000000 0.00012601186 85.287689 0.0036055299 95.361687 0.003585638 95.332176 0.00015843833 97.344727
13000000000 0.00010607195 66.169899 0.0036410999 95.492432 0.0036193822 94.810844 0.00015612633 77.563698
13100000000 0.00014707239 94.345665 0.0036342093 95.073944 0.0036462974 95.274796 0.00018661768 88.603806
13200000000 0.00010346651 66.792725 0.0036560514 94.785408 0.003659721 94.804871 0.00016192213 74.129616
13300000000 0.00014099176 98.790955 0.0036833819 94.923393 0.0036616088 94.992714 0.00016697783 106.28739
13400000000 9.4732801e-005 91.9599 0.0036866574 95.022583 0.0036820162 95.453445 0.0001496301 93.770958
13500000000 0.00014501695 106.32632 0.003697885 95.399422 0.0037147133 95.393181 0.00019239055 112.24786
13600000000 0.00015512035 80.233734 0.0037395149 95.532761 0.0037426311 95.429001 0.00015732332 97.499245
13700000000 0.00012827016 105.89222 0.0037596836 95.847328 0.0037734415 96.112778 0.00014902557 100.87363
13800000000 0.00014694555 97.302139 0.0037991363 95.645653 0.0037988357 95.752335 0.00011701579 71.094902
13900000000 0.00014590485 88.517517 0.0038265921 96.062691 0.0038145254 95.744682 0.00016607267 85.318672
14000000000 0.00011735929 86.302673 0.0038435776 95.569511 0.0038603677 95.942764 0.00015695181 74.089607
14100000000 0.00018627253 82.182533 0.0038749853 96.234001 0.0038505383 95.950951 0.00019153357 107.62297
14200000000 0.00011245912 93.827858 0.0038980262 96.483887 0.0039192261 96.298256 0.00017096351 79.642921
14300000000 0.00018399397 103.53339 0.003918902 96.596298 0.0039161574 96.726624 0.00020228153 102.18177
14400000000 9.4701529e-005 109.30318 0.003941149 97.153778 0.0039665257 97.221115 0.0001355236 95.653023
14500000000 0.00013579337 95.531853 0.0040037571 97.255463 0.0040105209 97.517395 0.00018803436 89.003212
14600000000 0.00010064947 96.895302 0.0040588491 97.178177 0.0040472141 97.37545 0.00013786081 84.368904
14700000000 0.00013141691 92.553596 0.0041232384 96.956207 0.0040933415 97.356445 0.00016252474 95.515457
14800000000 8.3855979e-005 101.57438 0.0041452325 96.940796 0.0041572042 96.860672 0.0001347224 68.869621
14900000000 0.0001636555 90.574097 0.0041620689 97.209778 0.004128322 97.07608 0.00019183036 101.81625
15000000000 0.00013551515 79.206093 0.0041857865 96.898323 0.0041996446 96.64035 0.00021570883 102.01086
15100000000 0.00016889654 84.016815 0.0042106635 97.134544 0.0041725016 97.142555 0.00021270048 90.828758
15200000000 0.00016168792 106.52576 0.004252146 97.053589 0.0042640744 97.137192 0.00020115045 95.197838
15300000000 0.00017620125 85.592903 0.0042774044 96.890816 0.0042429422 97.028481 0.00014248304 103.16628
15400000000 0.00013579357 103.36645 0.0042567188 97.066925 0.0042687547 97.073997 0.00018827661 94.990746
15500000000 0.00012710835 96.075783 0.004307447 97.070457 0.0043123467 97.403275 0.00019340613 82.549492
15600000000 0.00015625024 96.284996 0.0043068049 97.688873 0.0043362649 97.713531 0.00020470114 80.146942
15700000000 0.00010289997 88.267677 0.0043676365 97.492531 0.0043635853 97.914238 0.0001512275 74.52301
15800000000 0.00011580549 91.082001 0.0043913778 97.821075 0.0044172485 97.957169 0.00023300544 88.259338
15900000000 0.00014043298 77.692383 0.0044076927 97.693123 0.0044060517 97.748405 0.00018826952 90.503349
16000000000 0.00015177215 109.04049 0.0044400487 97.87809 0.0044352701 97.875282 0.00021194533 93.849503
16100000000 0.00018085037 105.52122 0.0044351625 98.450592 0.004488647 97.908905 0.00017612459 91.616173
16200000000 0.00016233607 104.78709 0.0044853361 99.024498 0.0044702301 98.373459 0.00028493811 84.461243
16300000000 0.00019243811 92.928299 0.0045352853 98.809128 0.0045304201 98.974548 0.00012589562 96.40432
16400000000 0.000210162 95.884308 0.0045699207 99.54113 0.0045638043 99.44136 0.00020232078 93.544868
16500000000 0.00015702209 90.438919 0.0045910175 99.99482 0.0046544173 99.994125 0.00015663018 95.297775
16600000000 0.0001380145 71.279037 0.0046639945 100.67316 0.0046093124 100.61763 0.00021733587 77.950409
16700000000 0.00012882437 105.13446 0.0047030365 101.24725 0.0047462895 101.11448 0.00015722237 79.792786
16800000000 0.00017186093 90.972206 0.0048267865 101.91425 0.0048298333 101.9229 0.00026024811 93.905441
16900000000 0.00014057942 97.371536 0.0049281181 102.2816 0.0049440209 102.36874 0.00015060903 83.205452
17000000000 0.00012641553 96.204239 0.0051279995 102.0601 0.0051019448 102.34109 0.00019978023 91.941963
17100000000 0.0001559627 99.659302 0.0052679004 101.58796 0.005334619 101.24998 0.00015370152 95.866562
17200000000 0.0001920489 106.16814 0.0054752184 100.06895 0.0054708449 99.852188 0.00022038059 83.926544
17300000000 0.0002183764 80.947319 0.0055594584 98.401169 0.0055779614 98.151543 0.00016444533 82.756027
17400000000 0.00011872951 103.72324 0.0055750906 96.231674 0.0054964963 96.363426 0.00023892346 93.944489
17500000000 0.00019770882 63.415043 0.0054679452 95.385666 0.0055074287 95.444664 0.00017210476 95.715553
17600000000 0.00018810817 90.840897 0.0055066766 94.488937 0.005463392 94.581558 0.00025630792 88.845627
17700000000 0.00018744371 71.009392 0.005400863 94.235725 0.0054157856 94.29348 0.00018979178 85.747055
17800000000 0.00018045329 103.62508 0.0053396984 93.882172 0.0053487457 93.830864 0.00019312734 89.749191
17900000000 0.00022685365 80.368614 0.0053008678 93.71241 0.005311395 94.068153 0.00015174407 80.240158
18000000000 0.00020481698 108.72715 0.0053502214 94.044815 0.005297815 93.9608 0.00024517032 84.083565
18100000000 0.00014126558 72.477325 0.0052997661 93.795166 0.0053193858 93.827515 0.00024005951 83.869186
18200000000 0.00019493245 98.606308 0.0053275153 94.126251 0.0052404222 94.257141 0.00029665712 80.314369
18300000000 0.00018887666 85.43055 0.0053337393 94.421982 0.0053601824 94.198433 0.00019253499 95.162292
18400000000 0.00021148175 101.15386 0.0053248522 94.824333 0.0053206752 94.237907 0.00031836744 89.425316
18500000000 0.00020893183 90.500336 0.0053358898 94.515663 0.0053858189 94.637154 0.00023102245 99.944489
18600000000 0.00022085276 95.107094 0.0053545171 94.502304 0.005346206 94.334335 0.00025245245 101.04186
18700000000 0.00013667964 81.174637 0.0053956178 94.65432 0.0053863768 94.128365 0.00028927912 77.981659
18800000000 0.00017084857 96.775177 0.0054095932 94.413857 0.0053847986 94.437531 0.00025699678 96.511169
18900000000 0.00014547122 95.995125 0.005416729 93.580536 0.0053871162 93.768188 0.00030436344 73.013504
19000000000 0.00014161858 104.44908 0.0054205358 94.400673 0.0054300879 93.766853 0.00026585298 107.53175
