!Keysight Technologies,N5247B,MY61255062,A.15.50.07
!Date: Wednesday, February 12, 2025 16:39:18
!Correction: S11(C  2-Port  ) 
!S21(C  2-Port  ) 
!S12(C  2-Port  ) 
!S22(C  2-Port  ) 
!S2P File: Measurements: S11, S21, S12, S22:
# Hz S  MA   R 50
500000000 1.0002825 0.18977477 0.0001175437 89.273453 0.00012304728 89.751266 1.0011326 0.21784857
600000000 1.0002046 0.22803958 0.00015416754 92.091141 0.0001549508 87.313065 1.0013885 0.26490402
700000000 1.0001632 0.26736608 0.00018250976 90.208069 0.00017867709 86.482521 1.0014389 0.30507344
800000000 1.0001984 0.30710188 0.00019652089 89.004692 0.00020184566 88.933838 1.0014043 0.34517017
900000000 1.0002042 0.34315494 0.00022025568 85.601059 0.000233087 85.658501 1.0015272 0.38585895
1000000000 1.0002736 0.38291803 0.00024468577 90.079224 0.00024828882 89.436005 1.0016261 0.42513558
1100000000 1.000278 0.42040288 0.00027998083 90.298836 0.00026860676 90.083328 1.0016545 0.46452948
1200000000 1.0002509 0.45867532 0.00030445139 89.374168 0.00030327972 88.320816 1.0017399 0.50027204
1300000000 1.000281 0.49549454 0.00033113229 89.604378 0.00033416803 87.640312 1.0017735 0.54401654
1400000000 1.0002812 0.53338963 0.00036168334 89.083054 0.00035846888 90.12149 1.001703 0.57780021
1500000000 1.0002621 0.57094902 0.00041522583 87.652023 0.00040839706 89.35022 1.0016252 0.61222255
1600000000 1.0002922 0.60881501 0.00044074323 85.423759 0.00042825061 85.263008 1.0017467 0.64765155
1700000000 1.0003076 0.6478253 0.00047751397 83.724518 0.00048553036 85.128777 1.0018698 0.69161046
1800000000 1.0003119 0.68604356 0.00053160696 82.782013 0.00053465291 83.706589 1.0019658 0.73400086
1900000000 1.0003873 0.72802955 0.00058365474 78.40184 0.00059174927 81.276619 1.0019714 0.7746349
2000000000 1.0003837 0.76489657 0.0006247444 71.582512 0.00060940284 73.993042 1.0019693 0.80774772
2100000000 1.0004781 0.79994875 0.00065459707 65.744934 0.00064920128 65.707855 1.0020417 0.84508991
2200000000 1.0005523 0.83674562 0.00064461393 54.489532 0.00062498049 55.771854 1.0021442 0.88419753
2300000000 1.0005677 0.86740512 0.00046546126 35.449509 0.00047983666 37.704861 1.0021728 0.92053854
2400000000 1.000515 0.9039523 0.00022012467 67.275429 0.00020887586 67.015198 1.0020956 0.95552182
2500000000 1.0004786 0.938905 0.00042833222 104.31796 0.00043496437 103.50103 1.0022147 0.99759901
2600000000 1.0004623 0.97808665 0.00055293302 94.858078 0.00057307165 92.954407 1.0022451 1.0363396
2700000000 1.0004965 1.0167977 0.00066129031 92.290192 0.00066689309 92.33075 1.0023284 1.0755591
2800000000 1.0004987 1.056551 0.00077183841 84.963463 0.00077883463 85.806007 1.0023773 1.1161989
2900000000 1.0005054 1.0922351 0.00084118295 76.093697 0.0008465579 74.977577 1.0024017 1.1551358
3000000000 1.0005734 1.1310617 0.00083188328 69.500496 0.00084399333 67.542747 1.0024707 1.1923823
3100000000 1.0005462 1.1628469 0.00075174082 58.307281 0.00075058517 58.918327 1.0024689 1.2283473
3200000000 1.000602 1.2017998 0.00063540164 58.970715 0.00065137848 58.811501 1.002465 1.2631317
3300000000 1.0004749 1.2389672 0.00059979083 68.94297 0.00058414979 70.916924 1.0024326 1.3069613
3400000000 1.0004679 1.2795211 0.00059082673 71.987648 0.00060473749 73.857712 1.0025244 1.3448887
3500000000 1.000542 1.3156859 0.00065519213 74.259026 0.00062979769 75.18354 1.0026308 1.3907349
3600000000 1.000596 1.3552333 0.00067076203 74.319351 0.00065998134 74.15374 1.0025882 1.4223194
3700000000 1.000567 1.3902526 0.00069758104 72.367744 0.00068683602 73.77459 1.0026361 1.4618369
3800000000 1.0005773 1.4246637 0.00066134607 74.143906 0.00068351545 72.282005 1.0026805 1.4957614
3900000000 1.0005631 1.461177 0.00064807362 74.746231 0.00065879093 75.363968 1.0026137 1.5304732
4000000000 1.0005361 1.497889 0.0006642064 77.25856 0.00066316896 76.049713 1.0027565 1.5696893
4100000000 1.0005732 1.536979 0.00068615732 81.273346 0.00067328184 81.483978 1.0027403 1.6047426
4200000000 1.0005473 1.5727048 0.00069895707 81.014496 0.00071631075 82.877403 1.0026805 1.644542
4300000000 1.0005857 1.6128278 0.00072387757 83.335701 0.00072761549 83.902306 1.002722 1.6807709
4400000000 1.0005707 1.6506522 0.0007762938 83.854721 0.00075306825 84.855629 1.0027162 1.7176318
4500000000 1.0005498 1.6895694 0.00078264752 84.002518 0.00078564091 83.566101 1.0026588 1.7559122
4600000000 1.0004916 1.7262161 0.00080219732 84.318436 0.00078728504 84.961624 1.0026792 1.7915114
4700000000 1.0005069 1.764309 0.00080811372 85.93203 0.00080185634 84.740013 1.0026805 1.8315629
4800000000 1.000525 1.7982903 0.00083971658 86.789665 0.00082231418 86.661453 1.0027175 1.869632
4900000000 1.000559 1.8363487 0.00087738631 86.935028 0.00086809945 86.376892 1.0027528 1.9044524
5000000000 1.0005771 1.8706497 0.00086879212 88.550674 0.00089416758 88.221085 1.0027622 1.9383522
5100000000 1.0005847 1.9070116 0.00093664316 86.858017 0.00091929536 86.974602 1.0027698 1.9806281
5200000000 1.0006442 1.9469047 0.00095509645 88.439934 0.00096201804 88.003754 1.0027978 2.015496
5300000000 1.0005962 1.9849838 0.0009747268 87.381012 0.00096284732 87.548775 1.0027694 2.0566313
5400000000 1.0005741 2.0246913 0.00099661585 87.192505 0.00099613459 87.882156 1.0029006 2.0925574
5500000000 1.0005343 2.0610616 0.0010100178 88.531525 0.0010051273 88.737953 1.0028539 2.1286139
5600000000 1.0005602 2.0997055 0.0010169141 87.478813 0.0010357754 88.056969 1.0029314 2.1663213
5700000000 1.0004755 2.1330934 0.0010394529 87.332085 0.0010441437 88.089867 1.0029322 2.2052426
5800000000 1.0005525 2.1716774 0.001057822 89.519684 0.0010654241 87.60746 1.0030222 2.2397709
5900000000 1.0005114 2.2072248 0.0010963486 88.369377 0.0010957461 88.877678 1.0030351 2.2780821
6000000000 1.0005486 2.2436264 0.0011095342 89.191917 0.0011047201 88.910187 1.0030346 2.3147483
6100000000 1.0006377 2.2855072 0.0011318006 88.767815 0.0011362359 89.148132 1.0029931 2.3555832
6200000000 1.0007074 2.3195961 0.0011394103 88.449097 0.0011657835 88.780716 1.0031089 2.391454
6300000000 1.0006129 2.3643684 0.0011927388 89.293793 0.0011737602 89.017006 1.0030576 2.4306798
6400000000 1.0006453 2.4006464 0.0011964558 89.128494 0.0012187851 88.816803 1.0031625 2.4716368
6500000000 1.000612 2.4409044 0.0012195272 88.466972 0.0012052847 89.032913 1.0031399 2.5077059
6600000000 1.0006255 2.4759293 0.0012363889 88.605392 0.0012349065 89.469833 1.0032048 2.5427849
6700000000 1.0006392 2.5143483 0.0012541265 90.03923 0.0012711874 89.545746 1.0031987 2.5854445
6800000000 1.0006119 2.5475032 0.0012787733 89.398529 0.0012896053 88.346924 1.0031921 2.6184461
6900000000 1.0006018 2.5837214 0.0013109628 89.077316 0.0013157377 89.458229 1.0032042 2.6588206
7000000000 1.0006157 2.6206298 0.0013173709 90.025116 0.0013039031 89.803055 1.0032587 2.6968529
7100000000 1.0007286 2.6654899 0.0013352934 89.723915 0.0013344816 89.828323 1.0033116 2.739042
7200000000 1.0006987 2.7018576 0.0013723185 89.713844 0.0013739027 90.831573 1.0032881 2.7737255
7300000000 1.0006552 2.7491331 0.0013988483 89.941521 0.0013903845 90.9189 1.0033005 2.8104839
7400000000 1.0006253 2.7877431 0.0014235596 89.959061 0.0014279723 89.856621 1.0032848 2.8462722
7500000000 1.0005956 2.8209295 0.0014414648 89.882217 0.0014411755 89.97438 1.0033261 2.8815303
7600000000 1.0005405 2.8519304 0.0014712057 90.914986 0.0014489142 91.2799 1.0032752 2.9191594
7700000000 1.0006267 2.8870008 0.0015061417 90.856445 0.0014787375 90.136475 1.0034422 2.9559741
7800000000 1.0006179 2.9222705 0.0015142618 90.99057 0.0015293719 90.121735 1.0034132 2.9988539
7900000000 1.0007087 2.9591978 0.0015136605 90.191498 0.0015142035 91.509064 1.0034856 3.032583
8000000000 1.0007522 3.0018225 0.001552746 90.328148 0.0015556002 91.015373 1.0034093 3.0724151
8100000000 1.0007876 3.0427632 0.0015882346 91.029221 0.0015957346 90.775116 1.0034485 3.1068399
8200000000 1.0007962 3.0838401 0.0016230815 90.902138 0.0016347562 90.11525 1.0034354 3.149456
8300000000 1.0007457 3.1207535 0.0016423829 90.271301 0.001638437 90.373253 1.003369 3.1806865
8400000000 1.0008361 3.1533513 0.0016555876 90.035408 0.0016784264 90.186142 1.0034457 3.2160399
8500000000 1.0008893 3.1901801 0.0016999685 90.026031 0.001705887 90.08786 1.0034889 3.2543714
8600000000 1.0009093 3.2222416 0.0017210819 90.391762 0.0017031907 90.213425 1.0035521 3.2925618
8700000000 1.0009477 3.2450705 0.0017380451 90.389069 0.00173686 90.268677 1.0036912 3.3322334
8800000000 1.0007491 3.2646546 0.001780548 90.428612 0.0017740609 90.790077 1.0036848 3.3719373
8900000000 1.0005658 3.313879 0.0017930883 89.383835 0.0017847123 89.551079 1.0035223 3.4080906
9000000000 1.00059 3.3593504 0.0018075047 89.660583 0.0018238196 89.948677 1.0035946 3.453799
9100000000 1.000778 3.4142282 0.0018383084 88.869667 0.0018152678 89.13858 1.0035343 3.4792387
9200000000 1.0007451 3.4535563 0.0018327913 89.508698 0.0018397673 89.806831 1.0037184 3.51828
9300000000 1.0008074 3.4959984 0.0018623843 89.435745 0.0018813631 89.06675 1.0038171 3.5548899
9400000000 1.0007581 3.5261054 0.0018690922 88.827492 0.0018920732 89.591225 1.0040326 3.5973511
9500000000 1.0006961 3.5576153 0.0019258735 89.225052 0.001930517 89.690079 1.0039189 3.6309922
9600000000 1.0006402 3.5888829 0.0019678161 88.704071 0.0019560491 89.497795 1.0040668 3.6794298
9700000000 1.000742 3.6305687 0.0019874992 88.339104 0.00196258 89.207451 1.0039637 3.7155154
9800000000 1.0007007 3.6635141 0.0019969817 88.874107 0.0019811692 88.95256 1.0040292 3.7554114
9900000000 1.0008336 3.7053392 0.0020455362 88.768311 0.0020367422 88.932938 1.0040672 3.7906113
10000000000 1.0007238 3.748255 0.0020510075 87.964897 0.0020713902 88.458305 1.0041173 3.8232591
10100000000 1.0009021 3.7930257 0.0020934078 86.90097 0.0020977806 86.665794 1.0039954 3.856853
10200000000 1.0007949 3.8263228 0.0021092133 86.153542 0.0021183153 85.618988 1.0041331 3.8917406
10300000000 1.0008421 3.8658381 0.0020998062 84.880821 0.0020897209 84.934586 1.0041469 3.9375298
10400000000 1.000795 3.9020133 0.002085739 85.121933 0.0020633447 84.16671 1.0042152 3.9773006
10500000000 1.0008491 3.9357677 0.0020576175 84.53006 0.0020597309 85.311195 1.0041829 4.0231066
10600000000 1.0008571 3.9741862 0.0020769814 85.142227 0.002054842 84.66143 1.0042083 4.0507798
10700000000 1.0009481 4.0011716 0.0020481574 85.1633 0.0020774857 85.74382 1.0041356 4.0958014
10800000000 1.0009183 4.0453863 0.0020701592 85.929489 0.0020437257 85.400093 1.0040764 4.1231875
10900000000 1.0009229 4.0788679 0.0020520003 86.579773 0.0020449297 86.782791 1.0041367 4.1605301
11000000000 1.0009718 4.1224003 0.0020469022 87.5905 0.00207149 86.590584 1.0041491 4.197546
11100000000 1.0009706 4.1562004 0.0021185111 87.995255 0.0021116198 87.409767 1.0042597 4.236587
11200000000 1.0009238 4.195725 0.0021287077 86.665794 0.0021552043 87.377579 1.0042391 4.2717252
11300000000 1.0009067 4.2343001 0.0021383832 86.888405 0.002120543 86.851013 1.0042993 4.3209691
11400000000 1.0009167 4.2653484 0.0021468215 87.111328 0.002136894 87.226723 1.0042007 4.356986
11500000000 1.0008676 4.3017106 0.0021435739 87.876678 0.0021659192 87.799988 1.0042814 4.3803182
11600000000 1.0008579 4.3324361 0.0021454694 87.827507 0.0021715106 88.14019 1.0040699 4.4154782
11700000000 1.0008446 4.3712163 0.0021786753 88.776276 0.0022142795 88.229462 1.0040466 4.4530315
11800000000 1.0008249 4.4051147 0.0022156516 89.037437 0.0022163694 89.032852 1.0041215 4.4881248
11900000000 1.000842 4.4509625 0.0022539238 88.995514 0.0022424257 89.186043 1.0040909 4.5097075
12000000000 1.0008061 4.4822063 0.0022908193 89.899315 0.002250042 89.106247 1.0042576 4.5537505
12100000000 1.000771 4.5247951 0.0023100604 88.833153 0.0023260263 89.313683 1.0042232 4.5834217
12200000000 1.0007874 4.5545702 0.0023368087 89.184074 0.0023472277 89.727341 1.004181 4.6317401
12300000000 1.0009958 4.5948577 0.0023800854 89.458359 0.0023729161 89.322678 1.0041378 4.6517844
12400000000 1.0007972 4.630816 0.0023988266 89.039452 0.0023934941 89.075829 1.0041223 4.6990638
12500000000 1.0010014 4.6662965 0.0024074605 89.39653 0.0024026544 89.035965 1.0040092 4.7213378
12600000000 1.0007986 4.7054982 0.0024426775 88.570984 0.0024347426 88.838417 1.0039886 4.7636614
12700000000 1.0009822 4.7391348 0.0024620327 88.346725 0.0024526012 88.941643 1.0040456 4.7837896
12800000000 1.0008534 4.7745199 0.002481428 88.036957 0.0024932737 87.716606 1.0041046 4.8231511
12900000000 1.0009435 4.8093991 0.002481 87.300438 0.0025050887 86.787804 1.0040742 4.8446155
13000000000 1.0008203 4.8494253 0.0024585426 86.474411 0.0024454319 86.153625 1.0040457 4.8829932
13100000000 1.0010064 4.8799486 0.0023913283 87.482338 0.0023907018 87.306953 1.0037471 4.9198713
13200000000 1.0008539 4.9272351 0.0024028178 88.665253 0.0023992097 88.572136 1.0035791 4.9668827
13300000000 1.0008743 4.9614062 0.0024353734 89.597542 0.002409633 89.870789 1.0035864 5.0118742
13400000000 1.000872 5.0111303 0.0024779094 90.543533 0.0024534264 90.033646 1.0037107 5.059988
13500000000 1.0008588 5.034852 0.0025113211 89.895638 0.0024873633 90.363014 1.0035849 5.0848989
13600000000 1.0009011 5.0860662 0.002537492 90.962196 0.002528942 91.025543 1.0038292 5.1404943
13700000000 1.0008551 5.1138287 0.0025621084 90.604042 0.0025687139 91.52607 1.0039884 5.1703897
13800000000 1.0008614 5.1591797 0.0025961525 90.850044 0.0025896693 90.510384 1.0039258 5.2135773
13900000000 1.0007948 5.1917715 0.0026240244 90.908348 0.0025939939 89.907135 1.0039811 5.2542496
14000000000 1.0008922 5.2342048 0.0026307225 89.972603 0.0026417081 90.690689 1.0040588 5.2943254
14100000000 1.0009086 5.2715545 0.0026366794 90.343529 0.0026348389 90.573196 1.004007 5.3352957
14200000000 1.0010504 5.3129649 0.002678328 91.141678 0.0026601313 91.260498 1.0041161 5.3678017
14300000000 1.0009799 5.3540683 0.0026804791 90.995819 0.0027059889 91.518959 1.0040768 5.3977952
14400000000 1.0010364 5.3913035 0.0027059456 91.396194 0.0027032401 91.884598 1.0041606 5.4253821
14500000000 1.0010182 5.4359694 0.0027251171 91.913986 0.002732815 91.836372 1.0040972 5.4674354
14600000000 1.0009296 5.4663024 0.0027591458 91.695595 0.0027590191 91.792549 1.0040985 5.5027471
14700000000 1.0009112 5.504149 0.0027964604 91.834236 0.0027625682 91.775406 1.0040241 5.5456243
14800000000 1.0009241 5.5339255 0.002818116 91.814789 0.0028368828 91.854668 1.0039847 5.577826
14900000000 1.0010349 5.5720558 0.0028326788 91.786369 0.0028345995 92.4617 1.0039908 5.6246128
15000000000 1.0010058 5.6049051 0.0028683594 92.515892 0.0028659238 91.984978 1.0039487 5.6606498
15100000000 1.0011895 5.6453838 0.0028675364 92.121368 0.0028879463 91.465424 1.0040462 5.7114506
15200000000 1.0011297 5.6857615 0.0029043027 91.639999 0.0028827658 92.44017 1.0039206 5.7350054
15300000000 1.0011848 5.7206898 0.0028866206 91.964516 0.0029040936 92.31588 1.0039719 5.7711606
15400000000 1.0009694 5.7683396 0.0029259578 92.648697 0.0029066834 92.040779 1.0039928 5.8034024
15500000000 1.0011899 5.7933769 0.0029317392 92.686363 0.0029276619 92.492538 1.0041052 5.8401971
15600000000 1.0010239 5.8352418 0.002945788 92.939285 0.0029442867 93.575714 1.0040547 5.889801
15700000000 1.0010656 5.8593636 0.0029938268 93.812477 0.002988128 93.871704 1.0041364 5.9255509
15800000000 1.0009782 5.9054003 0.0030214461 94.667686 0.0030615947 94.311234 1.0040805 5.9689341
15900000000 1.0010563 5.9293885 0.0030818379 94.640358 0.003070025 94.405212 1.0041983 6.0009212
16000000000 1.0010924 5.9809856 0.0031176717 95.10804 0.0031158815 94.82225 1.0040491 6.0458603
16100000000 1.0011098 6.0039897 0.0031587537 95.302956 0.0031927924 94.754601 1.004298 6.0742931
16200000000 1.0012479 6.0640941 0.0032024831 95.390808 0.0032279247 95.434425 1.0041668 6.1184297
16300000000 1.00107 6.0881519 0.0032703031 95.131943 0.003300617 95.244667 1.0043346 6.1516767
16400000000 1.0012221 6.1363678 0.0033326603 94.898994 0.0033385525 94.691399 1.004181 6.1855788
16500000000 1.0009789 6.1627355 0.0033539163 94.595459 0.0033766374 94.201721 1.0043492 6.2193866
16600000000 1.0012186 6.2070341 0.0034232913 94.191795 0.0034151722 94.874115 1.0044472 6.2712207
16700000000 1.001119 6.2388043 0.0034879721 95.043739 0.0034761126 94.699867 1.0043776 6.304667
16800000000 1.0012407 6.2793036 0.0035568771 94.415321 0.0035335282 94.38501 1.0044535 6.3539801
16900000000 1.001218 6.318327 0.0036433225 93.880943 0.0036618963 93.416878 1.004424 6.3870988
17000000000 1.0015709 6.3553433 0.0037245466 92.560387 0.0037285886 92.399582 1.0047281 6.4240932
17100000000 1.0015873 6.3926344 0.0037602424 90.358109 0.0037573187 91.146942 1.0048065 6.4579697
17200000000 1.0018532 6.4240975 0.0037123291 89.307816 0.0037337129 89.372719 1.0049306 6.4850068
17300000000 1.0017335 6.4696455 0.0036669022 88.169449 0.0036208057 88.103928 1.0049189 6.5096092
17400000000 1.0018101 6.4966516 0.0036429802 88.317703 0.0036244495 89.057335 1.0049154 6.5581722
17500000000 1.0017306 6.5310402 0.0035690132 88.607513 0.0036047923 89.072388 1.0047863 6.5936127
17600000000 1.0016387 6.5584679 0.0036307538 89.187317 0.0035918958 89.07972 1.0048968 6.6380224
17700000000 1.0016778 6.5924935 0.003578519 88.424393 0.0035859856 88.751701 1.0048738 6.6740417
17800000000 1.0016532 6.6246958 0.0036053907 89.951584 0.0035753944 89.095894 1.004915 6.706593
17900000000 1.0015409 6.6570263 0.0035541358 89.300293 0.0035985163 89.132286 1.0048379 6.7501345
18000000000 1.001536 6.7088609 0.003604969 89.4161 0.0036351059 89.306488 1.0048629 6.7822971
18100000000 1.0015799 6.7375879 0.0036164476 89.284813 0.003616666 89.048767 1.00489 6.8296289
18200000000 1.0015889 6.7827973 0.0036435022 89.113907 0.0035953587 89.199265 1.0048673 6.8589077
18300000000 1.001593 6.8100758 0.0036473845 90.082222 0.0036243431 90.354027 1.0048124 6.9022007
18400000000 1.001583 6.8620515 0.003681394 90.120476 0.0036466576 89.176712 1.004934 6.9379349
18500000000 1.001421 6.8823576 0.0037082201 90.743378 0.0036834241 90.894669 1.0049534 6.9832239
18600000000 1.0016085 6.9323144 0.0037408788 90.722084 0.0037008834 90.286758 1.0046632 6.9950056
18700000000 1.0013911 6.9566836 0.0037929034 90.26989 0.0037763477 90.803368 1.0047837 7.0572038
18800000000 1.001604 6.9946556 0.0037938934 89.561195 0.0038161827 89.585808 1.0048009 7.076817
18900000000 1.0014296 7.0256739 0.0038324008 89.738091 0.0038251865 89.023392 1.0047607 7.125412
19000000000 1.0017486 7.0609708 0.0037617506 89.539093 0.0038171029 89.02713 1.0045792 7.1529279
19100000000 1.0015296 7.0925031 0.0037918184 89.015152 0.0037609262 89.029602 1.0045233 7.1936064
19200000000 1.0019062 7.1274886 0.0037656729 89.483536 0.0037199724 89.780083 1.0043702 7.2231259
19300000000 1.0016202 7.1807461 0.0037531927 89.120506 0.003749704 89.679779 1.0044906 7.2516103
19400000000 1.0018275 7.2123914 0.0037706206 89.252983 0.0037707309 89.468468 1.0044399 7.2809834
19500000000 1.001364 7.2666168 0.0036799042 90.056099 0.0037684168 89.887161 1.0046451 7.3214412
19600000000 1.0014999 7.2950735 0.0037580098 90.128914 0.0037348277 90.488327 1.0044239 7.3610215
19700000000 1.0011675 7.3225307 0.00380036 90.71521 0.0037766211 91.866112 1.0044123 7.3986444
19800000000 1.0014095 7.3400493 0.0037723421 91.654755 0.0037958268 91.886047 1.0042309 7.441298
19900000000 1.0015646 7.3877845 0.0038143154 92.561089 0.0037986434 92.129898 1.0043124 7.4771047
20000000000 1.0016943 7.414331 0.0038792852 93.088425 0.0038529465 93.254692 1.0040289 7.5074143
20100000000 1.0017855 7.480279 0.0039585852 93.404922 0.0039348602 93.509132 1.0042101 7.5395641
20200000000 1.0018278 7.5133719 0.003959578 93.241898 0.0039771041 92.979881 1.0040755 7.5723414
20300000000 1.0018159 7.5750222 0.0039650095 93.888756 0.0039758757 93.409866 1.0042645 7.6116014
20400000000 1.0015357 7.6000233 0.0040493868 93.635155 0.0040498981 93.999702 1.004227 7.6457481
20500000000 1.0015415 7.6304955 0.0040789377 93.850082 0.0040559806 93.837753 1.0044481 7.6962051
20600000000 1.0012991 7.6568122 0.0040834136 94.914001 0.0040726 94.043335 1.0042905 7.7417412
