!Keysight Technologies,N5247B,MY61255062,A.15.50.07
!Date: Wednesday, February 12, 2025 16:43:45
!Correction: S11(C  2-Port  ) 
!S21(C  2-Port  ) 
!S12(C  2-Port  ) 
!S22(C  2-Port  ) 
!S2P File: Measurements: S11, S21, S12, S22:
# Hz S  MA   R 50
500000000 1.0001205 179.93544 0.00023751453 87.171341 0.00024560877 83.669106 1.0011644 179.95052
600000000 0.99998134 179.9241 0.0002890804 87.411003 0.00028595282 84.559868 1.0010388 179.93164
700000000 0.99992561 179.91028 0.00032619725 85.917793 0.00034273113 84.096672 1.0011474 179.91862
800000000 0.99994391 179.89478 0.00036895237 87.591064 0.00036692328 84.274246 1.0011532 179.903
900000000 0.99980432 179.88211 0.00041132784 86.75605 0.00042110693 85.521439 1.0011963 179.88745
1000000000 0.99985802 179.87172 0.00045891406 86.030823 0.00046706074 85.620605 1.0011467 179.87218
1100000000 0.99985635 179.86319 0.00049433479 86.23584 0.0005146818 85.84053 1.0012593 179.85709
1200000000 0.9997794 179.85336 0.00055009272 87.280174 0.00054143352 85.760292 1.0013584 179.84529
1300000000 0.99990624 179.84024 0.00058641174 86.51902 0.00058396952 85.850037 1.0013176 179.82813
1400000000 0.99984837 179.82462 0.00062592019 86.262802 0.00062796805 85.422379 1.001314 179.81761
1500000000 0.99981225 179.81174 0.00066426233 86.846283 0.00067181379 87.818405 1.0013779 179.80417
1600000000 0.99985605 179.80128 0.00072016456 87.520935 0.00070561847 87.175262 1.0014451 179.7933
1700000000 0.99981827 179.78877 0.00074711634 88.242233 0.00075764529 88.445061 1.0013727 179.7755
1800000000 0.99987817 179.78065 0.00079398724 88.144699 0.00080789113 88.735405 1.0012996 179.75771
1900000000 0.99979466 179.76552 0.00084395742 89.0485 0.00083536137 89.082733 1.0013142 179.74313
2000000000 0.99984252 179.75006 0.00089592714 89.364975 0.00090602034 88.967979 1.0014545 179.73438
2100000000 0.99982733 179.73854 0.00094525295 88.284264 0.00094977749 89.067238 1.0014014 179.7178
2200000000 0.99985415 179.72791 0.001000624 88.785149 0.0009994657 88.474937 1.0014712 179.70351
2300000000 0.99981308 179.72 0.0010285261 87.45504 0.001048584 87.305077 1.0014832 179.68758
2400000000 0.9997986 179.70906 0.0010763555 87.904945 0.0010610088 87.633896 1.0014464 179.67397
2500000000 0.99981135 179.69652 0.0011016435 87.41227 0.001110836 87.313515 1.001416 179.65497
2600000000 0.999816 179.68159 0.0011408956 88.522568 0.001150966 87.824196 1.001469 179.64217
2700000000 0.9998157 179.67131 0.0012018116 88.247627 0.001199665 87.918343 1.0014663 179.62756
2800000000 0.99984252 179.65543 0.0012439172 89.155914 0.0012289834 89.543556 1.0015129 179.60942
2900000000 0.99986219 179.64369 0.0012833095 88.742004 0.0012938536 89.362396 1.0015087 179.59448
3000000000 0.99982947 179.63239 0.0013309468 90.052986 0.0013225586 89.095833 1.0015775 179.58168
3100000000 0.99982572 179.62146 0.0014054909 88.578926 0.0014022922 88.913284 1.0016183 179.56644
3200000000 0.99984092 179.60867 0.0014431449 87.973198 0.0014288076 88.931961 1.0015993 179.55588
3300000000 0.99978149 179.5995 0.0014563745 88.643547 0.0014783568 88.095329 1.0016207 179.535
3400000000 0.9998042 179.58305 0.0015115396 88.143196 0.0015135657 88.758209 1.0015725 179.5201
3500000000 0.99987781 179.56924 0.0015635017 88.082314 0.0015513542 88.590576 1.0015178 179.50108
3600000000 0.9998486 179.5585 0.0016052707 88.584465 0.0016108042 88.547539 1.0016365 179.49046
3700000000 0.99993271 179.54874 0.0016339486 89.158234 0.0016535978 88.560555 1.0016234 179.47504
3800000000 0.99981451 179.53439 0.0017006327 88.476051 0.0016988869 88.266556 1.0016639 179.46094
3900000000 0.99986422 179.51949 0.0017375832 88.415863 0.0017281027 88.005653 1.0016967 179.44829
4000000000 0.99985635 179.51314 0.0017758334 88.458389 0.0018030198 87.931114 1.0017284 179.43317
4100000000 0.99983239 179.5002 0.0018016046 88.26429 0.0018324893 87.979622 1.0016923 179.42174
4200000000 0.99981457 179.48822 0.0018832488 88.154274 0.0018655391 87.908012 1.0017118 179.40656
4300000000 0.99979663 179.47754 0.0019217234 88.530235 0.0018896316 88.303505 1.0017183 179.39159
4400000000 0.99980414 179.46417 0.001941792 88.638184 0.0019406147 88.583801 1.0018555 179.37511
4500000000 0.99978578 179.44745 0.0019681568 88.432838 0.0019824898 88.366417 1.0018661 179.35893
4600000000 0.99986213 179.44022 0.0020343335 88.7808 0.0020341564 88.388252 1.0018729 179.34328
4700000000 0.99994177 179.42906 0.002072125 88.535324 0.002056214 88.541153 1.0019594 179.33194
4800000000 0.99994129 179.41754 0.0021303957 88.535751 0.0021233119 88.883453 1.001927 179.31485
4900000000 0.99993843 179.40594 0.0021522979 88.884224 0.0021681197 88.81797 1.0019573 179.30481
5000000000 0.99984658 179.39796 0.0021843726 87.80529 0.0022144711 88.668167 1.0019189 179.29021
5100000000 0.99982136 179.38606 0.0022072797 89.470688 0.0022261261 88.163918 1.0019436 179.27522
5200000000 0.99979806 179.36945 0.0022756604 88.995087 0.0022671972 88.802658 1.0019579 179.25949
5300000000 0.99979979 179.35629 0.0023192607 88.583931 0.0023194382 89.521118 1.0020605 179.24139
5400000000 0.99976462 179.34276 0.0023524277 88.895721 0.0023775233 88.852859 1.0020137 179.22404
5500000000 0.999717 179.3318 0.0024076235 89.11689 0.0024077287 89.243195 1.002073 179.21211
5600000000 0.99975657 179.31738 0.0024323333 88.634819 0.0024387534 88.776764 1.0020498 179.19879
5700000000 0.9998194 179.30916 0.0024756854 89.391006 0.0024746174 88.536484 1.0020701 179.18481
5800000000 0.99977583 179.2942 0.0025254921 88.918831 0.0025231866 88.997147 1.0019709 179.17221
5900000000 0.99985904 179.28786 0.0025554677 89.233818 0.0025603969 88.852242 1.0020232 179.15503
6000000000 0.99979633 179.27618 0.0026025497 89.013412 0.0026070138 88.934654 1.0020139 179.14056
6100000000 0.99981713 179.26154 0.0026566118 89.1931 0.0026457794 89.461761 1.0021013 179.12306
6200000000 0.9996928 179.24797 0.0027146204 89.318939 0.0026918673 88.967873 1.0020823 179.10725
6300000000 0.9998194 179.22804 0.0027270969 88.746681 0.0027297935 89.597305 1.0020518 179.08569
6400000000 0.99975032 179.21484 0.0027733131 88.862221 0.0027808519 88.719681 1.0020107 179.07291
6500000000 0.99985528 179.2036 0.0028462934 89.572029 0.0028238466 89.197746 1.002075 179.05464
6600000000 0.99976891 179.19672 0.0028424324 89.316368 0.0028646449 89.536476 1.0020864 179.04662
6700000000 0.99994421 179.18164 0.0029019113 89.551613 0.002903305 89.146683 1.0020837 179.02747
6800000000 0.99999326 179.18353 0.0029237284 89.570755 0.0029477046 89.708939 1.002133 179.01701
6900000000 0.99996769 179.1664 0.002974641 89.781273 0.0029831973 89.340958 1.0020151 178.99794
7000000000 0.99983746 179.15817 0.0030310573 89.482697 0.0030192561 89.498352 1.0020189 178.98076
7100000000 0.9997232 179.13635 0.0030430241 89.594505 0.0030665575 89.573662 1.001976 178.95944
7200000000 0.99976283 179.12198 0.003086742 89.755127 0.0031111983 89.510902 1.0020505 178.94501
7300000000 0.99976951 179.1011 0.0031380174 89.875954 0.0031513278 89.621391 1.0020547 178.93254
7400000000 0.99985325 179.09084 0.0031964283 89.881676 0.0031784035 89.61367 1.0021074 178.92072
7500000000 0.99986076 179.08133 0.0032177826 89.988426 0.0032075353 89.977585 1.0020884 178.9093
7600000000 0.9999398 179.07889 0.0032513426 90.146797 0.0032746487 89.778694 1.0021876 178.89622
7700000000 0.99991506 179.07156 0.0033127046 89.96199 0.0032880018 90.300598 1.0020807 178.87729
7800000000 0.99997693 179.06322 0.0033566738 90.55793 0.0033354249 90.568451 1.0021201 178.85773
7900000000 0.99985212 179.04674 0.0033827017 90.31752 0.0033814765 90.102234 1.0021039 178.83713
8000000000 0.99976045 179.02731 0.0033958505 90.98513 0.0034043565 90.444305 1.0021836 178.82178
8100000000 0.99981409 179.00981 0.0034523255 90.609558 0.0034419061 90.293671 1.0021713 178.80617
8200000000 0.99975121 178.99585 0.0034980546 90.858376 0.0035144815 90.539711 1.0022452 178.79031
8300000000 0.99985892 178.98245 0.0035246706 91.051941 0.0035260189 91.106422 1.0022972 178.78384
8400000000 0.9998731 178.9742 0.0035936141 91.13327 0.0035775455 91.823608 1.0023081 178.77121
8500000000 1.0000062 178.96419 0.0036352074 91.259293 0.0036350759 91.797874 1.0021743 178.75833
8600000000 0.99993867 178.95743 0.0036764161 92.386482 0.003680276 91.953949 1.0021381 178.73779
8700000000 0.99997485 178.948 0.0038306916 91.952271 0.003823203 91.77404 1.0020937 178.71812
8800000000 0.9998948 178.94476 0.0038834848 90.718712 0.0038860315 90.784088 1.0021542 178.69417
8900000000 0.9998579 178.92287 0.003864134 90.285255 0.0038552915 90.247543 1.0022751 178.68033
9000000000 0.99971753 178.91219 0.0038705205 90.455505 0.0038638872 91.040115 1.0022407 178.66663
9100000000 0.9997257 178.88504 0.0038883518 91.297745 0.0039112582 90.965813 1.0023589 178.66331
9200000000 0.9997527 178.87976 0.0039428668 91.203964 0.0039419155 91.059349 1.0022297 178.64754
9300000000 0.9997921 178.86037 0.0039971904 91.271271 0.0039958148 91.234245 1.0021971 178.63547
9400000000 0.99987036 178.85719 0.0040626191 91.374001 0.0040449793 91.609749 1.001987 178.61324
9500000000 0.99984705 178.84276 0.0041230167 91.17617 0.0041126851 91.303726 1.0020334 178.59639
9600000000 0.99985796 178.84421 0.0041381768 91.168694 0.0041491133 91.411461 1.001967 178.57436
9700000000 0.99973392 178.8248 0.004191108 91.631226 0.0041989363 91.5485 1.0021145 178.55264
9800000000 0.99984455 178.8157 0.0042212592 91.477341 0.004215681 91.635216 1.0020767 178.53973
9900000000 0.99969035 178.79668 0.0042855153 91.189407 0.0042779832 91.293449 1.0022389 178.53014
10000000000 0.99979746 178.78337 0.0042768735 91.491989 0.0042600194 91.591255 1.0021145 178.52116
10100000000 0.99972337 178.76704 0.004314031 92.163628 0.004294293 92.199089 1.002201 178.5038
10200000000 0.99994397 178.76035 0.0043876818 92.439407 0.004380588 92.72271 1.0020019 178.49182
10300000000 0.99976879 178.74925 0.0044775782 92.993553 0.0044700261 92.61013 1.0020659 178.4715
10400000000 0.99990559 178.73763 0.0045389766 92.785667 0.0045407526 93.059586 1.0020468 178.45535
10500000000 0.99979335 178.72562 0.0046162773 92.228569 0.0046337578 92.414566 1.0021555 178.4292
10600000000 0.99986619 178.71024 0.0046925293 92.203568 0.0046730218 92.567108 1.0021875 178.42061
10700000000 0.99976444 178.70198 0.0047493502 92.03318 0.0047232322 91.94342 1.0023134 178.40059
10800000000 0.99984437 178.68494 0.0048022196 91.926941 0.0047801379 92.065948 1.002286 178.39993
10900000000 0.99975204 178.67659 0.004830752 91.813858 0.004836414 91.985832 1.0022751 178.37973
11000000000 0.99977738 178.65735 0.0048442804 91.470627 0.0048485617 91.695061 1.0022851 178.37239
11100000000 0.99977595 178.64635 0.0048587918 91.746712 0.0048964187 91.990242 1.0021621 178.34732
11200000000 0.9997254 178.62999 0.0049297009 91.712143 0.0049300347 91.500168 1.00219 178.33351
11300000000 0.99990284 178.62889 0.0049948622 91.366982 0.0049465369 91.567657 1.0021405 178.30486
11400000000 0.99980724 178.62042 0.0050288364 91.477707 0.0049978034 91.691223 1.002364 178.29478
11500000000 0.99989069 178.61261 0.0050652344 91.529984 0.005093521 91.588654 1.0023245 178.28249
11600000000 0.99972057 178.59552 0.0051345513 91.395737 0.0050897044 91.449326 1.0026151 178.27438
11700000000 0.99977785 178.56888 0.0051458464 91.39856 0.0051731355 91.73172 1.0025113 178.25906
11800000000 0.99978256 178.56593 0.0051940242 91.684219 0.0051852926 91.191879 1.0025723 178.2458
11900000000 0.99986213 178.54016 0.0052184556 91.150658 0.0052274484 91.338921 1.0023812 178.24162
12000000000 0.99985993 178.54532 0.0052393009 91.30986 0.0052526318 91.267616 1.002417 178.21661
12100000000 0.99983001 178.52328 0.0052951272 91.248177 0.0053116065 91.178741 1.0022892 178.20642
12200000000 0.99986333 178.52225 0.0052974648 91.366104 0.0053163036 91.028465 1.0025214 178.17844
12300000000 0.99970675 178.49542 0.0053487583 91.063599 0.0053591453 91.218414 1.0024558 178.17682
12400000000 0.99987328 178.49126 0.0053544957 91.17141 0.0053913612 90.89576 1.0026414 178.15288
12500000000 0.99967599 178.47321 0.0053933985 91.199028 0.0054258946 91.455185 1.0026258 178.15308
12600000000 0.99996239 178.47153 0.0054618381 91.080704 0.0054488126 90.943588 1.0026294 178.12914
12700000000 0.99971879 178.4604 0.0054494729 91.03611 0.0054613091 91.246094 1.0026563 178.13121
12800000000 0.99994612 178.4426 0.0054570045 90.820908 0.0054608621 91.043045 1.002576 178.10326
12900000000 0.99971634 178.4332 0.0054895901 91.489441 0.005471488 91.225533 1.0025989 178.09975
13000000000 0.99995655 178.40697 0.0055318312 92.010956 0.0055322195 91.886215 1.0025692 178.06662
13100000000 0.99977016 178.41286 0.0055586188 92.107414 0.0055693137 91.848549 1.0026808 178.05045
13200000000 0.99989414 178.38666 0.0056189471 92.494263 0.0056012282 92.620262 1.0026973 178.02545
13300000000 0.99979424 178.38599 0.0056850892 92.686218 0.0057066237 92.431877 1.0027978 178.01894
13400000000 0.99976724 178.35808 0.0057511791 92.891327 0.0057067014 92.737038 1.0027043 177.99506
13500000000 0.99982303 178.35609 0.005789883 93.061813 0.0057616141 92.948181 1.0028394 177.9995
13600000000 0.99970633 178.32564 0.0058075702 93.136276 0.0058191335 93.135643 1.0025183 177.97508
13700000000 0.99987274 178.32759 0.0058725905 93.370132 0.005842322 93.218086 1.0025069 177.96457
13800000000 0.99977636 178.30711 0.0058948491 93.383118 0.0059183822 93.491989 1.0023987 177.94078
13900000000 0.99991369 178.30617 0.0059700073 93.49308 0.0059643327 93.462517 1.0024953 177.91457
14000000000 0.99968976 178.28316 0.0060400115 93.720337 0.0060322699 93.830231 1.0024134 177.89684
14100000000 0.9998287 178.2765 0.0060978336 93.727554 0.0060967784 93.580925 1.002674 177.88057
14200000000 0.99968374 178.26382 0.0061229728 93.415207 0.0061089532 93.534721 1.0024523 177.87367
14300000000 0.99974573 178.2485 0.0061766529 93.56749 0.0061566434 93.38308 1.0026706 177.86359
14400000000 0.99962556 178.24113 0.0061219665 93.327126 0.0061626132 93.389763 1.0024383 177.85847
14500000000 0.99971581 178.21872 0.0061029149 94.042931 0.0061029242 93.871956 1.0025336 177.83186
14600000000 0.99967134 178.21204 0.0061828606 94.922195 0.0061656153 94.928146 1.0023587 177.82213
14700000000 0.9997465 178.19104 0.0062392768 95.623001 0.0062286654 95.381027 1.0024436 177.79298
14800000000 0.99973017 178.1931 0.0063060955 96.145233 0.0063155764 95.91983 1.002484 177.78072
14900000000 0.99963748 178.17372 0.0063902084 96.157936 0.0063474495 96.230934 1.002471 177.74896
15000000000 0.99979287 178.16814 0.0064665652 96.590134 0.0064604394 96.778725 1.0025324 177.74318
15100000000 0.9995423 178.15291 0.0065348535 96.848625 0.0065137227 97.250763 1.0024648 177.71722
15200000000 0.99981803 178.14256 0.0066127027 97.514893 0.0065974491 97.341805 1.0026851 177.72388
15300000000 0.99953377 178.13057 0.0067153191 98.03376 0.0066845948 97.916786 1.0024712 177.70174
15400000000 0.99984789 178.12086 0.0068307091 98.307083 0.0067911241 98.111252 1.0024964 177.69495
15500000000 0.99954307 178.1133 0.0069119972 98.486244 0.0069053429 98.201447 1.0022851 177.67245
15600000000 0.99979275 178.09068 0.0070150211 98.892189 0.0070133922 98.660233 1.0024157 177.65675
15700000000 0.99958712 178.08919 0.007104761 99.143936 0.0071500037 99.325836 1.0022879 177.632
15800000000 0.99987835 178.05536 0.0072715967 99.19297 0.007273145 99.220116 1.0025308 177.61461
15900000000 0.99973762 178.07021 0.007374113 99.358131 0.0073621287 99.409279 1.0023534 177.60246
16000000000 0.99976772 178.04242 0.0075487457 99.546638 0.0075102132 99.588921 1.0026686 177.59135
16100000000 0.99972111 178.05499 0.0076643829 99.660309 0.0076777511 99.461182 1.0023912 177.58414
16200000000 0.9996525 178.02618 0.0077962135 99.660736 0.0077755968 99.583366 1.0025816 177.5705
16300000000 0.9997611 178.03032 0.0079148505 99.640068 0.0078928098 99.838066 1.0021596 177.55893
16400000000 0.99952966 178.0069 0.0080705043 100.01243 0.0080861663 100.02578 1.0024586 177.53899
16500000000 0.99958181 177.99867 0.0082746344 100.08796 0.0082465196 99.932518 1.0021546 177.52716
16600000000 0.99946892 177.96927 0.0085034249 100.02941 0.0084897187 100.02967 1.0023811 177.49185
16700000000 0.99982244 177.96376 0.0087819099 100.06538 0.0087738438 99.956001 1.0023296 177.48882
16800000000 0.99958366 177.94731 0.0090939403 100.09943 0.0090636266 99.852783 1.0024744 177.46815
16900000000 0.9999997 177.93863 0.0094858436 99.329964 0.0094857933 99.226921 1.0024911 177.46901
17000000000 0.99961054 177.93848 0.0099880323 97.424225 0.0099622281 97.336853 1.0023481 177.43831
17100000000 0.99958551 177.92595 0.010308091 93.789963 0.0102849 93.956734 1.0022835 177.437
17200000000 0.99961275 177.91919 0.010218661 90.730415 0.01022725 90.694878 1.0022238 177.40883
17300000000 0.99954474 177.8945 0.010023726 88.541954 0.010035161 88.44101 1.002346 177.4019
17400000000 0.999578 177.88557 0.00976092 87.436234 0.0097569386 87.401329 1.0022029 177.36749
17500000000 0.99953312 177.85858 0.0095913 87.21814 0.009589755 86.993408 1.0022594 177.35835
17600000000 0.99961406 177.85291 0.0095604509 86.877319 0.0095163332 87.077606 1.0021578 177.33833
17700000000 0.99954867 177.82909 0.0094608031 87.124466 0.0094788056 87.264626 1.0024848 177.33691
17800000000 0.99982369 177.82404 0.0095446352 86.975922 0.0094821407 86.853851 1.0022341 177.31984
17900000000 0.99968815 177.8242 0.0095755029 86.681229 0.0095323659 86.815269 1.0024252 177.3087
18000000000 0.99980104 177.80629 0.0096198432 86.716805 0.0096405838 86.30928 1.0022759 177.29124
18100000000 0.99950427 177.80319 0.0096430387 86.07177 0.009661545 85.98056 1.0023563 177.2639
18200000000 0.99946445 177.77525 0.0097642681 85.857658 0.0097252531 85.584579 1.0022582 177.25198
18300000000 0.99941397 177.77615 0.0098142149 85.276085 0.0097326757 85.14518 1.0023708 177.23412
18400000000 0.99947727 177.73041 0.0098527605 84.823242 0.0099052889 84.475235 1.0022261 177.22337
18500000000 0.99952745 177.73575 0.0098789735 83.849152 0.0099326149 84.038025 1.0024166 177.20207
18600000000 0.99959654 177.70117 0.0098887766 83.253479 0.0098673049 82.960213 1.0024118 177.20541
18700000000 0.99978292 177.72372 0.0098661985 82.633286 0.0098556494 82.370499 1.00247 177.16617
18800000000 0.99956256 177.69481 0.0098863142 82.328339 0.0098403422 82.385559 1.002426 177.16429
18900000000 0.99974769 177.70474 0.0099092945 81.865669 0.0098763211 82.09201 1.0025209 177.13734
19000000000 0.99942786 177.68832 0.0099412128 81.559746 0.0098976679 81.840317 1.002721 177.14185
19100000000 0.99957299 177.69254 0.010029052 81.049873 0.010010917 81.071091 1.0026544 177.10841
19200000000 0.99912363 177.66356 0.010035435 80.30407 0.0099844476 80.27327 1.0029484 177.12827
19300000000 0.99944139 177.63698 0.010041586 79.282646 0.0099931341 79.453712 1.0027525 177.09834
19400000000 0.99915296 177.61499 0.010031504 78.626183 0.010040917 78.735916 1.0028634 177.10493
19500000000 0.99974608 177.59676 0.010010514 77.794189 0.0099796867 77.99437 1.0024939 177.06046
19600000000 0.99956709 177.59688 0.0099379718 77.132629 0.0099264551 77.286255 1.0027987 177.06058
19700000000 0.99999297 177.5867 0.0098274983 76.909805 0.0099028256 76.807472 1.0026411 177.0195
19800000000 0.99977064 177.60481 0.0097673517 76.206543 0.0098070763 76.313942 1.0031501 177.01854
19900000000 0.99976975 177.57561 0.0097484048 75.586479 0.0097479038 75.780708 1.0028929 176.99557
20000000000 0.99949634 177.58929 0.0096609481 75.089386 0.0097049689 75.35331 1.0034987 177.00241
20100000000 0.99928141 177.54155 0.0096168621 74.802971 0.0096015418 74.356232 1.0030396 177.00092
20200000000 0.99933839 177.53252 0.0095507083 74.652382 0.0095009077 74.410019 1.0031735 176.98582
20300000000 0.99936098 177.49678 0.0093796533 74.558357 0.0093735689 74.6744 1.0027303 176.96762
20400000000 0.9998123 177.49287 0.009324206 74.700813 0.0093534496 74.730385 1.0031033 176.93704
20500000000 0.99963439 177.48897 0.0094022183 74.480232 0.0093437852 74.532593 1.0026275 176.92389
20600000000 1.0000834 177.48904 0.0093524475 74.062393 0.0093899453 74.060333 1.0031486 176.8777
