!Keysight Technologies,N5247B,MY61255062,A.15.50.07
!Date: Wednesday, February 12, 2025 16:42:09
!Correction: S11(C  2-Port  ) 
!S21(C  2-Port  ) 
!S12(C  2-Port  ) 
!S22(C  2-Port  ) 
!S2P File: Measurements: S11, S21, S12, S22:
# Hz S  MA   R 50
500000000 0.00041590448 3.8451643 1.0005779 -0.15584335 1.000412 -0.15715447 0.0004707122 -71.154175
600000000 0.00064519513 4.0400686 1.0005625 -0.18600127 1.0004467 -0.18718174 0.00048578266 -65.667488
700000000 0.00062646944 3.8090479 1.0006788 -0.21964866 1.000438 -0.21646027 0.00061291357 -72.702522
800000000 0.00063576346 2.5610323 1.0006535 -0.25303569 1.0004636 -0.25034606 0.000639248 -74.311203
900000000 0.0006671545 -3.7612906 1.0005865 -0.28504691 1.0004238 -0.28053004 0.00072419393 -69.004494
1000000000 0.00076207216 -7.3646464 1.0005889 -0.31655154 1.0004214 -0.31270781 0.00090679736 -67.663193
1100000000 0.00086300744 -14.383694 1.0006258 -0.3484942 1.0004834 -0.34416431 0.00098391389 -73.838104
1200000000 0.00081821793 -21.584839 1.0005665 -0.38140652 1.0005392 -0.37871695 0.0011062551 -71.507523
1300000000 0.0008995994 -15.544499 1.0006305 -0.41462073 1.0005769 -0.40989345 0.001234571 -75.804504
1400000000 0.00089823332 -25.29907 1.0005342 -0.44846788 1.0005394 -0.44411349 0.0013574633 -79.732368
1500000000 0.00089353858 -33.514843 1.0005044 -0.48349127 1.0004939 -0.47750729 0.0014402063 -79.204399
1600000000 0.0009909689 -40.64381 1.0005238 -0.5203504 1.0005035 -0.51311749 0.0016252447 -81.121941
1700000000 0.001041845 -42.806297 1.0004425 -0.55323964 1.0004762 -0.54760045 0.0017517048 -82.44828
1800000000 0.0010507788 -43.222809 1.0004089 -0.58706409 1.0004082 -0.58204091 0.0019205739 -85.418304
1900000000 0.001039159 -54.804806 1.0002618 -0.62269425 1.0002455 -0.61572349 0.0020071068 -90.37674
2000000000 0.00080073468 -60.568233 1.0000429 -0.64872593 1.0000622 -0.64383501 0.0020042229 -96.20369
2100000000 0.00075888442 -60.425583 0.99998629 -0.67433184 0.9999997 -0.66938078 0.0019480987 -95.043999
2200000000 0.00063214905 -61.813309 0.99983585 -0.69991082 0.99987179 -0.69625634 0.0020492435 -101.73796
2300000000 0.00048271491 -36.930664 0.99982208 -0.71549892 0.99988055 -0.71278596 0.0017575651 -102.80863
2400000000 0.00065725349 -26.972002 1.0000079 -0.73945266 1.0000505 -0.73335057 0.001665944 -96.188599
2500000000 0.00088226679 -14.818302 1.000192 -0.76987714 1.0001843 -0.76884347 0.0017141859 -87.359787
2600000000 0.00106685 -21.917179 1.0002507 -0.8071869 1.0002931 -0.80543602 0.0018537495 -82.33094
2700000000 0.0011829153 -24.804199 1.0001849 -0.83894306 1.0002072 -0.83405674 0.0019909502 -81.956993
2800000000 0.0011516323 -27.421326 1.000245 -0.86781639 1.0002433 -0.86575538 0.0021723339 -82.529938
2900000000 0.0012432744 -27.351151 1.0003853 -0.90020293 1.000362 -0.89636564 0.0022753866 -82.634583
3000000000 0.0013601234 -33.348297 1.000363 -0.9320851 1.0004079 -0.9305957 0.0023855029 -83.613281
3100000000 0.0014317558 -37.604439 1.000291 -0.96876031 1.0003707 -0.96773791 0.0024846299 -83.727829
3200000000 0.0013468083 -42.181 1.0002631 -0.99900001 1.0002927 -0.99793088 0.0025831456 -83.949249
3300000000 0.0012855637 -38.151894 1.0002853 -1.0275261 1.0002815 -1.0263587 0.0025905478 -81.717445
3400000000 0.0014011685 -33.180378 1.0001333 -1.064109 1.0002227 -1.064263 0.0027919298 -84.089455
3500000000 0.0014087756 -33.649166 1.0000554 -1.0923374 1.000104 -1.0917686 0.0028559673 -84.423225
3600000000 0.001355594 -33.976704 1.0000006 -1.1144452 1.0000744 -1.1145467 0.0028221419 -87.216179
3700000000 0.0014048949 -30.821669 1.000127 -1.1395177 1.0001383 -1.1394091 0.0027536829 -85.839821
3800000000 0.0015788981 -32.093834 1.0002064 -1.1718422 1.0003216 -1.173862 0.002813248 -84.708801
3900000000 0.0015814104 -33.713318 1.0002269 -1.2111769 1.0002787 -1.2110355 0.0029795268 -82.624786
4000000000 0.0016583459 -35.837181 1.0003103 -1.2438854 1.0002893 -1.2438091 0.0031001498 -82.37085
4100000000 0.0017363445 -36.496689 1.000273 -1.2754556 1.0002749 -1.2782619 0.0032416633 -82.722359
4200000000 0.0017785309 -38.3675 1.0002798 -1.3090218 1.0002277 -1.306609 0.0032861386 -82.113106
4300000000 0.001848105 -37.852413 1.0002389 -1.3383167 1.0001888 -1.3391658 0.0033788071 -81.611504
4400000000 0.0019236491 -38.799618 1.0001841 -1.3716197 1.0001746 -1.3706608 0.0033996962 -83.044273
4500000000 0.0019012426 -36.657005 1.0001675 -1.3986882 1.0002068 -1.401111 0.0035222392 -82.025185
4600000000 0.0019394434 -39.46883 1.0002056 -1.4315716 1.0001906 -1.434539 0.0036452755 -82.318481
4700000000 0.001956518 -40.579903 1.0001863 -1.4656436 1.0002524 -1.4654291 0.0036765172 -81.816376
4800000000 0.0020594494 -40.63308 1.0001534 -1.4977442 1.0002481 -1.5011964 0.0037464956 -81.772682
4900000000 0.0020819514 -40.5467 1.0001318 -1.5328511 1.0002563 -1.5327739 0.0039603352 -81.120728
5000000000 0.0022055719 -41.762272 1.0001066 -1.5650905 1.000221 -1.5653675 0.0041106893 -81.310905
5100000000 0.0022888535 -40.318775 1.0001285 -1.5939244 1.0002198 -1.5999647 0.0041642208 -80.586761
5200000000 0.0023429729 -41.202412 1.0000975 -1.6307963 1.000129 -1.6286218 0.0041966541 -80.430542
5300000000 0.0023322874 -41.990383 1.0000974 -1.6594511 1.000137 -1.6630679 0.0042309887 -79.359039
5400000000 0.0024295552 -40.500099 1.0001125 -1.6933504 1.0001271 -1.6970394 0.0043852665 -79.629799
5500000000 0.0025435272 -39.513783 0.99994248 -1.7283311 1.0001224 -1.7274451 0.0044944943 -79.41037
5600000000 0.0025831109 -40.001957 0.99996507 -1.759824 1.0000955 -1.7589452 0.004568141 -79.068542
5700000000 0.0026125864 -41.37392 1.0000273 -1.7927618 1.0000098 -1.7926719 0.0046367613 -79.897339
5800000000 0.0027344725 -39.723713 0.99998677 -1.8291522 1.0000119 -1.8259493 0.0047935829 -79.124344
5900000000 0.0027513641 -41.120319 0.99992579 -1.8595651 0.99997705 -1.8601941 0.0049106074 -78.579651
6000000000 0.0028676726 -40.779778 0.99986213 -1.8926585 0.99996108 -1.8945048 0.0049666981 -78.045441
6100000000 0.0029121679 -40.128063 0.9997853 -1.9228078 0.99989283 -1.9278644 0.0050774454 -78.314201
6200000000 0.0030322473 -39.002762 0.99973494 -1.9582087 0.99984694 -1.9617913 0.0051568765 -77.345818
6300000000 0.0030711049 -38.372925 0.99970996 -1.9894514 0.99974215 -1.993349 0.0051101777 -77.626923
6400000000 0.0031230405 -37.316868 0.99963325 -2.0245662 0.99970907 -2.0243733 0.0052813436 -76.825737
6500000000 0.0031858259 -38.181381 0.99955148 -2.0564337 0.99962193 -2.0561757 0.0053157937 -76.877266
6600000000 0.0033746371 -38.598244 0.99949646 -2.0903804 0.99952918 -2.0909879 0.0054854709 -76.432266
6700000000 0.0033604028 -37.754681 0.9994368 -2.1205282 0.99940574 -2.1221919 0.00559001 -75.999886
6800000000 0.0035456566 -39.50993 0.99928737 -2.1550677 0.99938035 -2.154525 0.005748637 -75.990631
6900000000 0.003632637 -37.912159 0.99920619 -2.1874669 0.99927145 -2.1866469 0.0058515081 -74.945641
7000000000 0.0037996736 -37.65432 0.99912035 -2.2188594 0.99912447 -2.2203555 0.005910302 -74.438087
7100000000 0.0039139795 -35.76609 0.99898505 -2.2480204 0.99903321 -2.2500064 0.0060005761 -72.682259
7200000000 0.0040312475 -36.19487 0.99889094 -2.2798529 0.99888784 -2.2823381 0.0060683084 -73.441948
7300000000 0.0041137366 -36.603378 0.99872088 -2.3091271 0.99870461 -2.3123748 0.0061981627 -72.234138
7400000000 0.0041980534 -37.179852 0.99854511 -2.3339579 0.99864304 -2.3415954 0.0063878945 -72.366516
7500000000 0.0043783686 -37.840969 0.99839234 -2.3638971 0.99846023 -2.3675396 0.0066449489 -72.307899
7600000000 0.0044813156 -40.278698 0.99827164 -2.394819 0.99829698 -2.3927929 0.0068815467 -72.356705
7700000000 0.0047357632 -40.475376 0.99804854 -2.4191587 0.99817061 -2.4240952 0.0072054137 -71.483658
7800000000 0.0048754038 -39.618885 0.99786258 -2.4451652 0.99802589 -2.4500036 0.0073401295 -71.236931
7900000000 0.0051308763 -40.462448 0.99779773 -2.4714293 0.99784219 -2.4771512 0.007578983 -70.46032
8000000000 0.0052948226 -40.252224 0.99761873 -2.4937065 0.99768424 -2.4992764 0.0076474943 -70.908867
8100000000 0.0054572108 -41.631519 0.99747926 -2.5173075 0.99749339 -2.5209422 0.0079237754 -70.951683
8200000000 0.0056153191 -42.112812 0.99737877 -2.5343008 0.9974404 -2.5384178 0.0081169261 -71.583893
8300000000 0.0058312276 -45.064297 0.99719876 -2.5542247 0.99726927 -2.5572329 0.0085275434 -72.802399
8400000000 0.0060513578 -46.695015 0.99727142 -2.5704803 0.99719274 -2.5744188 0.008884077 -73.049072
8500000000 0.0062759863 -48.869743 0.99719608 -2.5858974 0.99716634 -2.5862696 0.0092953937 -74.377213
8600000000 0.0065258658 -50.790833 0.99726802 -2.5972135 0.99727499 -2.6011837 0.0096334945 -75.520882
8700000000 0.0067216107 -53.479984 0.99754924 -2.6140184 0.99751765 -2.6152923 0.0099404091 -78.654167
8800000000 0.0067183827 -58.063492 0.99787021 -2.6501694 0.99786782 -2.6497576 0.0095262658 -81.738075
8900000000 0.0062635699 -58.969471 0.99781168 -2.6914909 0.99773467 -2.6963296 0.0091779828 -81.618713
9000000000 0.0063091991 -57.474827 0.99755222 -2.7151577 0.99750602 -2.7203448 0.0091916388 -79.41391
9100000000 0.0062764422 -58.845959 0.99742818 -2.7314839 0.9974702 -2.7380424 0.0095235631 -79.666344
9200000000 0.0064532585 -59.85038 0.9975093 -2.748728 0.99745399 -2.7511671 0.009705863 -79.905777
9300000000 0.0063490467 -60.610683 0.99761939 -2.7658024 0.99760771 -2.7708607 0.0099524921 -80.771278
9400000000 0.006381142 -61.689175 0.9977774 -2.7875073 0.99777734 -2.7915237 0.010001357 -81.226875
9500000000 0.0063380767 -63.067394 0.99791956 -2.8166907 0.99793899 -2.8225353 0.009939203 -82.808487
9600000000 0.0062380917 -62.319542 0.998079 -2.8467462 0.99809414 -2.8529601 0.0099273426 -82.936157
9700000000 0.00624236 -62.081078 0.99807829 -2.8771999 0.99810982 -2.8833165 0.0098256292 -83.435463
9800000000 0.0061939391 -62.089993 0.9982425 -2.9032495 0.99819154 -2.9088223 0.0099049639 -83.636765
9900000000 0.0061282604 -61.544445 0.99836791 -2.9339399 0.9983564 -2.9410694 0.0098104337 -84.627724
10000000000 0.0060161813 -60.563309 0.99831295 -2.9726992 0.99833882 -2.9802196 0.009657003 -83.052048
10100000000 0.006192564 -59.336517 0.99822205 -3.0005751 0.9982233 -3.0084238 0.0098224506 -82.021156
10200000000 0.006273963 -59.909946 0.99832141 -3.0258102 0.99821198 -3.0324552 0.010137807 -81.35022
10300000000 0.0063601555 -60.527287 0.99833101 -3.052248 0.99824041 -3.0600059 0.010218522 -81.295265
10400000000 0.0063868533 -60.180401 0.99844271 -3.0774558 0.99828118 -3.0846193 0.010300213 -81.651291
10500000000 0.0063986266 -60.133968 0.99844897 -3.1017308 0.99840313 -3.1133287 0.010251982 -81.460365
10600000000 0.0064352043 -60.061386 0.99850959 -3.1310306 0.99843085 -3.1410971 0.010392482 -81.980469
10700000000 0.0064941137 -60.598251 0.9985984 -3.1629121 0.99847645 -3.1709857 0.010517636 -82.481232
10800000000 0.0065222485 -60.862873 0.99856985 -3.1960866 0.9984529 -3.202116 0.010573433 -83.018318
10900000000 0.0066220532 -60.639267 0.99864072 -3.2248788 0.99848413 -3.2288914 0.010662168 -82.334778
11000000000 0.0065834243 -59.747635 0.99862629 -3.2534595 0.9985432 -3.2580311 0.010723325 -82.095497
11100000000 0.0065814564 -59.451771 0.99878114 -3.282665 0.99854565 -3.2858379 0.010807143 -81.647469
11200000000 0.006623216 -59.015717 0.99880451 -3.3151343 0.99869204 -3.3228452 0.010834428 -81.849594
11300000000 0.0064846482 -59.725899 0.99888206 -3.343116 0.99875557 -3.350471 0.01079539 -80.97702
11400000000 0.0066445176 -58.463413 0.99888271 -3.3809211 0.99876529 -3.3851042 0.01081981 -81.973106
11500000000 0.0067951637 -59.489529 0.99882799 -3.4159639 0.99875313 -3.4223657 0.010931751 -80.798309
11600000000 0.0068851057 -58.933128 0.99877435 -3.451195 0.99862254 -3.4547782 0.011060984 -81.138596
11700000000 0.00686847 -58.124016 0.99875128 -3.4809098 0.99861276 -3.4877884 0.011135639 -80.391907
11800000000 0.0070022983 -58.063396 0.998689 -3.513458 0.99858791 -3.5168107 0.011293974 -80.062798
11900000000 0.0071287155 -58.344063 0.998622 -3.5461431 0.99858207 -3.5520861 0.011403088 -79.161705
12000000000 0.0071600322 -58.054787 0.99858785 -3.5791047 0.99851978 -3.5872021 0.011550432 -78.136169
12100000000 0.0073245014 -57.417637 0.99857646 -3.6138868 0.99838859 -3.6205266 0.011719782 -77.865547
12200000000 0.0073449225 -57.260685 0.99852759 -3.6468554 0.99839437 -3.6495328 0.011816104 -77.525444
12300000000 0.00746139 -56.765987 0.99845374 -3.681283 0.99831557 -3.6875913 0.01207479 -76.684631
12400000000 0.0074365204 -57.110832 0.99834365 -3.7112324 0.99820292 -3.7161844 0.012094812 -76.331245
12500000000 0.0076221605 -56.574181 0.99824679 -3.7500045 0.99808133 -3.7525752 0.012492646 -75.311867
12600000000 0.0074969153 -56.689007 0.99811566 -3.7835581 0.99798924 -3.7835386 0.012679606 -74.516502
12700000000 0.0078778602 -55.021484 0.9979797 -3.8161855 0.99779052 -3.8250895 0.01313864 -73.83152
12800000000 0.0076751094 -53.2356 0.99781168 -3.8542123 0.99759758 -3.8657231 0.013409669 -72.112846
12900000000 0.0079250336 -50.858906 0.99737322 -3.8978298 0.99721533 -3.9057336 0.014188913 -70.903206
13000000000 0.0080443984 -46.995327 0.99671853 -3.9321928 0.99661237 -3.9322722 0.015080836 -69.845848
13100000000 0.0090070507 -45.290665 0.99610186 -3.9360929 0.99589688 -3.9388411 0.016255155 -72.733742
13200000000 0.0096416753 -46.208176 0.99587989 -3.9275978 0.99570078 -3.9298716 0.016473884 -75.798241
13300000000 0.010479418 -48.465549 0.99590671 -3.9300206 0.99566245 -3.9343486 0.01638972 -78.577278
13400000000 0.010719685 -49.219307 0.99596715 -3.937613 0.99581295 -3.9416425 0.016237097 -79.128456
13500000000 0.011139873 -52.384663 0.99594826 -3.955647 0.99578273 -3.9591243 0.016345128 -79.457733
13600000000 0.011304119 -52.27071 0.99590397 -3.9665616 0.99583822 -3.9745908 0.016334007 -78.829437
13700000000 0.01157608 -54.537861 0.99588764 -3.9873741 0.99583828 -3.9924159 0.016580565 -78.586128
13800000000 0.011757715 -55.15757 0.99588472 -4.0044603 0.99587131 -4.0066967 0.016826753 -78.624138
13900000000 0.011985936 -56.12307 0.99589527 -4.0221481 0.99583393 -4.0273299 0.016945841 -79.084755
14000000000 0.012163009 -56.546337 0.99592787 -4.0361447 0.99582726 -4.0422997 0.017226029 -78.682663
14100000000 0.012255223 -57.491554 0.99589211 -4.0506239 0.99585807 -4.0591125 0.017398959 -79.391823
14200000000 0.012466183 -58.538166 0.99588782 -4.06849 0.99587721 -4.0785999 0.017825697 -78.708397
14300000000 0.012460416 -59.361523 0.99585247 -4.0906625 0.99573702 -4.099627 0.018142691 -78.894203
14400000000 0.012916414 -58.595272 0.99563056 -4.1086121 0.99561125 -4.1194539 0.018969992 -78.784386
14500000000 0.013359568 -58.310734 0.99547505 -4.1105032 0.99539447 -4.1154594 0.019457066 -79.823883
14600000000 0.014008761 -60.009579 0.99548298 -4.1070395 0.99545932 -4.1138444 0.020016482 -81.301216
14700000000 0.014213246 -61.680298 0.99559808 -4.1079931 0.9956094 -4.1174169 0.020107117 -82.682335
14800000000 0.014616037 -64.135246 0.99576437 -4.1140881 0.99574316 -4.1186256 0.020578478 -83.690529
14900000000 0.014708375 -65.204834 0.99602634 -4.1223736 0.99598461 -4.1299391 0.020650065 -84.766609
15000000000 0.01498179 -67.108147 0.99631089 -4.1267991 0.99626321 -4.1404877 0.021023342 -86.232269
15100000000 0.015049458 -68.009552 0.99665356 -4.1356773 0.99656028 -4.1503754 0.021127047 -86.759178
15200000000 0.015249206 -70.610855 0.99693626 -4.1467729 0.99680042 -4.162508 0.021453505 -88.045128
15300000000 0.015411956 -71.168831 0.99730968 -4.1631255 0.99710238 -4.17664 0.021685356 -89.126732
15400000000 0.015556621 -73.600464 0.99759185 -4.1757302 0.99742723 -4.1861815 0.021765376 -90.164368
15500000000 0.01569319 -74.456612 0.99792367 -4.1945782 0.99781424 -4.2028956 0.021972384 -90.919144
15600000000 0.015542737 -75.951241 0.9981916 -4.2073627 0.99812233 -4.2155786 0.021940064 -92.375916
15700000000 0.015679028 -77.107811 0.99858743 -4.2281318 0.99847376 -4.235919 0.022025965 -93.100433
15800000000 0.015321835 -78.734802 0.99897903 -4.2430558 0.99883384 -4.2485576 0.021994883 -94.537842
15900000000 0.015543139 -79.863647 0.99939865 -4.2616353 0.99923337 -4.2697544 0.02212875 -95.364662
16000000000 0.01528476 -81.193268 0.9998135 -4.2782383 0.99971461 -4.2871628 0.022093315 -96.718208
16100000000 0.015357836 -82.141655 1.0002666 -4.3069859 1.0001758 -4.3174567 0.022264296 -97.120964
16200000000 0.015164706 -82.826576 1.0006485 -4.3258786 1.0006244 -4.3326402 0.021962292 -98.153244
16300000000 0.01502736 -83.48864 1.0011584 -4.3549161 1.0011008 -4.3611131 0.022100952 -98.698021
16400000000 0.014953328 -83.667328 1.0016694 -4.3784323 1.0014565 -4.3891673 0.021809697 -99.55722
16500000000 0.01483104 -83.678993 1.0020661 -4.4086733 1.0019855 -4.4197922 0.021821927 -100.10639
16600000000 0.014670803 -82.786118 1.0026252 -4.436533 1.0025671 -4.4531345 0.021492146 -101.18188
16700000000 0.014784503 -83.396355 1.0030565 -4.4720039 1.0030019 -4.4838285 0.021480303 -101.56683
16800000000 0.01493913 -82.953369 1.0036668 -4.5056095 1.0035685 -4.5140738 0.021196611 -102.55917
16900000000 0.015112379 -84.252785 1.0042528 -4.5494843 1.0041989 -4.5569448 0.021093311 -103.22907
17000000000 0.015623014 -84.021645 1.0048593 -4.6009698 1.0047352 -4.606987 0.020814836 -102.8317
17100000000 0.016033212 -84.791298 1.0051942 -4.6582046 1.0050808 -4.6694479 0.020433819 -102.83755
17200000000 0.016492337 -87.097504 1.0053668 -4.7207017 1.0052924 -4.7348452 0.020071032 -101.6661
17300000000 0.016296929 -88.999825 1.0053514 -4.7682533 1.0052419 -4.786406 0.01998804 -101.18471
17400000000 0.016171025 -91.381882 1.0053394 -4.8095784 1.0052584 -4.8249912 0.020048657 -100.57021
17500000000 0.015584424 -91.723648 1.0052464 -4.8512049 1.0052066 -4.8622589 0.020376738 -101.22514
17600000000 0.015397735 -93.486946 1.0053467 -4.8817492 1.0052925 -4.8942795 0.020416027 -100.94134
17700000000 0.014902782 -93.978317 1.0055056 -4.9162779 1.005312 -4.9240746 0.020665444 -101.55562
17800000000 0.014863845 -94.783447 1.005641 -4.9519253 1.0054955 -4.9554677 0.020626863 -101.48712
17900000000 0.014675023 -94.430481 1.005725 -4.982079 1.005576 -4.9945526 0.020794069 -102.25626
18000000000 0.014683306 -95.175621 1.0058832 -5.0134082 1.0057573 -5.0242109 0.020545747 -101.97189
18100000000 0.014444603 -94.088585 1.0060291 -5.0496111 1.0058799 -5.0579047 0.02062792 -102.7756
18200000000 0.014420846 -94.488441 1.0062144 -5.0828099 1.006151 -5.0960984 0.020337895 -102.63382
18300000000 0.014308923 -94.201141 1.0064365 -5.1193824 1.0061857 -5.1256523 0.020537404 -103.21334
18400000000 0.014223192 -94.585403 1.0065557 -5.154923 1.0064723 -5.1664758 0.020104839 -103.08503
18500000000 0.014241085 -94.976479 1.0066922 -5.1884398 1.0065157 -5.1996655 0.020306347 -103.38973
18600000000 0.014267695 -96.292839 1.0068632 -5.2232246 1.0066605 -5.2398758 0.020276025 -103.21714
18700000000 0.014378157 -96.993599 1.0069803 -5.2521448 1.0067647 -5.2709565 0.020186193 -103.325
18800000000 0.014326123 -96.863426 1.0071212 -5.2905898 1.006956 -5.3086753 0.020231236 -103.1516
18900000000 0.014385722 -98.200714 1.0072359 -5.3194456 1.0070603 -5.3459864 0.020180857 -103.22894
19000000000 0.014493649 -98.339615 1.0074843 -5.3643494 1.007288 -5.3796039 0.020342503 -102.89191
19100000000 0.014319777 -99.247375 1.007579 -5.4001951 1.0074714 -5.4200726 0.020391705 -103.31242
19200000000 0.0145024 -99.661743 1.0077431 -5.4357376 1.007605 -5.4558892 0.020474199 -103.34768
19300000000 0.014284923 -100.7448 1.007858 -5.4794941 1.0077753 -5.4925432 0.020325577 -102.78094
19400000000 0.014352501 -101.08707 1.0080645 -5.5156093 1.0079175 -5.5306721 0.02057126 -103.14764
19500000000 0.014066692 -103.47057 1.0081139 -5.5549445 1.0080628 -5.5694437 0.020314574 -102.82079
19600000000 0.014099698 -104.49104 1.0082567 -5.5955486 1.0082365 -5.6045303 0.0205545 -103.54484
19700000000 0.013788146 -106.16158 1.0082948 -5.6330318 1.0082296 -5.6410499 0.020626556 -103.43591
19800000000 0.014006034 -106.77192 1.0084987 -5.6652999 1.0084116 -5.6799765 0.020724021 -104.24142
19900000000 0.013508538 -106.78266 1.0086672 -5.697381 1.0084368 -5.714292 0.020706687 -103.72859
