# GHz S MA R 50.0 
!freq magS11 angS11 magS21 angS21 magS12 angS12 magS22 angS22
1.8 0.053744075014102055 -126.4244545365667 0.9490528800601704 -36.15060840221887 0.9490528800601704 -36.15060840221888 0.026730694400234695 153.69897270189946
1.9 0.04209402301311147 76.35464915776532 0.9474274232790693 -118.01552822589606 0.947427423279069 -118.01552822589606 0.03414717511881603 142.51263955870138
2.0 0.04367037073618697 -85.38750508400544 0.9470187154055368 160.0104672940733 0.9470187154055365 160.0104672940733 0.02765122439454584 135.91670057099674
2.1 0.04036144715649323 100.68115146185416 0.945189878287197 78.09203213436713 0.9451898782871966 78.09203213436713 0.028031278636411958 153.71737015648375
2.2 0.05687288491445203 -38.320015514696664 0.9433861252244892 -3.803728749988297 0.9433861252244892 -3.8037287499882995 0.04132077497433563 153.83316533237544
2.3 0.04260766204948334 -164.79098946540088 0.9426429873441079 -85.7333409166678 0.9426429873441078 -85.73334091666779 0.04932169050009306 138.5196954814906
2.4 0.031973869547848734 14.492757373430399 0.9412142618910869 -167.61412787974479 0.9412142618910871 -167.61412787974479 0.05370970681953514 120.01189780941611
2.5 0.01872332708386211 -95.11607190717557 0.9403376271448832 110.43772895182525 0.9403376271448831 110.43772895182526 0.04359446607194731 86.17204136113799
2.6 0.04367771525950896 -24.39581736410328 0.938589202404417 28.399944122738145 0.9385892024044172 28.39994412273814 0.008935755309929825 -177.14415127161712
2.7 0.06470715120226445 -116.79417716336933 0.9356753551228126 -53.32954634856204 0.9356753551228126 -53.32954634856204 0.06311920477977406 140.13600250000127
2.8 0.01470218981534142 -141.57290936888512 0.9365242520423513 -135.29598301371465 0.9365242520423516 -135.29598301371465 0.05706002397253884 72.80501753346682
2.9 0.052138060099142666 -151.04613857713954 0.9339834646209639 142.76594304383335 0.9339834646209639 142.76594304383335 0.00401276850174611 -143.25328669380627
3.0 0.04186789235761665 107.26310849607547 0.9332578427680407 60.94054418315689 0.9332578427680409 60.9405441831569 0.04636536965294677 129.33603236423968
3.1 0.012427177244512545 -50.0970694194668 0.9324632245112018 -21.01078563513 0.932463224511202 -21.01078563513 0.039084653668948206 86.03620038462988
3.2 0.018047075258201192 65.06770635456654 0.9315063411851601 -102.95424171156586 0.9315063411851601 -102.95424171156586 0.021588116234645564 71.1745718305061
3.3 0.04039780671153257 -58.43551734168779 0.9296257969856878 175.14018637104525 0.9296257969856874 175.14018637104525 0.017444569037967116 123.26794342165114
3.4 0.004978217255385036 -143.74584548267575 0.928687222481739 93.2150746439409 0.928687222481739 93.2150746439409 0.03333500938841634 78.70791496263912
3.5 0.06740410579916975 -60.828409651374294 0.9257697120430359 11.234756431188096 0.9257697120430357 11.234756431188087 0.020818476558206407 -93.11960299679969
3.6 0.08274823512244854 -139.567674892591 0.9232528592047231 -70.45708620009306 0.923252859204723 -70.45708620009306 0.07705755173034316 145.14891605919996
3.7 0.042395654856262614 -169.67479996017244 0.9241899227004025 -152.34465267716328 0.9241899227004026 -152.34465267716328 0.0793545201983481 60.404847879152314
3.8 0.048100344776347996 162.53951089936785 0.9232618206150927 125.7343088183011 0.9232618206150928 125.73430881830113 0.01570311177392037 -25.31060192253853
3.9 0.008803257108936412 53.1156525069788 0.922853481051144 43.84675256017563 0.922853481051144 43.84675256017564 0.032499605550560313 80.26083078448681
4.0 0.025650714877134433 -171.8204396910868 0.9213776058719465 -38.07236630005318 0.9213776058719464 -38.07236630005319 0.018951492743202156 33.209282929574684
4.1 0.018669573648598777 -45.56473688699502 0.9211411004009036 -120.04415131858188 0.9211411004009036 -120.04415131858188 0.04142503957315018 40.73753220073897
4.2 0.07338303497272716 -151.58848571730667 0.9172922729688647 158.09665708985355 0.9172922729688652 158.09665708985352 0.0534254163735067 -49.421901353321026
4.3 0.04853485241280214 114.21267005719058 0.9182417312187879 76.36313126399534 0.9182417312187876 76.36313126399534 0.028054442380324604 -176.81118278181881
4.4 0.031044293748854725 -134.92777769977207 0.918417351644495 -5.691735116669744 0.9184173516444948 -5.691735116669743 0.031711715431019485 3.9167679978968355
4.5 0.05272130661965839 118.73846285857385 0.9156501624539647 -87.50219545326821 0.9156501624539647 -87.50219545326821 0.02697882778579703 -113.25767832017637
4.6 0.025738149545007884 -91.09424975525154 0.9163728039744172 -169.5122236111664 0.9163728039744172 -169.5122236111664 0.020307915429659224 2.7543023744910866
4.7 0.0801024901051618 132.05582895200016 0.9121299741615003 108.59261020961694 0.9121299741615003 108.59261020961695 0.05696803202054038 -88.24264130537918
4.8 0.07202491127321872 2.0326478406220825 0.9116352768351028 26.84183880247899 0.9116352768351025 26.84183880247899 0.048703893223141094 -140.09775037249912
4.9 0.07388072164004425 -148.81929294028618 0.9107977431866942 -55.031404193629115 0.9107977431866939 -55.03140419362913 0.05454989983973273 -158.8432781985986
5.0 0.04909295480402398 84.50731307349811 0.9116936297907171 -136.86583264817085 0.9116936297907173 -136.86583264817085 0.04533763938857385 143.23019586596973
5.1 0.04003237590630197 -145.34922626043303 0.910373703951941 141.0888579865379 0.9103737039519412 141.08885798653787 0.01837688951370146 -115.0430230310934
5.2 0.07696038699403017 96.13219441293919 0.9074367165409597 59.33598766499019 0.9074367165409599 59.33598766499019 0.0653075142733477 175.29884792672613
5.3 0.042854558237577646 -18.104722159533047 0.9090466810363128 -22.507522901210105 0.909046681036313 -22.507522901210113 0.04803289880205621 113.19445602050592
5.4 0.00842911966572094 131.6794845109315 0.9084850353029292 -104.46739034261667 0.9084850353029295 -104.46739034261667 0.021734317877660576 97.5177477029316
5.5 0.034643021794234216 -91.1837974796944 0.9072236154725666 173.56254257826666 0.9072236154725666 173.56254257826666 0.007820080938434313 -31.784411590732187
5.6 0.06743545094470313 158.31789322872046 0.9046163722140094 91.7060208147306 0.9046163722140096 91.7060208147306 0.05003405997088877 -175.54588059135506
5.7 0.03954014261411105 79.06403808734494 0.9051730665869835 9.926228574358504 0.9051730665869837 9.9262285743585 0.06158778382744652 94.091146152208
5.8 0.034722281106029776 110.85514607599016 0.9045973449203727 -72.07512693692665 0.9045973449203722 -72.07512693692665 0.02317997280374431 -29.89785600558569
5.9 0.039284879858860644 52.27055888224032 0.9039573301730633 -153.96052188248748 0.9039573301730636 -153.96052188248748 0.032480744165093244 127.29239353917289
6.0 0.045288079698553065 88.69779927177758 0.9019802499771556 123.98977004200091 0.9019802499771556 123.98977004200091 0.05124265620522858 -4.558989682874542
6.1 0.0964559598821337 14.968780077781087 0.8977002609764996 42.240905725154555 0.8977002609764991 42.24090572515454 0.06505170716292585 -114.18359146985742
6.2 0.056889146483222755 -80.82571160519954 0.8991950549149198 -39.518909288054616 0.8991950549149198 -39.518909288054616 0.04394928230945234 161.05507603833377
6.3 0.02808882606734938 20.251744890217008 0.8985804673436434 -121.53738196281876 0.8985804673436434 -121.53738196281876 0.0032794286703808277 -45.80592708559125
6.4 0.06823025999038383 -104.87829522910339 0.8957799452252084 156.5832338612767 0.8957799452252087 156.58323386127668 0.041994776035065844 -126.23240511029495
6.5 0.07930071027363875 128.67400882739796 0.8934871803562305 74.83813602031822 0.8934871803562305 74.8381360203182 0.07392816234039416 -177.68212584026256
6.6 0.05600799118803223 25.59035972029264 0.8953044314050501 -6.9054326745948815 0.8953044314050503 -6.90543267459488 0.06780551869562099 113.73129265144448
6.7 0.030652032386155253 64.78491965101374 0.8957175276670472 -88.97095775329093 0.8957175276670472 -88.97095775329093 0.018414859075487462 -28.745007581646522
6.8 0.07720005213298536 -4.5734221881434935 0.8921568007794408 -170.78543983608117 0.892156800779441 -170.78543983608117 0.05854739071140484 -179.76360004271854
6.9 0.027433933032508594 -94.90755199038885 0.8938307952207967 107.39020980442974 0.8938307952207967 107.39020980442976 0.041032123324478344 108.48776373044525
7.0 0.05725054449670785 19.279440407784442 0.8917522259994498 25.38924432334356 0.8917522259994499 25.389244323343576 0.03822059043295384 171.03849613878222
7.1 0.0713281379829567 -54.49188683324518 0.8903745378566416 -56.34613498463281 0.8903745378566416 -56.34613498463281 0.07803948476537532 106.56868303310918
7.2 0.03162290911678109 -79.18686285714216 0.8913471842949565 -138.2272363105036 0.8913471842949565 -138.2272363105036 0.04199001411809358 32.5881973626987
7.3 0.03341993819615798 -77.26349092037815 0.8906163165498276 139.8508244551396 0.8906163165498275 139.8508244551396 0.021213463205491383 119.46762807209657
7.4 0.025786590230560964 -73.04882001266301 0.889956840520891 57.93771423274971 0.8899568405208909 57.93771423274971 0.036546273122359495 43.75434881609253
7.5 0.03143554635110663 -98.47772108196074 0.8887391483655406 -23.926930213918883 0.8887391483655408 -23.926930213918872 0.0026461930570666472 17.211845469471218
7.6 0.018075477657959707 -67.11626674873729 0.8884307434373815 -105.84641292936979 0.8884307434373815 -105.84641292936979 0.031052317760012355 44.678856903853145
7.7 0.054638158186911576 -111.11004666616505 0.8863473864614824 172.2513889199491 0.8863473864614819 172.2513889199491 0.03437479432971947 -58.570970383787305
7.8 0.04963856936497286 156.4578931807018 0.8851290126035222 90.4675459494773 0.8851290126035224 90.4675459494773 0.034733592907859455 -176.0001226347982
7.9 0.026445363308528792 56.593797018987004 0.8856206402861555 8.561769722707014 0.8856206402861555 8.561769722707014 0.04050038013041598 91.86382480531017
8.0 0.034053850816771813 42.097514710486884 0.8843856949744158 -73.38755693131547 0.8843856949744154 -73.38755693131547 0.04463012766597214 6.37853123014166
8.1 0.0709846371049054 -25.816991787651535 0.8821128040968775 -155.20200466721167 0.8821128040968776 -155.20200466721167 0.04136650636798614 -96.95293711144487
8.2 0.045602555898736886 -97.23639999945657 0.8826086261135279 122.99687103249227 0.8826086261135276 122.99687103249227 0.0325183951640441 139.85170081508355
8.3 0.02867542220736998 -41.08757317009285 0.8825943608580668 41.032997796518835 0.8825943608580668 41.03299779651884 0.02174667320606041 0.8067758512323312
8.4 0.045562076797923984 -98.19523513185058 0.8808510578875416 -40.81724985480617 0.8808510578875418 -40.81724985480617 0.01879425922439823 177.640101953662
8.5 0.01828697326076069 -96.31511364015078 0.8810377141632078 -122.73565230338428 0.8810377141632076 -122.73565230338431 0.03253911236696224 46.30197186732251
8.6 0.031152851991804443 -127.35917086178965 0.8793753577935381 155.38256326449044 0.8793753577935381 155.38256326449044 0.021644007378506403 -39.71522536403924
8.7 0.01118010819908366 26.58995679053861 0.878841266355955 73.47702989407915 0.878841266355955 73.47702989407915 0.013971893595973001 -0.4882782443530171
8.8 0.024244534478002587 -94.17179627527219 0.8779036407686457 -8.407348836993192 0.8779036407686456 -8.407348836993194 0.01949586835755315 -25.595492679728036
8.9 0.041005794579493986 19.505642746722156 0.8764524430041714 -90.40020080342012 0.8764524430041718 -90.40020080342012 0.04817715454798112 -19.08663856445983
9.0 0.1011552613364284 -72.71832932497352 0.8718605990251914 -172.1576017907275 0.8718605990251914 -172.1576017907275 0.08264525487215482 -84.25700127770044
9.1 0.05771373905108132 -161.06552196734677 0.8737532409750786 106.204527122274 0.8737532409750786 106.204527122274 0.04702747978399946 -163.10492761196784
9.2 0.037720439568526026 -73.00293005782751 0.8745912363675657 24.120606083232882 0.8745912363675655 24.120606083232886 0.029402518704178874 -32.85720301103797
9.3 0.06083647116744352 177.27307709797273 0.8714469285699743 -57.683629269415334 0.8714469285699746 -57.68362926941535 0.05763836437331843 -101.54542665914883
9.4 0.05834078213003368 11.832133543362634 0.8713684589716975 -139.5365585557254 0.8713684589716971 -139.53655855572543 0.047703218386421095 -121.65070579015874
9.5 0.06537464029940897 -119.73649621370261 0.8705225597682646 138.6259000144997 0.8705225597682646 138.6259000144997 0.05148195140615771 -140.21947827861504
9.6 0.04722540703528308 55.57570120952738 0.8701168952296642 56.70971166446555 0.8701168952296642 56.709711664465544 0.043677473668991676 -140.04997244012156
9.7 0.07824983692356302 -69.87429395370351 0.8686283834929732 -25.091201034943207 0.8686283834929732 -25.091201034943207 0.06116283420558589 -168.79101786725673
9.8 0.005744601137264432 90.0470953008182 0.8699510915667867 -107.01993665450692 0.8699510915667867 -107.01993665450692 0.013866174991561769 166.78789476876153
9.9 0.09884283192333503 -57.1839260725018 0.8652940389782919 171.017371135245 0.8652940389782916 171.01737113524499 0.07461501194289628 -151.38668270509365
10.0 0.07731653426205175 -126.5966035775126 0.8660103241009802 89.46920489643593 0.8660103241009802 89.46920489643593 0.07995923009386974 124.60996878519731
10.1 0.05034696072342345 -93.37403406535726 0.8670711455293503 7.402417673712314 0.8670711455293505 7.402417673712316 0.024348408138547613 -41.26178197019884
10.2 0.06749851837653326 -137.36487195303866 0.8650457676262979 -74.38649980618062 0.8650457676262976 -74.38649980618062 0.05706576565458271 163.5756619958989
10.3 0.03832366410170197 -105.76161402299098 0.8660066822627965 -156.34216775219917 0.8660066822627964 -156.34216775219917 0.02798348003761294 20.80670035048045
10.4 0.07882977209259312 -146.9541293008765 0.8627706965696322 121.8083446798829 0.8627706965696327 121.80834467988288 0.05579020794944199 -153.70035977610902
10.5 0.03143455900673693 174.06463705124474 0.864262626811105 40.02009636776033 0.864262626811105 40.02009636776032 0.04881616677676155 93.5428229652632
10.6 0.04483256961355568 -176.3041436280959 0.863057717531434 -41.96189134263242 0.863057717531434 -41.96189134263242 0.03042546959038944 -55.16643731930627
10.7 0.038059459881780014 45.24832562343843 0.8620732007285409 -123.80784974681222 0.8620732007285408 -123.80784974681222 0.02774411617405379 -135.31912520282933
10.8 0.06512186116090278 -87.04923471120877 0.8610050384657294 154.3158462092416 0.8610050384657293 154.3158462092416 0.03796003253307689 -163.29674032231915
10.9 0.009935635396651533 -110.82385865301012 0.8617056038633008 72.3781781380257 0.861705603863301 72.3781781380257 0.018222742649634357 88.56215543409672
11.0 0.09632866662961219 -92.13177517366752 0.8571547827906942 -9.600578926494217 0.8571547827906946 -9.600578926494217 0.05842000422765985 -107.41666519720626
11.1 0.07555671218409209 -167.62612705519842 0.8571865096404652 -91.14557376272725 0.8571865096404648 -91.14557376272725 0.06736221275887487 157.66556973755885
11.2 0.059091130081465944 -93.06294394657509 0.8582888357966884 -173.31844242094982 0.8582888357966886 -173.31844242094982 0.024929103580558408 -51.10887778953102
11.3 0.11881906329135829 -163.11694002863982 0.8519078581021519 105.03641740945996 0.8519078581021516 105.03641740945996 0.09088537404142567 -173.6535232763405
11.4 0.037293490750282675 147.9460337257285 0.8569890083369519 23.316247088672764 0.8569890083369519 23.31624708867277 0.06008513264206543 83.86743049550581
11.5 0.08280142471410398 -175.55936320664176 0.8539878276152146 -58.778833644728216 0.8539878276152145 -58.77883364472823 0.0470381471289323 -115.25641182285364
11.6 0.0675732008198796 98.34971875860514 0.853249454377128 -140.3669298206989 0.853249454377128 -140.36692982069889 0.0682560439219796 144.65400725142717
11.7 0.02296475145469374 -101.08388670343727 0.8556189766096555 137.6504125067383 0.8556189766096552 137.6504125067383 0.020269061851733394 87.98908200253109
11.8 0.029716135906070088 117.09525090494174 0.8542954373733617 55.750328489646336 0.8542954373733616 55.750328489646336 0.023159678552668185 133.23130022541594
11.9 0.03812562958069517 -83.52592329523425 0.853729657723367 -26.180330193919865 0.853729657723367 -26.180330193919865 0.0114118684684431 147.38218212361105
12.0 0.03714245612503462 174.65117299684354 0.8528233088499203 -108.02565104320993 0.8528233088499205 -108.02565104320992 0.02973974945147107 119.9633478195867
12.1 0.03502926775659767 -84.4983511971695 0.8521952340061311 170.02186360062538 0.8521952340061313 170.02186360062538 0.004363634344581402 -66.91002333545003
12.2 0.07388396018173707 -164.16550266381967 0.8497006608223638 88.20592853162012 0.8497006608223636 88.20592853162012 0.05089877996550052 143.91133821220035
12.3 0.03374122693330548 162.49362528830102 0.8505952783820699 6.370590233281545 0.8505952783820698 6.370590233281547 0.050936506046945676 40.09115021997303
12.4 0.06438443085731697 165.60883988900858 0.8482639948683103 -75.57290486258785 0.84826399486831 -75.57290486258785 0.03715518220207993 -122.07560940924513
12.5 0.060514397385248844 95.94711388015402 0.847405634469913 -157.2845679660573 0.847405634469913 -157.2845679660573 0.058943896756137135 113.87781648039669
12.6 0.01776145667297576 41.45341521049568 0.8487339588780142 120.83492102842078 0.8487339588780137 120.83492102842078 0.042905758926620116 20.73889049045215
12.7 0.026297886349824932 32.66846611494589 0.8478541455894927 38.91347516513421 0.8478541455894926 38.91347516513421 0.012095984050902531 -116.61997294093126
12.8 0.03694439221352439 -48.80514293558736 0.8468916070375084 -42.96550680166776 0.8468916070375084 -42.96550680166777 0.031848479045645924 99.2225445038776
12.9 0.03172071737483572 -101.48338209721699 0.8465447135997974 -124.84160087078199 0.8465447135997974 -124.84160087078199 0.04320451097257583 24.699149139616797
13.0 0.030121528494522824 -110.03061883958728 0.8457154175529683 153.26028809976765 0.8457154175529682 153.26028809976765 0.013914773645966352 -62.52999244292912
13.1 0.048006508677871006 -116.08756924359864 0.844305196211017 71.32803912945324 0.8443051962110169 71.32803912945323 0.047204701364158067 54.9837514931118
13.2 0.07027207050103729 -166.0457288830966 0.8423381060312863 -10.45651307730245 0.8423381060312863 -10.456513077302443 0.0760170143942825 -24.298082034727404
13.3 0.034452802372866576 126.10825802624362 0.8427742262073983 -92.24679632183654 0.8427742262073985 -92.24679632183654 0.03226222520334696 -92.06359852565666
13.4 0.034472035081166225 -159.52772936326573 0.8424011492014033 -174.24897045684864 0.8424011492014033 -174.24897045684864 0.04090023483255111 -8.991905544494415
13.5 0.05163056378490432 98.71582974128539 0.8402608980923422 103.93972587153908 0.8402608980923424 103.93972587153907 0.061205183170886426 -58.19433924023217
13.6 0.043901266858564776 -52.499845172290414 0.8401461944724467 22.099373349011916 0.8401461944724467 22.09937334901192 0.04884312441816795 -78.74194116555024
13.7 0.03688017747560763 155.20705148032 0.8399232905916484 -59.797484780037124 0.8399232905916484 -59.797484780037124 0.04092336022876296 -82.02780632436838
13.8 0.052836426029060704 -32.67049627616185 0.8382960960162537 -141.73606870687541 0.8382960960162535 -141.73606870687541 0.0561644443283673 -71.81567511798369
13.9 0.06185802026325892 -151.81770357975296 0.837019303475568 136.4862869849492 0.8370193034755677 136.4862869849492 0.06339932391988366 -106.24339561609665
14.0 0.04456020002288294 -10.952183904795893 0.8370339968368586 54.45954254864909 0.837033996836859 54.45954254864909 0.049257485841556425 -76.57229702135058
14.1 0.1199678358645646 -123.79977526058448 0.8303785655227487 -27.257777346161813 0.8303785655227488 -27.257777346161813 0.1117948519663263 -112.5164904944773
14.2 0.06466328784406357 147.28278683054936 0.8347478013952349 -108.7765183942723 0.8347478013952349 -108.7765183942723 0.06703598987073318 -176.07427191080495
