# GHz S MA R 50.0 
!freq magS11 angS11 magS21 angS21 magS12 angS12 magS22 angS22
1.8 0.06348413272182973 176.28095468167666 0.9434823400371082 -34.10067578256517 0.9434905466842144 -34.09667578256519 0.08219363542253089 -107.77667332099885
1.9 0.05364057195290835 166.2822349733405 0.9436250575102303 -115.97258264159693 0.9435919531304882 -115.96558264159694 0.06084840812613734 90.05999701589046
2.0 0.04835501222021421 168.2927680502838 0.9417862258092188 162.21093485089534 0.9418407771779731 162.21793485089535 0.06365820376784638 -76.03706703840848
2.1 0.05594998316336702 -179.98791663630814 0.9398615434705775 80.3567967494735 0.9398883785913705 80.36179674947348 0.06461344377528802 116.88771408503854
2.2 0.07067306244028361 165.34278105589547 0.9387675950158255 -1.3986463508283673 0.9386470205394128 -1.3976463508283634 0.0784325645502087 -24.841431288408383
2.3 0.05095798459820205 158.7483928938328 0.9380582445899365 -83.23351104166838 0.9380039916309306 -83.2345110416684 0.04474587439895486 -176.40958348407113
2.4 0.07789252829970407 175.12260324826684 0.9346519649407532 -165.09648170506796 0.9347150692742549 -165.090481705068 0.08490111272759235 -3.795062850929728
2.5 0.08780152694770754 139.45696879946917 0.9346526935287197 113.28561998088611 0.9347313863439471 113.29061998088609 0.08165434075466109 -117.07274338372461
2.6 0.04794809486505232 146.9609934112398 0.9342433691473936 31.39240260623762 0.934293106247465 31.395402606237607 0.03264731475996036 32.545205250447374
2.7 0.08892717147792989 146.96769990474354 0.9318351721217685 -50.393569600105195 0.9318584326754392 -50.390569600105195 0.08622070370762197 -105.0177341061145
2.8 0.06838945484176653 104.86998523942056 0.9329540011619122 -132.132052113493 0.9329414594477052 -132.12905211349297 0.02981353166937727 147.9076033107947
2.9 0.04028782657372788 140.4365269504994 0.931229374990277 145.96551221976634 0.9312189910444097 145.96351221976636 0.04352184990404381 -104.93607205654732
3.0 0.06407993570508629 117.77431754201939 0.9300007426067184 64.20710059811807 0.9300988999198485 64.20710059811806 0.039500723505495786 149.20117524100448
3.1 0.03786245209684356 90.58938904539768 0.929915361512214 -17.649197707349153 0.929951663139063 -17.648197707349148 0.008471825643895932 -53.98296470436043
3.2 0.008919105965641095 99.57185660902188 0.9275818484470375 -99.51253196026632 0.9277994943313822 -99.51153196026631 0.027414068079969895 76.57981210825757
3.3 0.04423378759633267 -172.80565425291093 0.9247674107136832 178.722468193083 0.9248432097171864 178.72046819308298 0.0701727014103137 -47.72758278735049
3.4 0.06501516686417516 132.1659197447823 0.9247298035896827 97.05352788481451 0.9248281894639966 97.0555278848145 0.05318011748336261 -149.60764606213476
3.5 0.02811244977948837 126.92985134645131 0.9241248706714121 15.180575338514055 0.9242301372310903 15.180575338514064 0.02724212509437629 -18.958192174811472
3.6 0.05993191517371913 118.04075852391965 0.9227772702385822 -66.59032269806703 0.92285551564839 -66.58732269806703 0.043625540442063994 -113.25961741048755
3.7 0.0330483308741679 16.100912839744744 0.9218576840480889 -148.478548456341 0.9219140234270486 -148.479548456341 0.04232345747511054 -78.97161152992776
3.8 0.05236620447415758 -164.66809327922445 0.9180672215574123 129.88153360324597 0.9181975175852816 129.87953360324596 0.080187169524638 -146.09231485442643
3.9 0.04290671055307387 105.43561301605224 0.9203866759562895 48.12016678400752 0.9205280643821283 48.11616678400751 0.018162445634354412 124.31466500211222
4.0 0.022950402734922357 -143.8792904825643 0.9183449348196147 -33.75532096019488 0.918386509395645 -33.75532096019488 0.05508296829957962 -136.27130610598078
4.1 0.03893131859364757 144.45022828640907 0.9178157506579566 -115.46050704176174 0.9178857762328888 -115.46150704176175 0.036377231244916666 111.81720725291417
4.2 0.031155879947948543 -176.35144398180796 0.9165265703624851 162.66308155863862 0.9165672807585117 162.6610815586386 0.04871527681761489 -81.57262493711208
4.3 0.054683291994341486 125.03369825952693 0.91605142378048 80.95498818170343 0.9161972164435419 80.95398818170342 0.03831916754098437 -173.13755347742327
4.4 0.012898265257393687 -58.71908854794619 0.914756812994934 -0.9631096459016422 0.9148481442661449 -0.9621096459016492 0.04219866737657407 -102.38225244587612
4.5 0.06493189189577307 170.13463948507558 0.9126553205807761 -82.62494477886702 0.9127798123419887 -82.62594477886702 0.07132221584598167 179.95200588747713
4.6 0.033331904287617356 88.4464775834946 0.9138468175444936 -164.4255509146636 0.9140352806771583 -164.4255509146636 0.0062769330362094315 140.4724189206692
4.7 0.03359067339778127 -166.42211781781677 0.9114832049849726 113.74370627387853 0.91166901843621 113.74370627387853 0.05286330140702564 -179.19766698698993
4.8 0.027204380569470565 127.28064760179582 0.9118833672152842 31.96202383880708 0.9119810869553878 31.960023838807086 0.016996250198496824 55.883307041049406
4.9 0.04385852185972729 -156.21522504295913 0.9085827406786848 -49.89759036106002 0.9088465673398216 -49.90159036106001 0.06335592733330793 -153.3846751931299
5.0 0.06718808571945424 145.96857242868094 0.9081920337170973 -131.5081778832595 0.9082898855763265 -131.50817788325952 0.06123965732669025 104.2880891098265
5.1 0.045360457928296787 137.00143063861736 0.9086450085416631 146.60726881680915 0.9086556552697496 146.60526881680917 0.034573029906718296 -66.21391966643375
5.2 0.0740374506637517 105.89832304842513 0.9069881929406741 64.84502889363445 0.9069939180518877 64.83602889363443 0.048991870552560005 -177.2114831938547
5.3 0.04752838926195778 23.408502664158583 0.9066024328455607 -16.963195742399833 0.9066739448338986 -16.968195742399836 0.03726024023130713 153.40008669967142
5.4 0.01970310493029054 -146.50850547583465 0.9054228819957598 -98.74708951545206 0.905467449181897 -98.75008951545203 0.04457251393842732 98.35300224549286
5.5 0.016329359393162338 107.95854261252862 0.9049856476262759 179.43735269540463 0.9051117427894758 179.42935269540462 0.01757742083070627 -44.62278007275608
5.6 0.014741864279344786 150.03808173932725 0.903167700833135 97.65519037173625 0.9032760724068172 97.65319037173629 0.025674268469120912 151.2778900425122
5.7 0.01918281392780191 36.68169126400703 0.9027251438583084 15.807548410892966 0.9028165781296914 15.799548410892974 0.015567967834216974 -96.53841500949088
5.8 0.03554440371014989 -112.60658458271187 0.8995739449715576 -65.95115691357236 0.89963589144354 -65.95715691357238 0.061580727037928024 153.89388033717643
5.9 0.036994755882267694 138.45638202289032 0.8996610695832019 -147.62882609856248 0.8997680532646307 -147.63382609856245 0.03811142510807206 66.52794249505433
6.0 0.03703542973012096 -17.574031226977834 0.8986050853576857 130.4372691130531 0.898632200071712 130.43426911305312 0.04458476979682098 120.39098124198755
6.1 0.06556125925177246 -113.59298650442464 0.8944305826819974 48.78165675220486 0.8945445325751178 48.778656752204874 0.09365610984599312 25.520362352525073
6.2 0.05249415098134933 -178.65960225586383 0.8960739144646749 -32.79402360129447 0.8961165254269132 -32.796023601294486 0.06311446299557752 -84.10636916111052
6.3 0.007053944217889879 -93.53238703196185 0.8972886433661382 -114.76475442155751 0.897317355822815 -114.7687544215575 0.03143527962860379 40.42985877899848
6.4 0.06870874931992003 -124.1166843075156 0.8923682018026703 163.40522421748443 0.8924404997139163 163.39922421748443 0.09129159955847595 -94.24755249610348
6.5 0.07734928898694651 -174.46604857381317 0.8921568769073008 81.90785038148199 0.8921769085783504 81.90385038148203 0.08109345546478075 142.7558580745227
6.6 0.045553872953212 179.02540885622466 0.8938963893579692 0.024826365690302995 0.8939171396764872 0.018826365690302823 0.05489558152658688 -25.968742765883356
6.7 0.07642625735810056 -178.66511503710754 0.8903040625010145 -81.76611763493494 0.8903910287772302 -81.77611763493499 0.07969355238907086 178.8976865373661
6.8 0.08464360416481288 139.54881268435778 0.8904635680004297 -163.35453813100995 0.8904758510759246 -163.35653813100993 0.07754433572538244 55.01050817242006
6.9 0.04679833467482392 87.88548453212168 0.8923962787961142 114.82174746713358 0.8924273261012708 114.81674746713355 0.030665672379270082 -43.437464529632045
7.0 0.02454655689820174 -117.68622462703463 0.8908240378021063 32.883603599918295 0.8908788429695523 32.87960359991828 0.04724890884561646 -9.585988362748372
7.1 0.07497329759233007 166.80211791669174 0.8878305965123849 -48.77310304629822 0.8879090771324873 -48.77710304629823 0.07771758261002458 -98.90327829696865
7.2 0.050809292745179556 102.62243202195464 0.8895940943388972 -130.47975151542764 0.8896609483765209 -130.48575151542764 0.027970373984392914 166.84016613711296
7.3 0.02510477069143709 173.9009556913668 0.8887353016959597 147.62619190641797 0.8888104023594189 147.62219190641798 0.03627613444805083 -92.30773984491724
7.4 0.05196945746380264 116.18336863229858 0.8876238928256162 65.91002203913355 0.887748953081904 65.90802203913358 0.03518877495061429 -175.0108220062943
7.5 0.007047446888665368 54.572860547743865 0.8877027668885829 -15.9500847513886 0.8877661146908206 -15.954084751388615 0.018399846563861056 -115.7836748498281
7.6 0.040879906203189174 128.7740813087708 0.8861978143726912 -97.73086949484859 0.8862538262559086 -97.73386949484863 0.035327449413566775 -166.11507943302448
7.7 0.03824721320926944 12.899051629590915 0.8851900524670572 -179.56845271697765 0.8852106800406817 -179.57245271697766 0.0392315042202274 -165.95789816286742
7.8 0.050974971127495314 -130.05484838779697 0.8828241448384972 98.71835531948071 0.8828060871960441 98.71535531948066 0.07007172454062847 137.64583890150746
7.9 0.04946787736095733 124.78667976447694 0.8835266673700268 17.042642290864183 0.8835341317549151 17.042642290864176 0.04294025988867192 69.09667169082236
8.0 0.02864749209388106 -25.491461849286225 0.8826084143391462 -64.85542808435997 0.8825846977269642 -64.85742808436 0.041532762158869085 95.21320791955036
8.1 0.053486279269102474 -145.58324577044502 0.8801958775719385 -146.54236315533106 0.880236276480712 -146.5443631553311 0.0741121880668831 19.589199004540873
8.2 0.04172960434009138 138.6702721430286 0.8812169350643717 131.76703517883746 0.881245254519395 131.76403517883745 0.037534590525637415 -71.08695455521209
8.3 0.006630831402993254 -139.1026679867202 0.8806967399738309 49.87849816515396 0.8807434255606593 49.87749816515394 0.03028056194626472 17.79127997581737
8.4 0.044105952696224734 164.78783209184022 0.8792620259609248 -31.867399914453422 0.8792400192102778 -31.869399914453407 0.05508982414833025 -68.86301582807931
8.5 0.042001301243649744 72.8623042216544 0.8790863571802151 -113.63568037266676 0.8790655723708383 -113.63768037266671 0.026467488515163298 -111.0549055482595
8.6 0.03610115748613823 -52.084008336231605 0.877486568992112 164.52618297276908 0.8774945293855944 164.5251829727691 0.04724369815180289 -137.3649056640285
8.7 0.03595246920471255 -141.93532926928424 0.8763024019862873 82.85651434194465 0.876342129178326 82.85451434194465 0.04659426610224849 114.34242014896103
8.8 0.019389456647155225 -179.78738420341418 0.8764602036051355 1.0810677096635701 0.8765043009475038 1.078067709663573 0.03285931959861835 -30.29420435540516
8.9 0.00603133370280811 -149.47995388923698 0.8759953952955883 -80.72749990742034 0.8760264383339116 -80.73049990742032 0.01478805783879083 130.17372385271796
9.0 0.02623245861093768 -114.8153507288167 0.8745789936687022 -162.53790444741665 0.8745558922812123 -162.53790444741665 0.04415224211739638 -33.18116787693144
9.1 0.024202500532347817 -168.58079125278954 0.8739854985546374 115.74651080304076 0.8740382065869831 115.74651080304076 0.027842014620663064 -154.11581465252598
9.2 0.020570782489970393 -83.59306151315297 0.8729066773292744 33.89841235234286 0.8729210879428589 33.897412352342855 0.03850811665444005 -25.602100397546803
9.3 0.04788997105377076 -133.26082252110567 0.871200853993335 -47.822409509194834 0.8712886639732421 -47.82640950919482 0.05384190755766602 -144.26742911142165
9.4 0.02680168733662992 -146.54477363064697 0.8714873530995131 -129.59365631491153 0.8715052567092176 -129.59765631491152 0.03431007058613282 37.183264894901455
9.5 0.05532340920236076 -136.8759632440166 0.8689969990597135 148.61210577311869 0.8690733633876535 148.6101057731187 0.064943098395921 -111.200317784564
9.6 0.0512102733366551 -177.16082925152602 0.8692172062841653 66.96208886079975 0.8692177799770312 66.95608886079977 0.04479168861210147 112.76661722403212
9.7 0.03481417354116878 -161.15748883651383 0.8687521991314846 -14.877007599388508 0.8688042542269216 -14.884007599388507 0.04335904360212485 -67.92671103876579
9.8 0.048890907500071884 -168.41147002298965 0.8676141415889206 -96.63996207632923 0.867596566311428 -96.64696207632923 0.0447301482647774 135.09124555336538
9.9 0.05415113532135441 179.90343323049464 0.8666886478988407 -178.3822878878666 0.8667167463457128 -178.3852878878666 0.06039907215361809 -18.714640670747787
10.0 0.05313561409833299 143.98837139437518 0.8665560099440621 99.90312710489155 0.8665345297142144 99.90012710489158 0.041943719892488525 -133.77767633325064
10.1 0.012717396143521867 151.04915892065142 0.8667449112170963 18.051890075642007 0.86670419517895 18.048890075642014 0.02313709607323908 -25.068452760962213
10.2 0.042249506767240395 165.3220971041177 0.8650801459466682 -63.6979939947524 0.8650988346331252 -63.69999399475235 0.04200873344045794 -128.22664563048139
10.3 0.019869620364981036 94.89167112439952 0.8652289036381857 -145.49853192708176 0.8652082290654941 -145.50453192708179 0.0064208247093031625 -38.78444041269051
10.4 0.028977152200925935 -146.27167775996398 0.8633808961226135 132.7113508247334 0.8633894662221492 132.70835082473337 0.042484310242948777 -139.92186113344255
10.5 0.0364836792632171 137.72161334279096 0.863298554051444 50.98641313210968 0.8632767771417984 50.97941313210967 0.02320918608232889 105.35516799562681
10.6 0.009110153158845828 19.572841195911128 0.8626999533373619 -30.858863156938526 0.8627216156028147 -30.866863156938525 0.012366556701449472 -140.4765003773301
10.7 0.021829302270735113 -118.63931422771842 0.8613210236653941 -112.64949380329986 0.8612625501583577 -112.65449380329987 0.03841557188795219 51.797282314823875
10.8 0.02235918359380464 -172.52836972280116 0.8606290230625183 165.5992232026359 0.8605552130912607 165.5952232026359 0.044074076206308814 -60.3316821129356
10.9 0.015359071875270882 -35.62920456336961 0.8598824158930531 83.71702393028922 0.8598741778099138 83.71502393028925 0.025177916638004394 30.165413234246458
11.0 0.06303544108929525 -116.32233308389247 0.855677432580337 1.9690908581007052 0.8555942627712342 1.964090858100705 0.09328339348645977 -62.13620689672986
11.1 0.04224478018825563 162.4057440251623 0.8572974398755252 -79.6305486266815 0.8572619359411255 -79.63754862668152 0.047626910512190986 -143.86084332781098
11.2 0.05030210873664311 -72.52401314139183 0.8549752516990151 -161.7137781187286 0.8549403907268891 -161.7177781187286 0.07766257227040023 -67.59891504090436
11.3 0.0945754826758877 -155.5814955253388 0.850043914398024 116.89279367410305 0.8499744698213527 116.89079367410304 0.11142023696740429 -150.7613671599157
11.4 0.021542435466566496 112.28676336878291 0.8554175509612464 35.11536102844008 0.8553833189821648 35.116361028440075 0.006066118808257227 172.1430056321265
11.5 0.08526413083104512 -120.63678300178755 0.8488996573492499 -46.8640069433361 0.8488652703780187 -46.86500694333606 0.10612853105749619 -151.85383457439409
11.6 0.08481659720902009 169.07012978666205 0.8494568834111769 -128.14539739497644 0.849472992300753 -128.1383973949764 0.08006033696326975 109.1981233457869
11.7 0.022934854587630775 -143.06191679234163 0.8523679526541735 149.83243080181276 0.8523035719654829 149.83443080181274 0.03908932939012983 -112.95722028666931
11.8 0.0813726725366359 -166.64641991304737 0.8478162552411169 68.11722855997712 0.847803399381318 68.11422855997711 0.0817213822804289 116.31061447981632
11.9 0.06123994590748046 157.5327601319701 0.8495011253641755 -13.499822243966117 0.8495058088147488 -13.494822243966114 0.063791403720691 -23.76895071579578
12.0 0.044906088654514155 161.9877690722893 0.8496434943104499 -95.34046857883008 0.849629544505039 -95.3404685788301 0.04307350715539455 -178.06833926604588
12.1 0.04440701522704806 178.12603046463425 0.8488710189858972 -177.1962129202357 0.8488433238587896 -177.1982129202357 0.05046724718355426 -21.501951331801394
12.2 0.07458597760558075 157.1982903790141 0.8461439873405843 101.12866800017758 0.8461444571737191 101.12966800017759 0.08165579072139686 -140.15318526114925
12.3 0.040819940417188144 109.08830228742244 0.848267901377415 19.426481799660984 0.8482315089908224 19.42848179966097 0.02064145766960331 112.06041755055311
12.4 0.05375190809254604 -176.98798570674268 0.8460819094276724 -62.544212345123796 0.8460642433823785 -62.546212345123784 0.07000619152178575 -140.29654085523904
12.5 0.09006034729842113 116.57421345540453 0.8436204843142293 -144.04769190153783 0.8436155112161933 -144.05269190153786 0.0819174562994585 132.9879533674115
12.6 0.030865387419053078 26.896826738761614 0.8466528553161988 134.14596528108967 0.8466031785456025 134.14496528108964 0.020272589387578355 98.93246159497664
12.7 0.05678740404233112 158.76409828219346 0.8439875470622723 52.24110329097667 0.8439385070034104 52.240103290976656 0.06011248913032 113.02579538543456
12.8 0.07805224133772494 69.50207403044405 0.8429228136756811 -29.354273759830825 0.8428644588730628 -29.35727375983081 0.06548895402636508 46.416703088490785
12.9 0.03944517430246203 -38.48724874175161 0.8437522466166262 -111.1240888822806 0.8436954035138828 -111.1230888822806 0.044969466599709074 6.742628769584227
13.0 0.030622386824862083 142.75595094316893 0.8435010668743653 167.06465059472146 0.8434738729296787 167.06365059472148 0.03845031379171042 -19.01993299746869
13.1 0.04651306324564396 29.623427681894224 0.8427161780027789 85.28169141178445 0.8426097216360089 85.28069141178446 0.042607327198182346 -43.02250493904031
13.2 0.038627211984479 -50.70947812715565 0.8417255167064998 3.5181483652549925 0.8416811500309941 3.51814836525498 0.046783366645817476 -106.52875462695906
13.3 0.021677248932807803 -77.65532738264672 0.8418501266313781 -78.2620569850689 0.8418458520852715 -78.2610569850689 0.01938548371266593 128.2686142085763
13.4 0.021590318505106062 -76.68971124717145 0.8410046268476631 -160.0515748528568 0.8410013032352616 -160.0485748528568 0.03011449349990599 -63.09872877928445
13.5 0.02694844211285479 -71.02962863456843 0.84034563170585 118.13640721338962 0.8402970246749717 118.13640721338962 0.026497797039550863 151.92441004347918
13.6 0.03538420197243838 -88.0600728351603 0.8392261250279592 36.36119723989888 0.8392350670672458 36.359197239898855 0.0359680180630146 -23.839219932521825
13.7 0.037757014304022875 -73.87399594554728 0.8383196437915965 -45.46941909250724 0.8383295395865181 -45.46541909250727 0.03769400878405171 171.2344945890085
13.8 0.07501035995448646 -94.82955650350509 0.8351736494182069 -127.23640446862542 0.8352001204923822 -127.2284044686254 0.07216831082343356 15.185536772853727
13.9 0.06684087934947344 -133.3655760489057 0.8352204947343174 151.19172407276494 0.8352359397083489 151.1917240727649 0.06821878473190791 -105.61158968762398
14.0 0.05429118546101419 -118.08075924352241 0.8351827907183327 69.29679734954291 0.8351710524167781 69.30379734954292 0.04795076184918556 65.28879543971894
14.1 0.07880344000432551 -142.37487053303607 0.8330476931349718 -12.374411917712829 0.8330451582694814 -12.370411917712818 0.0830488392584386 -68.70262375880431
14.2 0.041708586682037224 -159.09290271816283 0.834694851444952 -94.11793126541424 0.834755553770206 -94.11593126541422 0.03026877106542513 154.09806976277082
