! C:\Users\Focus\Desktop\Focus Traning\LOW FREQUENCY TUNERS\LOAD-PULL CALIBRATION\02-08-2024\focus_TRL\line.S2P
! measured on: 08/02/24 14:48:27
# GHZ S MA R 50
 1.800000000  0.0406110 161.143  0.8926144 -73.973  0.8926070 -73.966  0.0587545 -110.143 
 1.900000000  0.0210134 -15.820  0.8908167 122.062  0.8907029 122.068  0.0311726  97.118 
 2.000000000  0.0191427 -160.633  0.8881801 -41.911  0.8883012 -41.900  0.0401710 -68.922 
 2.100000000  0.0367801  20.857  0.8852539 154.120  0.8852268 154.128  0.0405354 111.483 
 2.200000000  0.0090767 -161.657  0.8824478  -9.800  0.8822339  -9.797  0.0440807 -14.079 
 2.300000000  0.0280327 -89.185  0.8799205 -173.726  0.8798934 -173.720  0.0306943 -110.023 
 2.400000000  0.0365474 -173.869  0.8760206  22.245  0.8759303  22.249  0.0548046  26.291 
 2.500000000  0.0802706 -23.248  0.8714006 -141.408  0.8713138 -141.404  0.1057006 -99.215 
 2.600000000  0.0277582 -91.854  0.8725976  54.610  0.8726768  54.618  0.0257008  25.872 
 2.700000000  0.0431290 -27.714  0.8684349 -109.416  0.8683821 -109.413  0.0629313 -66.087 
 2.800000000  0.0717440 -170.081  0.8667031  87.015  0.8666639  87.022  0.0786109 153.803 
 2.900000000  0.0254936 173.109  0.8659735 -77.091  0.8659662 -77.088  0.0420117 -109.092 
 3.000000000  0.0497367 -179.193  0.8624914 118.988  0.8624420 118.992  0.0527812 -162.480 
 3.100000000  0.0355928  15.780  0.8616867 -44.850  0.8616529 -44.844  0.0341447  23.987 
 3.200000000  0.0104220  68.161  0.8596549 151.131  0.8597372 151.135  0.0169397 117.646 
 3.300000000  0.0285704 -122.378  0.8558770 -12.782  0.8558532 -12.778  0.0570933 -41.492 
 3.400000000  0.0557549 -60.138  0.8529267 -176.557  0.8529858 -176.553  0.0748045 -133.140 
 3.500000000  0.0449833 -69.380  0.8518756  19.438  0.8520254  19.445  0.0395578 -41.092 
 3.600000000  0.0874756 -105.145  0.8469506 -144.473  0.8470170 -144.469  0.0642378 -42.099 
 3.700000000  0.0307250 148.990  0.8494330  51.899  0.8494155  51.897  0.0256529 121.581 
 3.800000000  0.0648084 119.510  0.8434346 -111.980  0.8435300 -111.971  0.0932544 -145.342 
 3.900000000  0.0320566 164.374  0.8448031  84.146  0.8447566  84.145  0.0432381 146.365 
 4.000000000  0.0382090 161.092  0.8422279 -79.894  0.8421512 -79.894  0.0584040 -120.579 
 4.100000000  0.0436058 -88.991  0.8401611 116.261  0.8402155 116.265  0.0662961 132.006 
 4.200000000  0.0797712 -170.501  0.8360009 -47.612  0.8359768 -47.614  0.0918014 -90.797 
 4.300000000  0.0275517 -178.451  0.8372880 148.581  0.8373080 148.584  0.0250272 -137.110 
 4.400000000  0.0391716 -123.314  0.8356609 -15.528  0.8357697 -15.518  0.0509821 -71.445 
 4.500000000  0.0350617  46.085  0.8322623 -179.104  0.8322113 -179.109  0.0645491 161.975 
 4.600000000  0.0021738 116.510  0.8329427  16.865  0.8330247  16.865  0.0141441  36.789 
 4.700000000  0.0800493 112.186  0.8267397 -146.987  0.8268823 -146.983  0.0862335 152.671 
 4.800000000  0.0516378  10.701  0.8274731  49.141  0.8274858  49.138  0.0264544 -77.519 
 4.900000000  0.0534808 -176.156  0.8245395 -114.691  0.8246477 -114.693  0.0526788 162.575 
 5.000000000  0.0464211 155.030  0.8230304  81.437  0.8231647  81.440  0.0561382 140.663 
 5.100000000  0.0039781 172.592  0.8229478 -82.512  0.8228981 -82.514  0.0259558 -89.873 
 5.200000000  0.0823430 140.357  0.8174126 113.505  0.8172632 113.499  0.0648889 -123.904 
 5.300000000  0.0797518 -29.767  0.8183659 -49.953  0.8183820 -49.951  0.0514098 104.390 
 5.400000000  0.0098815   9.249  0.8176547 145.975  0.8175521 145.973  0.0330653 118.331 
 5.500000000  0.0221517 -81.854  0.8162110 -17.977  0.8161596 -17.983  0.0238319 -47.332 
 5.600000000  0.0570977 163.807  0.8124318 178.144  0.8126136 178.152  0.0206485  30.520 
 5.700000000  0.0516566  66.751  0.8118209  14.415  0.8117684  14.409  0.0352690 111.488 
 5.800000000  0.0611740  96.960  0.8081217 -149.620  0.8081266 -149.620  0.0791319 158.732 
 5.900000000  0.0381508  97.565  0.8077004  46.572  0.8078133  46.577  0.0414510 104.305 
 6.000000000  0.0410282 128.695  0.8064841 -117.607  0.8064445 -117.606  0.0479458 172.718 
 6.100000000  0.1255534  -7.689  0.7969554  79.106  0.7970083  79.109  0.1236449   3.192 
 6.200000000  0.0236208 -39.842  0.8023218 -84.742  0.8024471 -84.737  0.0348346 -58.836 
 6.300000000  0.0333797  16.634  0.8018642 111.146  0.8018110 111.147  0.0339132  41.876 
 6.400000000  0.0862575 -144.078  0.7951900 -52.626  0.7951287 -52.624  0.0967938 -114.231 
 6.500000000  0.0179465 127.072  0.7967306 143.657  0.7968407 143.662  0.0228480 149.665 
 6.600000000  0.0534120  63.981  0.7953027 -20.234  0.7951741 -20.238  0.0596738  29.524 
 6.700000000  0.0687506   3.161  0.7919397 175.943  0.7920581 175.944  0.0914954 173.349 
 6.800000000  0.0557487  52.954  0.7910349  12.023  0.7911637  12.028  0.0586447  91.193 
 6.900000000  0.0640481 -89.148  0.7912563 -151.545  0.7911879 -151.545  0.0627925 -46.494 
 7.000000000  0.0524145  -0.354  0.7901511  44.317  0.7901759  44.320  0.0302130 -47.701 
 7.100000000  0.0998540 -19.239  0.7834986 -119.597  0.7835851 -119.596  0.1070682 -65.127 
 7.200000000  0.0346990 -152.834  0.7874530  77.032  0.7873357  77.030  0.0516295 132.087 
 7.300000000  0.0217314 -43.162  0.7864430 -87.126  0.7864077 -87.124  0.0320759 -65.182 
 7.400000000  0.0501771 -126.645  0.7839094 109.154  0.7839921 109.159  0.0599998 167.710 
 7.500000000  0.0332607 -89.289  0.7837297 -54.852  0.7836594 -54.852  0.0191640 -109.952 
 7.600000000  0.0462049 -96.848  0.7812176 141.290  0.7812334 141.292  0.0588742 -172.170 
 7.700000000  0.0674785 -85.700  0.7793163 -22.763  0.7792954 -22.758  0.0519449 -136.013 
 7.800000000  0.0342257 104.213  0.7771768 173.660  0.7769950 173.658  0.0497216 120.764 
 7.900000000  0.0578658  88.749  0.7752953   9.837  0.7753273   9.840  0.0722859  79.704 
 8.000000000  0.0322955  80.880  0.7753422 -154.241  0.7753773 -154.242  0.0441456 142.256 
 8.100000000  0.0740328 -58.606  0.7710395  42.248  0.7710750  42.248  0.0846285  -2.099 
 8.200000000  0.0560992 -62.433  0.7716861 -121.635  0.7718163 -121.636  0.0479149 -40.170 
 8.300000000  0.0322445 -47.931  0.7715360  74.380  0.7717066  74.385  0.0429446  34.967 
 8.400000000  0.0247123 -51.616  0.7693305 -89.446  0.7692290 -89.444  0.0433940 -59.154 
 8.500000000  0.0310476 -172.774  0.7688841 106.785  0.7689875 106.789  0.0316950 -160.497 
 8.600000000  0.0584960 -131.213  0.7655316 -57.243  0.7656548 -57.238  0.0617265 -129.165 
 8.700000000  0.0348302 -14.121  0.7640263 139.026  0.7641284 139.032  0.0568144 117.330 
 8.800000000  0.0167064 -130.814  0.7637612 -24.800  0.7638804 -24.798  0.0464038 -38.912 
 8.900000000  0.0451801  17.041  0.7620676 171.176  0.7622135 171.178  0.0509188 140.064 
 9.000000000  0.1116939 -81.657  0.7561619   7.501  0.7561514   7.503  0.0960109 -63.835 
 9.100000000  0.0399950 -155.933  0.7590085 -156.159  0.7590719 -156.158  0.0083537  53.608 
 9.200000000  0.0532167 -72.704  0.7573977  39.695  0.7575540  39.702  0.0593584 -16.934 
 9.300000000  0.0634276 143.824  0.7538310 -123.858  0.7537598 -123.856  0.0691105 177.127 
 9.400000000  0.0531428  -8.214  0.7543451  72.219  0.7543940  72.224  0.0471579 -11.778 
 9.500000000  0.0446318 -158.445  0.7523092 -91.556  0.7523100 -91.550  0.0502036 -147.348 
 9.600000000  0.0188449   4.594  0.7522874 104.577  0.7522436 104.580  0.0194795  72.148 
 9.700000000  0.0523323 -69.837  0.7503250 -59.288  0.7504262 -59.283  0.0086201 -167.193 
 9.800000000  0.0315097 -56.469  0.7492539 136.821  0.7491591 136.820  0.0352940 140.972 
 9.900000000  0.0587770 -56.991  0.7469521 -27.094  0.7470036 -27.087  0.0123095 -79.235 
10.000000000  0.1068930 -110.428  0.7423830 169.311  0.7421884 169.310  0.0884843 -99.299 
10.100000000  0.0434523 -101.224  0.7456111   5.400  0.7455237   5.397  0.0405092 -33.902 
10.200000000  0.0621763 -109.978  0.7428678 -158.481  0.7428334 -158.478  0.0396285 -66.300 
10.300000000  0.0261352 -120.553  0.7433156  37.724  0.7432086  37.722  0.0218327  31.818 
10.400000000  0.0598475 -154.935  0.7399793 -126.112  0.7399812 -126.107  0.0219007 149.062 
10.500000000  0.0581768 174.973  0.7386432  70.134  0.7385258  70.134  0.0539812 135.023 
10.600000000  0.0475444 -168.734  0.7382967 -93.882  0.7382883 -93.879  0.0342160 -152.399 
10.700000000  0.0402430  21.957  0.7363448 102.338  0.7363027 102.336  0.0418757  23.015 
10.800000000  0.0488180 -87.147  0.7352053 -61.525  0.7351425 -61.524  0.0167430 -69.223 
10.900000000  0.0014097  42.270  0.7347474 134.488  0.7347323 134.490  0.0119622  27.269 
11.000000000  0.1088100 -116.802  0.7268040 -29.230  0.7267740 -29.226  0.1057576 -85.436 
11.100000000  0.0745232 -144.186  0.7286341 167.082  0.7284945 167.080  0.0630793 -94.090 
11.200000000  0.0950794 -97.037  0.7264961   2.786  0.7264257   2.788  0.0953754 -65.971 
11.300000000  0.0520636 -153.675  0.7237112 -160.547  0.7237384 -160.538  0.0507564 -132.786 
11.400000000  0.0509083 138.105  0.7259545  35.927  0.7258904  35.929  0.0462232 115.776 
11.500000000  0.0865389 142.166  0.7192940 -128.151  0.7192072 -128.149  0.1042078 -170.065 
11.600000000  0.0793041 146.358  0.7185476  68.250  0.7185723  68.256  0.0913529 141.155 
11.700000000  0.0068864 -118.294  0.7232234 -95.647  0.7231637 -95.646  0.0406358 -92.143 
11.800000000  0.0399707 -129.684  0.7187400 100.472  0.7186688 100.467  0.0786630 127.834 
11.900000000  0.0274781  -1.183  0.7193418 -63.204  0.7194696 -63.203  0.0632965 -16.470 
12.000000000  0.0516448 -147.133  0.7184216 132.894  0.7184551 132.892  0.0566847 -159.256 
12.100000000  0.0092559 -146.618  0.7180947 -31.041  0.7179980 -31.046  0.0506943 -25.002 
12.200000000  0.0913699 -128.711  0.7128204 165.050  0.7129660 165.052  0.0957919 -118.672 
12.300000000  0.0449002 122.100  0.7161041   1.634  0.7160345   1.638  0.0441493  58.053 
12.400000000  0.0262787 169.501  0.7139976 -162.573  0.7140305 -162.573  0.0472830 -153.462 
12.500000000  0.1226470 104.494  0.7061300  33.982  0.7063268  33.981  0.1230226 134.134 
12.600000000  0.0042966 -152.141  0.7146132 -129.896  0.7145955 -129.895  0.0196325 -161.937 
12.700000000  0.0203442 151.591  0.7111079  66.074  0.7110563  66.074  0.0516430 112.256 
12.800000000  0.0910305 -59.628  0.7082909 -97.471  0.7083284 -97.469  0.0800376  33.007 
12.900000000  0.0289776 -46.938  0.7101079  98.477  0.7100885  98.475  0.0474629  44.996 
13.000000000  0.0164435 -65.802  0.7090640 -65.335  0.7090102 -65.335  0.0344967 -33.123 
13.100000000  0.0406316 -158.523  0.7083627 130.803  0.7083443 130.802  0.0255912 -94.093 
13.200000000  0.0921113 -154.698  0.7033779 -33.152  0.7033053 -33.152  0.0947434 -86.833 
13.300000000  0.0398229 103.971  0.7048459 163.241  0.7047949 163.241  0.0345498  90.564 
13.400000000  0.0469082 -147.224  0.7037631  -0.814  0.7038573  -0.809  0.0549665 -43.156 
13.500000000  0.0699200  94.670  0.7008705 -164.605  0.7007932 -164.606  0.0673120 135.082 
13.600000000  0.0637513 -68.399  0.7001690  31.631  0.7001549  31.626  0.0665321 -41.262 
13.700000000  0.0589486 137.549  0.6992193 -132.321  0.6992860 -132.317  0.0625028 154.859 
13.800000000  0.0984478 -52.540  0.6940348  63.878  0.6940074  63.884  0.1058919   2.831 
13.900000000  0.0531140 161.352  0.6963973 -99.614  0.6964227 -99.612  0.0650610 -143.901 
14.000000000  0.0734261 -35.251  0.6945486  96.185  0.6946954  96.191  0.0717714  41.488 
14.100000000  0.0960733 -149.893  0.6919043 -67.174  0.6917229 -67.177  0.0753557 -126.759 
14.200000000  0.0465688 170.863  0.6946117 128.890  0.6946405 128.890  0.0275229 -99.485 
14.300000000  0.0886311 -160.616  0.6905751 -35.196  0.6905790 -35.192  0.0871748 -82.925 
14.400000000  0.0575125 139.057  0.6912762 161.222  0.6911838 161.222  0.0046002  27.947 
14.500000000  0.0265797 107.186  0.6917003  -2.706  0.6917552  -2.710  0.0210739  43.394 
14.600000000  0.0600103  89.248  0.6884209 -166.668  0.6884496 -166.666  0.0624198 138.574 
14.700000000  0.0206276  79.843  0.6873717  29.491  0.6872998  29.490  0.0523396  65.931 
14.800000000  0.0734439 -76.137  0.6859307 -134.112  0.6859051 -134.109  0.0782554 -21.777 
14.900000000  0.0519222 -43.662  0.6857039  61.702  0.6857471  61.706  0.0625503  -1.895 
15.000000000  0.0865030 -59.016  0.6797367 -102.344  0.6795996 -102.342  0.0951609 -25.198 
15.100000000  0.1195223 173.761  0.6782236  95.011  0.6781176  95.014  0.1065176 -157.611 
15.200000000  0.0217043 -154.251  0.6837520 -69.383  0.6839038 -69.372  0.0385317 -54.717 
15.300000000  0.1106223 157.619  0.6773519 126.827  0.6771641 126.827  0.0950439 -95.286 
15.400000000  0.0365445  26.251  0.6813092 -36.895  0.6814415 -36.896  0.0423511  27.639 
15.500000000  0.0688452 -179.385  0.6793967 159.076  0.6794703 159.078  0.0525805 -68.042 
15.600000000  0.0433324  57.121  0.6781696  -4.871  0.6780912  -4.876  0.0505874  48.906 
15.700000000  0.1118009 -130.390  0.6730068 -168.473  0.6731532 -168.468  0.1203648 -46.168 
15.800000000  0.0349481   6.259  0.6785378  27.773  0.6784500  27.773  0.0348424 -81.940 
15.900000000  0.0694039 -100.756  0.6750031 -136.372  0.6750060 -136.367  0.0785456 -47.209 
16.000000000  0.0459477  24.669  0.6753226  59.903  0.6754000  59.910  0.0772105 -80.886 
16.100000000  0.0657689 179.329  0.6717505 -103.788  0.6717700 -103.786  0.0801747 -132.110 
16.200000000  0.0523298  97.128  0.6724380  92.235  0.6724652  92.243  0.0634843 -87.100 
16.300000000  0.0901823 -167.149  0.6668378 -71.609  0.6668447 -71.605  0.1235736 -116.693 
16.400000000  0.0768271 -178.952  0.6686161 124.706  0.6685969 124.713  0.0758786 -142.135 
16.500000000  0.0930365 -170.625  0.6658390 -39.603  0.6658977 -39.594  0.1107200 -91.210 
16.600000000  0.0515544 105.460  0.6656678 157.225  0.6656229 157.227  0.0437469 148.162 
16.700000000  0.0416322 135.551  0.6653237  -6.875  0.6653406  -6.867  0.0641575  -5.541 
16.800000000  0.0068827 -101.819  0.6650475 -170.522  0.6650572 -170.517  0.0712852 -123.997 
16.900000000  0.0240446 -26.229  0.6651974  25.380  0.6651999  25.384  0.0401662 -79.495 
17.000000000  0.0056036  63.442  0.6608452 -138.413  0.6608968 -138.408  0.0937022 -121.472 
17.100000000  0.0835796 135.848  0.6603274  57.977  0.6603361  57.978  0.0653399 169.911 
17.200000000  0.0702684  84.221  0.6564015 -106.078  0.6564440 -106.074  0.1341290 -105.351 
17.300000000  0.1200877 152.694  0.6529872  90.359  0.6530380  90.365  0.1419737 -159.041 
17.400000000  0.0460079 121.049  0.6594254 -73.461  0.6595139 -73.461  0.0551610 -114.328 
17.500000000  0.0510417 129.873  0.6574103 122.529  0.6574146 122.527  0.0615124 -133.415 
17.600000000  0.0368255  12.628  0.6570764 -41.000  0.6571056 -41.004  0.0453156 156.721 
17.700000000  0.0053272  77.617  0.6567937 154.910  0.6568602 154.907  0.0378731 -177.445 
17.800000000  0.0339847 160.614  0.6552001  -9.185  0.6551824  -9.187  0.0366400 -104.672 
17.900000000  0.0689312  72.485  0.6523254 -172.717  0.6524449 -172.718  0.0753635 167.009 
18.000000000  0.0788162  78.502  0.6513668  23.196  0.6513818  23.192  0.0664718 176.004 
18.100000000  0.1617862  68.406  0.6394019 -140.615  0.6393660 -140.613  0.1645247 -174.671 
18.200000000  0.0752190  31.653  0.6494534  55.922  0.6495488  55.918  0.0497333 -140.895 
18.300000000  0.0649057  72.495  0.6470136 -108.482  0.6469514 -108.482  0.0940216 -157.886 
18.400000000  0.0746716 -47.850  0.6447380  88.792  0.6447481  88.787  0.0898005  93.919 
18.500000000  0.0645223 -18.634  0.6472515 -75.503  0.6473764 -75.511  0.0408726  82.885 
18.600000000  0.1192855 -29.348  0.6390066 120.473  0.6389522 120.468  0.1282593  95.918 
18.700000000  0.0269373 155.208  0.6450167 -42.953  0.6449233 -42.955  0.0459127 -55.611 
18.800000000  0.0459091 -21.046  0.6436116 153.009  0.6437177 153.007  0.0863646 162.491 
18.900000000  0.0354944  48.505  0.6435678 -10.857  0.6434474 -10.853  0.0520557  77.449 
19.000000000  0.0290720  -3.152  0.6433084 -174.812  0.6432470 -174.813  0.0451286 -176.044 
19.100000000  0.0399694  53.724  0.6410078  21.261  0.6411533  21.265  0.0616893 104.105 
19.200000000  0.0148097 -66.272  0.6419624 -142.561  0.6418778 -142.569  0.0071438  -7.283 
19.300000000  0.0368124  42.689  0.6387735  53.293  0.6388877  53.292  0.0375031 103.054 
19.400000000  0.1005217 -23.191  0.6355395 -110.122  0.6355989 -110.125  0.0854722 -22.651 
19.500000000  0.0807408 -17.359  0.6354762  85.556  0.6354625  85.546  0.0531507  44.548 
19.600000000  0.1704014 -36.853  0.6219129 -78.281  0.6220269 -78.287  0.1426471  33.827 
19.700000000  0.0408729 -144.236  0.6363685 118.941  0.6364281 118.935  0.0447585 -125.164 
19.800000000  0.0750897 -35.496  0.6317075 -45.985  0.6317134 -45.988  0.0425791  42.650 
19.900000000  0.1480628 -142.850  0.6229565 151.558  0.6230433 151.558  0.1446349 -95.781 
20.000000000  0.0153847 -26.091  0.6347152 -12.939  0.6348349 -12.941  0.0042862 -28.891 
20.100000000  0.0962225 -119.689  0.6267562 -177.151  0.6267508 -177.153  0.1045010 -77.244 
20.200000000  0.1109815  44.143  0.6260277  19.602  0.6261057  19.600  0.1089200 161.689 
20.300000000  0.0686231 -58.010  0.6307823 -144.389  0.6309049 -144.391  0.0245119 -53.489 
20.400000000  0.0271288 -22.204  0.6291899  51.169  0.6291021  51.164  0.0303202  94.192 
20.500000000  0.1910788 -67.317  0.6130462 -112.133  0.6132080 -112.136  0.1695474  13.419 
20.600000000  0.0556711 -78.071  0.6273640  84.153  0.6274868  84.158  0.0510775  -8.307 
20.700000000  0.0698718 -77.091  0.6246941 -80.178  0.6246570 -80.180  0.0480566  -7.363 
20.800000000  0.0661565 -177.071  0.6229208 116.664  0.6230751 116.666  0.0982681 -81.143 
20.900000000  0.1412140 -146.668  0.6153025 -46.976  0.6153542 -46.971  0.1490620 -111.893 
21.000000000  0.1100731 -161.880  0.6193509 148.915  0.6193606 148.913  0.1110985 -95.765 
21.100000000  0.0996500 -123.164  0.6177529 -15.317  0.6178437 -15.319  0.1240018 -102.282 
21.200000000  0.0133658 167.457  0.6217285 -178.546  0.6217894 -178.547  0.0548961 -161.419 
21.300000000  0.0333996 -52.920  0.6216342  17.167  0.6216346  17.161  0.0525900 -129.067 
21.400000000  0.0632438 126.764  0.6175350 -146.374  0.6175951 -146.382  0.0865506 158.304 
21.500000000  0.0305724 -57.683  0.6199169  49.536  0.6199046  49.524  0.0179836 -23.003 
21.600000000  0.0514091 -164.707  0.6180111 -114.363  0.6180882 -114.365  0.0330291 -165.339 
21.700000000  0.0329111 -48.618  0.6169068  81.495  0.6168827  81.486  0.0367218   4.415 
21.800000000  0.0704269 -149.536  0.6136396 -82.111  0.6137077 -82.118  0.0560131 -117.948 
21.900000000  0.0854885 164.755  0.6130236 114.141  0.6130566 114.137  0.0810305 -118.603 
22.000000000  0.1087558 -174.100  0.6068817 -50.016  0.6069100 -50.022  0.1369780 -101.420 
22.100000000  0.0971334 -167.441  0.6057737 146.326  0.6058300 146.326  0.1317310 -124.838 
22.200000000  0.0194738 -56.818  0.6123232 -17.217  0.6123084 -17.228  0.0659514 -151.919 
22.300000000  0.0068978 -90.233  0.6085064 178.745  0.6085436 178.741  0.0947362 -160.209 
22.400000000  0.0907825  60.111  0.6061082  15.482  0.6061313  15.474  0.1157299 151.551 
22.500000000  0.0078383 -101.615  0.6099670 -148.899  0.6100096 -148.907  0.0519322 -164.663 
22.600000000  0.0768356 130.126  0.6055002  47.379  0.6055655  47.370  0.0972101 138.866 
22.700000000  0.0450314 -80.744  0.6079711 -116.598  0.6079803 -116.599  0.0269877 -17.885 
22.800000000  0.0943622 163.235  0.6044365  79.560  0.6045101  79.557  0.0835538 169.635 
22.900000000  0.0315876  37.159  0.6058105 -84.423  0.6058206 -84.433  0.0419947 -39.808 
23.000000000  0.1122334 176.028  0.5998151 111.813  0.5999334 111.809  0.1169263 -145.220 
23.100000000  0.0621772  89.151  0.6038228 -52.061  0.6038962 -52.069  0.0307095 -67.213 
23.200000000  0.0742204 -139.642  0.5983585 143.837  0.5984324 143.835  0.1191627 -141.115 
23.300000000  0.0796844  70.231  0.6007289 -19.325  0.6008311 -19.324  0.0553534 125.879 
23.400000000  0.0743908 -22.163  0.5982979 176.498  0.5983501 176.500  0.1122491 -167.949 
23.500000000  0.0959801  85.146  0.5965692  12.943  0.5966453  12.940  0.1065227 130.582 
