! Created Wed Feb 12 10:44:21 2025
# hz S ma R 50
! 2 Port Network Data from SP1.SP block
! freq  magS11  angS11  magS21  angS21  magS12  angS12  magS22  angS22  
!     
           1.8e+09         0.8925975            110.184                  0                  0                  0                  0          0.8892179             115.35
           1.9e+09         0.8946612            -54.872                  0                  0                  0                  0          0.8923742            -49.891
             2e+09         0.8848435            141.319                  0                  0                  0                  0          0.8839295            146.955
           2.1e+09         0.8944157            -21.962                  0                  0                  0                  0          0.8910242            -15.903
           2.2e+09         0.8759531             173.66                  0                  0                  0                  0          0.8737683            178.486
           2.3e+09         0.8807013              6.699                  0                  0                  0                  0          0.8800911               13.4
           2.4e+09         0.8784551            -157.16                  0                  0                  0                  0           0.878296           -146.978
           2.5e+09         0.8686423             38.026                  0                  0                  0                  0          0.8586853             41.836
           2.6e+09         0.8841202           -119.826                  0                  0                  0                  0          0.8814369           -117.173
           2.7e+09         0.8560094             72.124                  0                  0                  0                  0          0.8517234             77.013
           2.8e+09         0.8719415            -93.804                  0                  0                  0                  0          0.8683804            -89.131
           2.9e+09          0.865667            109.649                  0                  0                  0                  0          0.8605999            112.741
             3e+09         0.8569146            -58.947                  0                  0                  0                  0          0.8551239            -55.336
           3.1e+09         0.8549689            136.491                  0                  0                  0                  0          0.8572184            143.348
           3.2e+09         0.8619186            -25.209                  0                  0                  0                  0          0.8602496            -17.042
           3.3e+09         0.8469142            172.178                  0                  0                  0                  0          0.8479251           -178.082
           3.4e+09         0.8529266              5.097                  0                  0                  0                  0          0.8438789             10.817
           3.5e+09         0.8550331            -151.11                  0                  0                  0                  0          0.8515038           -148.837
           3.6e+09         0.8272652             36.861                  0                  0                  0                  0          0.8357313             43.335
           3.7e+09         0.8530489           -129.648                  0                  0                  0                  0          0.8578642           -114.984
           3.8e+09         0.8421578             75.909                  0                  0                  0                  0          0.8358223             85.495
           3.9e+09         0.8400183             -92.99                  0                  0                  0                  0          0.8414542            -85.949
             4e+09         0.8391403             105.85                  0                  0                  0                  0           0.842558            117.678
           4.1e+09         0.8411707            -60.424                  0                  0                  0                  0          0.8358057            -50.653
           4.2e+09         0.8414195            143.971                  0                  0                  0                  0          0.8355732            148.839
           4.3e+09         0.8310897            -24.107                  0                  0                  0                  0          0.8326479            -20.977
           4.4e+09         0.8360579            171.155                  0                  0                  0                  0          0.8414219           -177.562
           4.5e+09         0.8296375             10.793                  0                  0                  0                  0          0.8220802              16.39
           4.6e+09         0.8340091           -156.487                  0                  0                  0                  0          0.8373252            -150.18
           4.7e+09         0.8319791              46.96                  0                  0                  0                  0          0.8252112             51.725
           4.8e+09         0.8233458           -119.307                  0                  0                  0                  0          0.8294693            -116.14
           4.9e+09         0.8198708              75.63                  0                  0                  0                  0          0.8264847             85.988
             5e+09         0.8143206            -94.158                  0                  0                  0                  0          0.8137966            -84.798
           5.1e+09         0.8225522            106.861                  0                  0                  0                  0          0.8203141             112.46
           5.2e+09         0.8117649            -58.285                  0                  0                  0                  0          0.8132469            -56.196
           5.3e+09         0.8057628            132.122                  0                  0                  0                  0           0.825655            146.453
           5.4e+09         0.8210505            -28.814                  0                  0                  0                  0          0.8172988            -12.826
           5.5e+09         0.8133234            170.942                  0                  0                  0                  0          0.8120942           -179.977
           5.6e+09          0.802986              7.054                  0                  0                  0                  0          0.8098648             17.367
           5.7e+09         0.8057813            -164.95                  0                  0                  0                  0          0.8139633           -146.998
           5.8e+09         0.8140779             40.031                  0                  0                  0                  0          0.8096716             55.487
           5.9e+09         0.7958268           -128.211                  0                  0                  0                  0           0.796034            -115.55
             6e+09         0.8179493             70.424                  0                  0                  0                  0          0.8166184             84.595
           6.1e+09          0.805641            -84.111                  0                  0                  0                  0          0.8039857            -71.096
           6.2e+09         0.7881572            101.598                  0                  0                  0                  0          0.7895921            117.388
           6.3e+09         0.8109522            -59.677                  0                  0                  0                  0          0.8078769            -45.599
           6.4e+09         0.7922465            140.861                  0                  0                  0                  0           0.793656              157.6
           6.5e+09         0.7903868            -26.467                  0                  0                  0                  0          0.7891951            -11.963
           6.6e+09         0.7836798            161.231                  0                  0                  0                  0          0.7898935           -176.718
           6.7e+09         0.8057865              5.836                  0                  0                  0                  0          0.7846444             19.993
           6.8e+09         0.7770366           -157.677                  0                  0                  0                  0          0.7781056           -150.838
           6.9e+09         0.7939133             32.447                  0                  0                  0                  0          0.7958617             46.201
             7e+09         0.7801468           -125.775                  0                  0                  0                  0          0.7948438           -108.152
           7.1e+09         0.7792855              59.85                  0                  0                  0                  0          0.7743305              83.19
           7.2e+09         0.7990527            -95.575                  0                  0                  0                  0          0.7921291            -84.197
           7.3e+09         0.7695439            100.072                  0                  0                  0                  0          0.7797855            117.958
           7.4e+09         0.7984276            -64.312                  0                  0                  0                  0          0.7877379            -51.408
           7.5e+09          0.770061            135.543                  0                  0                  0                  0           0.784686            150.698
           7.6e+09         0.7884008            -32.103                  0                  0                  0                  0          0.7770524            -16.966
           7.7e+09         0.7822757            171.728                  0                  0                  0                  0          0.7950775           -177.435
           7.8e+09         0.7687826              4.464                  0                  0                  0                  0          0.7772251             26.124
           7.9e+09         0.7672465           -164.764                  0                  0                  0                  0            0.77084           -148.417
             8e+09         0.7846979             34.904                  0                  0                  0                  0          0.7920681             54.666
           8.1e+09         0.7724314           -121.155                  0                  0                  0                  0          0.7667222           -105.201
           8.2e+09         0.7574069              65.56                  0                  0                  0                  0          0.7701877             82.484
           8.3e+09         0.7806902            -94.515                  0                  0                  0                  0          0.7784825            -76.022
           8.4e+09            0.7493            101.234                  0                  0                  0                  0          0.7546852            117.891
           8.5e+09         0.7768779            -65.724                  0                  0                  0                  0          0.7776413            -49.506
           8.6e+09         0.7577345            135.679                  0                  0                  0                  0          0.7714913             155.75
           8.7e+09         0.7699988             -30.52                  0                  0                  0                  0          0.7658755             -8.244
           8.8e+09         0.7553619            167.258                  0                  0                  0                  0           0.758818           -174.582
           8.9e+09         0.7750137              2.753                  0                  0                  0                  0          0.7681814             21.617
             9e+09         0.7664878           -150.218                  0                  0                  0                  0          0.7613972           -138.624
           9.1e+09         0.7457954             36.498                  0                  0                  0                  0          0.7598162             54.734
           9.2e+09         0.7695427           -126.642                  0                  0                  0                  0           0.766732           -106.236
           9.3e+09          0.751509             74.326                  0                  0                  0                  0          0.7539188             91.712
           9.4e+09         0.7644983            -90.432                  0                  0                  0                  0          0.7653958            -73.915
           9.5e+09         0.7417281            104.652                  0                  0                  0                  0          0.7499655            125.552
           9.6e+09         0.7631502            -59.661                  0                  0                  0                  0          0.7576784            -42.405
           9.7e+09         0.7331652            135.123                  0                  0                  0                  0          0.7503368            155.241
           9.8e+09         0.7666962             -31.72                  0                  0                  0                  0           0.756398              -8.56
           9.9e+09          0.733927             171.86                  0                  0                  0                  0          0.7422594           -172.595
             1e+10         0.7485263             -7.683                  0                  0                  0                  0          0.7506412             18.781
          1.01e+10         0.7601982           -158.609                  0                  0                  0                  0          0.7525174           -140.482
          1.02e+10         0.7290209             31.658                  0                  0                  0                  0          0.7418343             54.406
          1.03e+10         0.7688571           -129.851                  0                  0                  0                  0          0.7555081           -109.453
          1.04e+10         0.7223842             71.027                  0                  0                  0                  0          0.7392266             91.152
          1.05e+10          0.756282           -102.862                  0                  0                  0                  0          0.7468102            -77.221
          1.06e+10         0.7407598            103.211                  0                  0                  0                  0          0.7396916             121.34
          1.07e+10         0.7495415            -61.345                  0                  0                  0                  0          0.7513373            -38.908
          1.08e+10         0.7236918            134.958                  0                  0                  0                  0          0.7255518            155.726
          1.09e+10         0.7494321            -34.649                  0                  0                  0                  0          0.7538357             -8.477
           1.1e+10           0.73672             173.85                  0                  0                  0                  0           0.731315           -163.312
          1.11e+10         0.7168945             -2.714                  0                  0                  0                  0           0.725529             21.596
          1.12e+10         0.7521318           -158.926                  0                  0                  0                  0           0.752367           -132.746
          1.13e+10         0.6911715             36.171                  0                  0                  0                  0          0.7004689             63.413
          1.14e+10         0.7452751           -137.189                  0                  0                  0                  0          0.7456569            -108.94
          1.15e+10         0.7150285             73.322                  0                  0                  0                  0          0.7172132            100.907
          1.16e+10          0.715675           -102.352                  0                  0                  0                  0          0.7156937            -75.094
          1.17e+10         0.7170469             97.083                  0                  0                  0                  0          0.7253747            125.479
          1.18e+10         0.7196215            -67.237                  0                  0                  0                  0           0.713695            -37.358
          1.19e+10         0.7117174            131.366                  0                  0                  0                  0          0.7096387            153.903
           1.2e+10         0.7141355             -36.64                  0                  0                  0                  0          0.7198857             -9.696
          1.21e+10         0.7190627            165.218                  0                  0                  0                  0          0.7182674           -170.014
          1.22e+10         0.6916961             -4.914                  0                  0                  0                  0          0.6997679              21.05
          1.23e+10         0.7326487           -168.166                  0                  0                  0                  0           0.731326           -142.568
          1.24e+10         0.6979122             36.984                  0                  0                  0                  0          0.6976559             59.308
          1.25e+10          0.706856           -139.219                  0                  0                  0                  0          0.7158395           -116.417
          1.26e+10         0.7152785              62.54                  0                  0                  0                  0          0.7238717             90.027
          1.27e+10         0.7112912            -97.614                  0                  0                  0                  0          0.6997478            -74.929
          1.28e+10         0.6982334             92.796                  0                  0                  0                  0          0.7192442            114.465
          1.29e+10         0.7221351            -69.794                  0                  0                  0                  0          0.7274454            -36.071
           1.3e+10         0.7011538            131.699                  0                  0                  0                  0          0.6974157            155.149
          1.31e+10         0.7107785             -41.01                  0                  0                  0                  0          0.7235934            -10.351
          1.32e+10         0.7283714            165.828                  0                  0                  0                  0          0.7183637           -165.665
          1.33e+10         0.6950688              2.029                  0                  0                  0                  0          0.7062661             28.597
