! C:\Users\Focus\Desktop\Focus Traning\LOW FREQUENCY TUNERS\LOAD-PULL CALIBRATION\02-08-2024\focus_TRL\thru.S2P
! measured on: 08/02/24 14:59:11
# GHZ S MA R 50
 1.800000000  0.0473334 164.894  0.8967319 -70.300  0.8967397 -70.296  0.0592478 -113.058 
 1.900000000  0.0269037  -9.288  0.8950425 125.930  0.8950111 125.937  0.0304107  89.627 
 2.000000000  0.0251948 -157.979  0.8925596 -37.842  0.8926113 -37.835  0.0391951 -73.733 
 2.100000000  0.0429477  26.895  0.8895985 158.409  0.8896239 158.414  0.0416392 106.567 
 2.200000000  0.0177167 -140.501  0.8875801  -5.312  0.8874661  -5.311  0.0421269 -21.177 
 2.300000000  0.0214791 -81.750  0.8852712 -169.095  0.8852200 -169.096  0.0240954 -105.213 
 2.400000000  0.0373948 -155.892  0.8812674  27.072  0.8813269  27.078  0.0477569  22.352 
 2.500000000  0.0779646 -13.659  0.8765396 -136.433  0.8766134 -136.428  0.1013210 -96.492 
 2.600000000  0.0350751 -88.202  0.8771956  59.780  0.8772423  59.783  0.0264551  23.280 
 2.700000000  0.0315067 -14.020  0.8733243 -104.031  0.8733461 -104.028  0.0527549 -67.373 
 2.800000000  0.0734130 -161.015  0.8703405  92.581  0.8703288  92.584  0.0780814 160.816 
 2.900000000  0.0320500 167.636  0.8698933 -71.269  0.8698836 -71.271  0.0426707 -109.424 
 3.000000000  0.0415078 -168.816  0.8669254 124.991  0.8670169 124.991  0.0465457 -156.045 
 3.100000000  0.0333447  26.954  0.8658328 -38.655  0.8658666 -38.654  0.0326411  36.206 
 3.200000000  0.0104605  58.719  0.8638842 157.535  0.8640869 157.536  0.0130111 112.765 
 3.300000000  0.0368953 -117.544  0.8601182  -6.171  0.8601887  -6.173  0.0556311 -44.636 
 3.400000000  0.0551252 -46.530  0.8571897 -169.795  0.8572809 -169.793  0.0710061 -128.813 
 3.500000000  0.0481368 -75.439  0.8559430  26.434  0.8560405  26.434  0.0419333 -36.028 
 3.600000000  0.0754510 -102.270  0.8514815 -137.310  0.8515537 -137.307  0.0540828 -29.669 
 3.700000000  0.0379815 149.643  0.8524905  59.323  0.8525426  59.322  0.0327147 153.357 
 3.800000000  0.0732154 126.355  0.8469305 -104.376  0.8470507 -104.378  0.0926883 -143.221 
 3.900000000  0.0302803 -177.648  0.8482051  91.959  0.8483354  91.955  0.0412127 156.118 
 4.000000000  0.0412700 167.568  0.8460125 -71.851  0.8460508 -71.851  0.0540841 -119.468 
 4.100000000  0.0471855 -77.981  0.8440821 124.487  0.8441465 124.486  0.0622977 140.128 
 4.200000000  0.0864819 -167.951  0.8397472 -39.172  0.8397845 -39.174  0.0935222 -82.750 
 4.300000000  0.0138076 -173.886  0.8419552 157.249  0.8420892 157.248  0.0186323 -145.075 
 4.400000000  0.0370106 -119.498  0.8403266  -6.674  0.8404105  -6.673  0.0439309 -66.553 
 4.500000000  0.0507503  55.215  0.8364728 -170.043  0.8365869 -170.044  0.0715924 161.840 
 4.600000000  0.0098386 176.170  0.8374123  26.101  0.8375850  26.101  0.0163262  55.570 
 4.700000000  0.0887820 113.942  0.8309692 -137.558  0.8311386 -137.558  0.0937155 161.277 
 4.800000000  0.0493926   2.530  0.8323804  58.787  0.8324696  58.785  0.0317776 -52.802 
 4.900000000  0.0656623 -178.353  0.8289377 -104.832  0.8291784 -104.836  0.0674882 166.426 
 5.000000000  0.0300436 170.858  0.8288197  91.461  0.8289090  91.461  0.0432065 141.480 
 5.100000000  0.0166744 145.041  0.8278465 -72.286  0.8278562 -72.288  0.0311804 -92.266 
 5.200000000  0.0619881 146.844  0.8237986 123.909  0.8238038 123.900  0.0500600 -111.461 
 5.300000000  0.0820290 -19.735  0.8227781 -39.381  0.8228430 -39.386  0.0612321 115.161 
 5.400000000  0.0130413  35.551  0.8227943 156.767  0.8228348 156.764  0.0282190 109.823 
 5.500000000  0.0213338 -95.132  0.8210494  -6.993  0.8211638  -7.001  0.0238852 -41.502 
 5.600000000  0.0554171 159.381  0.8175645 -170.657  0.8176626 -170.659  0.0306080  58.640 
 5.700000000  0.0543845  72.725  0.8164922  25.785  0.8165749  25.777  0.0400330 140.918 
 5.800000000  0.0636485 107.374  0.8132205 -138.055  0.8132765 -138.061  0.0761375 163.791 
 5.900000000  0.0262036 102.529  0.8131822  58.342  0.8132789  58.337  0.0313350 109.655 
 6.000000000  0.0285925 129.599  0.8119512 -105.614  0.8119757 -105.617  0.0324433 -176.803 
 6.100000000  0.1392919  -0.235  0.8006319  91.203  0.8007339  91.200  0.1367245  10.817 
 6.200000000  0.0145942 -89.860  0.8075208 -72.353  0.8075592 -72.355  0.0277487 -83.509 
 6.300000000  0.0337773  20.781  0.8062719 123.697  0.8062977 123.693  0.0333781  43.593 
 6.400000000  0.1037125 -133.881  0.7985877 -39.856  0.7986524 -39.862  0.1096641 -110.280 
 6.500000000  0.0365635  79.210  0.8016717 156.791  0.8016897 156.787  0.0356494 101.473 
 6.600000000  0.0368955  65.683  0.8012635  -7.044  0.8012821  -7.050  0.0377089  42.895 
 6.700000000  0.0805591  22.937  0.7964657 -170.700  0.7965435 -170.710  0.0940403 177.180 
 6.800000000  0.0241290  53.528  0.7974468  25.676  0.7974578  25.674  0.0383179  81.694 
 6.900000000  0.0613922 -73.166  0.7961843 -137.819  0.7962120 -137.824  0.0621706 -32.335 
 7.000000000  0.0617209   0.875  0.7948392  58.316  0.7948881  58.312  0.0447971 -47.973 
 7.100000000  0.0772278  -7.515  0.7907603 -105.454  0.7908302 -105.458  0.0832882 -54.127 
 7.200000000  0.0492140 -133.915  0.7917375  91.379  0.7917970  91.373  0.0583223 147.729 
 7.300000000  0.0141176 -64.282  0.7916893 -72.551  0.7917562 -72.555  0.0240227 -69.972 
 7.400000000  0.0597742 -107.248  0.7885400 123.885  0.7886511 123.883  0.0637236 -179.227 
 7.500000000  0.0304538 -88.318  0.7889408 -39.876  0.7889971 -39.880  0.0181146 -109.297 
 7.600000000  0.0498626 -77.248  0.7863337 156.431  0.7863834 156.428  0.0591694 -159.864 
 7.700000000  0.0533789 -78.804  0.7853070  -7.371  0.7853253  -7.375  0.0400691 -126.225 
 7.800000000  0.0547895 111.778  0.7822276 -170.732  0.7822116 -170.735  0.0630225 114.938 
 7.900000000  0.0486786 109.063  0.7812132  25.536  0.7812198  25.536  0.0657661  92.771 
 8.000000000  0.0200515  81.287  0.7815103 -138.267  0.7814893 -138.269  0.0260005 151.797 
 8.100000000  0.0937049 -50.468  0.7756391  58.368  0.7756747  58.366  0.0979734   5.197 
 8.200000000  0.0396618 -53.086  0.7779254 -105.313  0.7779504 -105.316  0.0355491 -30.765 
 8.300000000  0.0336711 -43.504  0.7772143  90.906  0.7772555  90.905  0.0364693  45.101 
 8.400000000  0.0113506 -102.224  0.7751114 -72.699  0.7750920 -72.701  0.0405716 -69.849 
 8.500000000  0.0409835 -146.859  0.7739922 123.697  0.7739739 123.695  0.0423112 -144.941 
 8.600000000  0.0575604 -115.086  0.7716209 -40.136  0.7716279 -40.137  0.0559790 -121.502 
 8.700000000  0.0383742  11.155  0.7698242 156.316  0.7698591 156.314  0.0540084 123.203 
 8.800000000  0.0255960 -128.920  0.7691849  -7.317  0.7692236  -7.320  0.0477575 -28.146 
 8.900000000  0.0455716  20.538  0.7675497 -171.131  0.7675769 -171.134  0.0479365 165.931 
 9.000000000  0.1193118 -76.967  0.7609516  25.345  0.7609315  25.345  0.1062107 -42.668 
 9.100000000  0.0416760 -171.845  0.7644135 -138.018  0.7644596 -138.018  0.0243476 119.049 
 9.200000000  0.0510907 -62.170  0.7632308  57.988  0.7632434  57.987  0.0532328  -4.118 
 9.300000000  0.0826593 153.658  0.7579975 -105.377  0.7580739 -105.381  0.0874707 -167.706 
 9.400000000  0.0658531  -5.718  0.7593554  90.943  0.7593710  90.939  0.0617165   7.344 
 9.500000000  0.0714591 -155.079  0.7567447 -72.600  0.7568112 -72.602  0.0747409 -142.544 
 9.600000000  0.0441278   5.401  0.7575632 123.759  0.7575637 123.753  0.0408882  67.667 
 9.700000000  0.0599725 -85.761  0.7560158 -39.907  0.7560611 -39.914  0.0375618 -137.217 
 9.800000000  0.0352302 -13.788  0.7552937 156.339  0.7552784 156.332  0.0349758 129.680 
 9.900000000  0.0720767 -78.103  0.7526111  -7.254  0.7526355  -7.257  0.0500566 -79.081 
10.000000000  0.0874240 -99.484  0.7503617 -170.871  0.7503431 -170.874  0.0683162 -73.280 
10.100000000  0.0494628 -104.320  0.7514507  25.471  0.7514154  25.468  0.0408100 -16.284 
10.200000000  0.0414839 -117.691  0.7498814 -138.156  0.7498976 -138.158  0.0115847 -42.204 
10.300000000  0.0355366 -128.635  0.7491133  58.188  0.7490954  58.182  0.0176636  73.332 
10.400000000  0.0721697 -162.601  0.7455011 -105.400  0.7455085 -105.403  0.0492756 166.752 
10.500000000  0.0544801 -165.773  0.7452854  90.927  0.7452666  90.920  0.0430943 162.843 
10.600000000  0.0427621 -167.838  0.7447277 -72.830  0.7447464 -72.838  0.0343423 -125.182 
10.700000000  0.0498068  30.489  0.7423974 123.576  0.7423470 123.571  0.0535176  34.064 
10.800000000  0.0542251 -99.131  0.7415801 -40.065  0.7415165 -40.069  0.0329038 -99.970 
10.900000000  0.0074230 168.425  0.7410905 156.108  0.7410834 156.106  0.0185146  -1.313 
11.000000000  0.1337714 -105.816  0.7314994  -7.486  0.7314283  -7.491  0.1284878 -74.768 
11.100000000  0.0520183 -148.956  0.7364697 -170.881  0.7364392 -170.888  0.0315916 -69.372 
11.200000000  0.0921834 -80.136  0.7333060  24.908  0.7332761  24.904  0.0898068 -58.280 
11.300000000  0.0769828 163.427  0.7295403 -137.817  0.7294807 -137.819  0.0646059 177.260 
11.400000000  0.0528927 151.200  0.7321731  58.411  0.7321438  58.412  0.0497130 156.247 
11.500000000  0.1243315 158.183  0.7233193 -105.453  0.7232900 -105.454  0.1277607 -164.672 
11.600000000  0.0342385 164.177  0.7277041  91.247  0.7277179  91.254  0.0537160 146.412 
11.700000000  0.0186671 -147.251  0.7294963 -72.539  0.7294412 -72.537  0.0292444 -94.310 
11.800000000  0.0302955 -47.654  0.7254263 123.808  0.7254153 123.805  0.0672779 122.750 
11.900000000  0.0090260 144.662  0.7255344 -39.713  0.7255384 -39.708  0.0573194 -18.937 
12.000000000  0.0291202 -127.785  0.7247956 156.559  0.7247837 156.559  0.0420368 -148.872 
12.100000000  0.0350716 -139.275  0.7233531  -7.164  0.7233295  -7.166  0.0529213 -23.681 
12.200000000  0.0498341 -117.260  0.7203783 -170.852  0.7203787 -170.851  0.0669660 -114.027 
12.300000000  0.0593133 143.620  0.7202462  25.858  0.7202153  25.860  0.0550493  90.808 
12.400000000  0.0469423 128.966  0.7183967 -138.017  0.7183817 -138.019  0.0673363 -162.541 
12.500000000  0.1049331 130.028  0.7124746  58.434  0.7124704  58.429  0.1123517 150.172 
12.600000000  0.0165311 -39.383  0.7192245 -104.963  0.7191823 -104.964  0.0114009 -52.646 
12.700000000  0.0199122 -90.964  0.7159429  91.181  0.7159013  91.180  0.0555999 105.742 
12.800000000  0.0892600 -29.216  0.7121281 -72.292  0.7120788 -72.295  0.0879730  44.911 
12.900000000  0.0048894 -58.898  0.7154581 124.011  0.7154099 124.012  0.0211266  43.641 
13.000000000  0.0119133 -147.521  0.7134134 -39.651  0.7133904 -39.652  0.0429518 -31.477 
13.100000000  0.0664409 -144.341  0.7116548 156.735  0.7115649 156.734  0.0536121 -81.718 
13.200000000  0.0735124 -144.202  0.7095536  -7.101  0.7095162  -7.101  0.0719187 -57.998 
13.300000000  0.0485542 117.478  0.7090017 -170.516  0.7089981 -170.515  0.0417809 119.141 
13.400000000  0.0366617 -134.897  0.7085101  25.649  0.7085073  25.652  0.0402941 -17.352 
13.500000000  0.0676187 108.695  0.7053733 -137.997  0.7053325 -137.997  0.0679796 168.138 
13.600000000  0.0686554 -49.381  0.7038882  58.438  0.7038957  58.436  0.0694652 -15.149 
13.700000000  0.0631795 159.934  0.7031323 -105.303  0.7031406 -105.299  0.0657978 178.046 
13.800000000  0.1045134 -25.537  0.6972644  90.972  0.6972865  90.980  0.1098717  21.648 
13.900000000  0.0902289 179.405  0.6975955 -72.113  0.6976084 -72.113  0.0989386 -127.849 
14.000000000  0.0824894 -10.111  0.6972722 123.795  0.6972624 123.802  0.0821886  63.946 
14.100000000  0.1456701 -144.601  0.6901353 -39.146  0.6901332 -39.142  0.1330000 -101.377 
14.200000000  0.0375585 134.830  0.6985317 157.173  0.6985825 157.175  0.0217800  26.622 
14.300000000  0.1095888 -139.628  0.6924508  -6.957  0.6924391  -6.955  0.1046420 -63.620 
14.400000000  0.0910882 111.556  0.6929225 -169.859  0.6929100 -169.853  0.0700872 115.976 
14.500000000  0.0092175 -138.689  0.6961037  26.122  0.6960876  26.122  0.0156407 -29.019 
14.600000000  0.0990707 107.675  0.6897006 -137.665  0.6897124 -137.661  0.0976777 156.014 
14.700000000  0.0609892 -51.762  0.6910601  59.159  0.6910665  59.162  0.0760403  19.344 
14.800000000  0.0337618 -42.542  0.6926702 -104.700  0.6926394 -104.697  0.0445478 -12.117 
14.900000000  0.0823101 -22.410  0.6884622  91.303  0.6883893  91.307  0.0891092   9.648 
15.000000000  0.0373528 -140.888  0.6883035 -71.880  0.6883124 -71.873  0.0594223 -76.378 
15.100000000  0.1046309 -160.308  0.6849378 124.652  0.6848899 124.654  0.0946848 -126.942 
15.200000000  0.0569455 176.983  0.6874851 -39.160  0.6874884 -39.155  0.0620887 -55.816 
15.300000000  0.0714538 167.570  0.6854278 157.121  0.6854164 157.126  0.0593670 -57.347 
15.400000000  0.0190796  70.277  0.6864972  -6.423  0.6864842  -6.426  0.0186868  45.417 
15.500000000  0.0422442 -170.364  0.6851024 -170.233  0.6851279 -170.227  0.0301149 -33.624 
15.600000000  0.0112910  80.666  0.6839794  26.036  0.6839486  26.042  0.0223375  30.002 
15.700000000  0.0849668 -93.419  0.6787652 -137.600  0.6787061 -137.593  0.1046020 -32.283 
15.800000000  0.0455489  54.797  0.6817062  59.104  0.6816839  59.108  0.0550213 -99.672 
15.900000000  0.0411021 -76.227  0.6799458 -104.931  0.6799397 -104.925  0.0614370 -41.793 
16.000000000  0.0622602 104.334  0.6776384  91.744  0.6776163  91.750  0.0977631 -92.105 
16.100000000  0.0907430 -159.385  0.6752266 -71.974  0.6751764 -71.963  0.0961413 -124.912 
16.200000000  0.0687722 128.123  0.6755509 124.283  0.6755144 124.293  0.0761284 -72.029 
16.300000000  0.1168578 -131.011  0.6700853 -39.405  0.6701398 -39.400  0.1314552 -112.707 
16.400000000  0.0620075 173.421  0.6733700 157.220  0.6733390 157.236  0.0469000 -118.275 
16.500000000  0.0622269 -136.754  0.6725165  -6.932  0.6725260  -6.922  0.0757198 -81.915 
16.600000000  0.1053292 107.179  0.6663700 -169.815  0.6664092 -169.812  0.0850302 140.316 
16.700000000  0.0127671 -92.842  0.6702797  26.296  0.6702546  26.305  0.0465239 -20.175 
16.800000000  0.0415779  90.049  0.6676270 -137.179  0.6676278 -137.173  0.0871455 -131.218 
16.900000000  0.0470422   6.936  0.6682452  58.865  0.6682515  58.870  0.0498516 -71.832 
17.000000000  0.0783595 148.513  0.6619769 -104.508  0.6619983 -104.498  0.1153182 -133.821 
17.100000000  0.0625635 140.157  0.6648949  91.862  0.6649023  91.869  0.0584955 -150.494 
17.200000000  0.0923500 137.519  0.6589803 -72.141  0.6589691 -72.137  0.1392139 -96.748 
17.300000000  0.0686186 -173.187  0.6594352 124.662  0.6594843 124.666  0.1132991 -153.493 
17.400000000  0.0352526 118.073  0.6631754 -38.934  0.6632216 -38.929  0.0240707 -89.471 
17.500000000  0.0371628  75.024  0.6604255 157.465  0.6604483 157.468  0.0561937 -176.124 
17.600000000  0.0570287  25.479  0.6595395  -6.083  0.6595785  -6.084  0.0693521 168.038 
17.700000000  0.0260987 100.607  0.6598645 -169.960  0.6599200 -169.961  0.0409993 -178.559 
17.800000000  0.0169196 107.575  0.6589278  26.205  0.6589602  26.204  0.0327223 -140.283 
17.900000000  0.1082804  96.552  0.6524623 -137.247  0.6524924 -137.248  0.1134629 -177.839 
18.000000000  0.0867171  82.165  0.6540132  58.934  0.6540589  58.936  0.0809104 -151.816 
18.100000000  0.1355363  94.989  0.6455152 -105.189  0.6455719 -105.181  0.1403282 -150.031 
18.200000000  0.0923193   7.940  0.6512998  92.396  0.6513658  92.399  0.0265370  26.612 
18.300000000  0.0076505 179.955  0.6518031 -71.954  0.6518025 -71.947  0.0794282 -173.196 
18.400000000  0.1497723 -12.154  0.6399938 125.417  0.6400654 125.423  0.1506239  98.928 
18.500000000  0.0497887 -20.537  0.6513008 -38.695  0.6513522 -38.697  0.0494929 136.138 
18.600000000  0.1169619  10.701  0.6424859 157.079  0.6424566 157.077  0.1267212 114.410 
18.700000000  0.0928108 -135.926  0.6438418  -5.528  0.6438218  -5.517  0.0928028 -52.644 
18.800000000  0.0961215  40.984  0.6440774 -169.455  0.6440828 -169.453  0.1173644 161.248 
18.900000000  0.0433712 -107.170  0.6464240  27.130  0.6464186  27.139  0.0513293  27.739 
19.000000000  0.0631465  64.187  0.6455547 -136.880  0.6455491 -136.869  0.0708904 -176.585 
19.100000000  0.0508792 -64.725  0.6448502  59.727  0.6448653  59.730  0.0634568  56.474 
19.200000000  0.0204907  89.153  0.6457588 -104.266  0.6458073 -104.263  0.0156067 -151.438 
19.300000000  0.0890217 -14.878  0.6407059  92.260  0.6407324  92.262  0.0823914  48.672 
19.400000000  0.0642733  13.912  0.6419917 -71.600  0.6420072 -71.595  0.0586229  -5.327 
19.500000000  0.1397686 -11.296  0.6338848 124.530  0.6339327 124.532  0.1132885  80.878 
19.600000000  0.0681410 -46.883  0.6378195 -38.575  0.6378398 -38.569  0.0339871  30.285 
19.700000000  0.0574914 -103.078  0.6401827 158.075  0.6402300 158.078  0.0521479 -102.503 
19.800000000  0.0791334 -94.572  0.6364040  -5.884  0.6364229  -5.881  0.0649586 -52.212 
19.900000000  0.1189462 -108.867  0.6314231 -169.369  0.6315140 -169.360  0.1131787 -67.587 
20.000000000  0.0190621 -87.426  0.6389707  26.885  0.6390080  26.892  0.0128744 -27.587 
20.100000000  0.0332789 -60.688  0.6354215 -137.007  0.6354987 -137.002  0.0604690 -85.489 
20.200000000  0.0767115  79.698  0.6322602  59.499  0.6323131  59.503  0.0896952 -172.344 
20.300000000  0.0771256 -49.651  0.6345683 -104.025  0.6346034 -104.020  0.0402833  28.740 
20.400000000  0.0659523 -54.405  0.6327417  91.924  0.6328183  91.931  0.0601378  75.331 
20.500000000  0.1518635 -40.995  0.6215152 -72.048  0.6215388 -72.046  0.1352638  41.293 
20.600000000  0.0665415 -136.543  0.6311677 125.576  0.6312573 125.582  0.0525382 -83.512 
20.700000000  0.0568383 -115.357  0.6297325 -38.768  0.6297866 -38.757  0.0574218 -58.049 
20.800000000  0.1477900 -143.681  0.6201690 158.196  0.6202227 158.201  0.1572508 -74.763 
20.900000000  0.1382046 -115.508  0.6205801  -5.927  0.6206034  -5.916  0.1460888 -86.365 
21.000000000  0.0819070 -139.607  0.6258625 -169.438  0.6259241 -169.428  0.0731247 -77.576 
21.100000000  0.0395551 -63.352  0.6265706  26.773  0.6266062  26.782  0.0813002 -104.341 
21.200000000  0.0645487 127.037  0.6238269 -136.239  0.6238438 -136.229  0.0925484 -174.859 
21.300000000  0.0173376  65.487  0.6265031  59.580  0.6265206  59.592  0.0459422 -140.532 
21.400000000  0.1005427 168.847  0.6197978 -104.040  0.6198603 -104.035  0.1095879 178.508 
21.500000000  0.0454226 -20.756  0.6232186  92.286  0.6232238  92.289  0.0400559  28.548 
21.600000000  0.0921257 -151.768  0.6199281 -71.388  0.6199805 -71.382  0.0755900 -146.685 
21.700000000  0.0381862  25.270  0.6203942 124.597  0.6204217 124.600  0.0435689  39.778 
21.800000000  0.1459984 -138.700  0.6103991 -38.524  0.6104140 -38.513  0.1372982 -104.903 
21.900000000  0.0750176 162.781  0.6179433 157.784  0.6179187 157.793  0.0445313 -78.839 
22.000000000  0.1318671 -122.692  0.6070986  -6.620  0.6071532  -6.607  0.1577266 -84.919 
22.100000000  0.0545078 111.039  0.6127949 -168.671  0.6127690 -168.660  0.0908395 -166.499 
22.200000000  0.0476661  -0.482  0.6156673  26.987  0.6156717  26.990  0.0799850 -137.261 
22.300000000  0.1137328 117.696  0.6062634 -136.088  0.6062481 -136.086  0.1505395 177.158 
22.400000000  0.0519138  70.519  0.6137333  60.122  0.6137265  60.129  0.0696978 -178.349 
22.500000000  0.0803163 -177.876  0.6118005 -103.733  0.6118322 -103.728  0.0923194 172.678 
22.600000000  0.0019596 160.623  0.6131639  92.771  0.6131421  92.771  0.0453162 123.338 
22.700000000  0.0541383 -128.281  0.6128161 -71.107  0.6128335 -71.102  0.0314896 179.025 
22.800000000  0.0417963 147.751  0.6121460 125.228  0.6121792 125.225  0.0273854 -162.798 
22.900000000  0.0304939 -172.862  0.6113405 -38.579  0.6113460 -38.576  0.0355112 -88.798 
23.000000000  0.0564521 176.014  0.6090402 157.734  0.6090931 157.739  0.0579962 -119.755 
23.100000000  0.0165898  81.540  0.6101347  -5.899  0.6101968  -5.897  0.0277337 -140.934 
23.200000000  0.0214004  56.648  0.6070700 -169.573  0.6071469 -169.567  0.0784398 -156.005 
23.300000000  0.0851295  74.320  0.6053157  27.084  0.6054268  27.087  0.0960854 164.830 
23.400000000  0.0699441  62.728  0.6041616 -136.891  0.6042144 -136.884  0.1055524 -166.742 
