#  HZ   S   RI   R     50.00 
! Rohde & Schwarz Vector Network Analyzer 
! Rohde-Schwarz,ZNLE14-2Port,1323001264200055,1.71.1.10-23.02.1.238
! Created: UTC 1/21/2025, 7:08:56 AM
! freq[Hz]                re:S11                  im:S11                  re:S21                  im:S21                  re:S12                  im:S12                  re:S22                  im:S22
 1.000000000000000E6     9.937453193341095E-1   -7.093399906165872E-2    5.698478810062204E-4    6.081633823127345E-3    5.416066181076353E-4    6.088509234177412E-3    9.925785045113416E-1   -7.323395947436255E-2
 7.099500000000000E7     4.374693537640157E-1    7.432566593073785E-1   -3.387520655970947E-1    2.004022890363842E-1   -3.389563420265505E-1    2.010869413975638E-1    4.322755677654970E-1    7.458408332137829E-1
 1.409900000000000E8    -4.799529139218672E-1    4.932726331491793E-1   -4.652582781696679E-1   -4.158671121211843E-1   -4.643692669792467E-1   -4.134574060539976E-1   -4.686067865714896E-1    5.134577121442819E-1
 2.109850000000000E8    -4.638626353185336E-1   -2.865367205552791E-1    3.760671965331819E-1   -6.389962476002270E-1    3.720881093437340E-1   -6.359949677701803E-1   -4.610965891272445E-1   -3.096053693901389E-1
 2.809800000000000E8     1.802969765094607E-1   -3.940644131545755E-1    7.378666229258328E-1    3.149096266252527E-1    7.310145307116329E-1    3.125431061114851E-1    2.024177971429346E-1   -3.986008764513795E-1
 3.509750000000000E8     3.403334138098523E-1    1.295244240486017E-1   -2.545422618379252E-1    7.810990930059500E-1   -2.516054038137445E-1    7.695116438662919E-1    3.640468484971038E-1    1.445215808554134E-1
 4.209700000000000E8    -1.009854141029864E-1    2.625105240324838E-1   -8.137288293305053E-1   -2.101203688474600E-1   -7.968835654839144E-1   -2.050820597588454E-1   -1.180397063152609E-1    3.104471578724943E-1
 4.909650000000000E8    -2.129894708334101E-1   -7.538996755934407E-2    1.768227744277959E-1   -8.327946905070460E-1    1.640635043040002E-1   -8.125863360442326E-1   -2.740204776310325E-1   -1.290753170301316E-1
 5.609600000000000E8     3.175884576815816E-2   -1.700590632378085E-1    8.434647433979032E-1    1.606687241395535E-1    8.264269500615652E-1    1.401111123668745E-1    1.244424003905959E-1   -2.299609421465698E-1
 6.309550000000000E8     1.558205793815011E-1   -1.281231148729935E-2   -1.476985791136672E-1    8.411127549876322E-1   -1.187845181357364E-1    8.310467868063186E-1    1.940027199546294E-1    9.562580594438828E-2
 7.009500000000000E8     2.368402385112002E-2    1.526043327463855E-1   -8.333385706033747E-1   -1.360891962339909E-1   -8.315280445789326E-1   -1.145554386249073E-1   -7.997270732521020E-2    1.632836850378000E-1
 7.709450000000000E8    -1.666187675505231E-1    2.973688656743211E-2    1.216128927413567E-1   -8.260738473982450E-1    1.009028178959366E-1   -8.315771082478272E-1   -1.428587702423920E-1   -9.643217025522269E-2
 8.409400000000000E8    -3.419648036156019E-2   -1.596878420778746E-1    8.253920098736944E-1    1.103231892378150E-1    8.344715914453578E-1    9.531621129324280E-2    7.610807786257237E-2   -1.066372141965535E-1
 9.109350000000000E8     1.560462765093254E-1   -2.051046415156891E-2   -1.035552572327391E-1    8.214839235878242E-1   -9.041107142035486E-2    8.326606036666742E-1    8.157096848237448E-2    1.973822012301318E-2
 9.809300000000000E8     6.689831651619371E-3    1.647755300980387E-1   -8.128987017485387E-1   -9.620727490708006E-2   -8.247998569287553E-1   -9.527187707368959E-2   -1.388011281070910E-2    8.577237742537211E-2
 1.050925000000000E9    -1.590115993014117E-1   -1.797078914159377E-2    8.544628877672794E-2   -8.108262913149052E-1    9.077097967497615E-2   -8.186033676212128E-1   -1.017467869771226E-1   -2.391459872800359E-2
 1.120920000000000E9     4.418991139346096E-2   -1.110601279089077E-1    8.135316180314673E-1    8.454281603647380E-2    8.160195802456721E-1    9.068231325671051E-2   -6.690069027399934E-3   -9.486286841081495E-2
 1.190915000000000E9     6.679885053729132E-2    2.160552511342408E-3   -8.504836759875957E-2    8.134594358190261E-1   -8.998223089290849E-2    8.123812004250240E-1    7.868120600447888E-2   -1.035961254187082E-2
 1.260910000000000E9     3.127743065773466E-4    5.892233503058862E-2   -8.088254440612911E-1   -8.740971418735213E-2   -8.046196596976426E-1   -8.765260173949026E-2    1.788825015246897E-2    1.013402719760488E-1
 1.330905000000000E9    -7.759822668780317E-2    2.807914892654534E-3    8.823656836215329E-2   -8.043462831943231E-1    8.934503941828897E-2   -7.950217771296975E-1   -1.502242627765628E-1    1.027268952098277E-2
 1.400900000000000E9    -5.759954358032716E-2   -6.121804210683618E-2    8.012429205974485E-1    9.114655132450136E-2    7.936064477608289E-1    9.011141850317583E-2    2.176064581316465E-2   -1.375113251903058E-1
 1.470895000000000E9     5.605337588312497E-2   -8.274690432177779E-2   -9.709172530167735E-2    7.942694902224050E-1   -9.390994346586171E-2    7.900873462089260E-1    1.074045052946622E-1    3.181840992045470E-2
 1.540890000000000E9     6.624125877369026E-2    1.178329289017029E-1   -7.834072251917428E-1   -1.010027803784072E-1   -7.819092038374851E-1   -9.449022073384457E-2   -3.229248351032606E-2    1.360926830473887E-1
 1.610885000000000E9    -1.724988890808132E-1    7.772891094755116E-2    9.566413977973735E-2   -7.728346398098820E-1    9.798523621392329E-2   -7.747578805066668E-1   -1.467073760130312E-1   -9.070728266347598E-2
 1.680880000000000E9    -8.621286497582819E-4   -1.380858563519216E-1    7.776683787063442E-1    9.906900028355857E-2    7.786490730766489E-1    9.667600642451622E-2    5.655380137206804E-2   -1.160407891691564E-1
 1.750875000000000E9     1.354282614318291E-1    4.447609775007120E-2   -1.036608848160780E-1    7.718928770419959E-1   -1.014652009118905E-1    7.734186263162032E-1    9.272561309843250E-2    8.194569361153339E-2
 1.820870000000000E9    -5.846220628832133E-2    1.157053656439193E-1   -7.709749993567138E-1   -1.011828431224726E-1   -7.702706812659083E-1   -1.041434132624641E-1   -1.057533346186624E-1    7.769268088637757E-2
 1.890865000000000E9    -5.012692715236697E-2   -3.825426492473599E-2    1.070496973947199E-1   -7.757660378772965E-1    1.086256123139992E-1   -7.670527635053445E-1   -2.306123935530423E-2   -1.154443522175638E-1
 1.960860000000000E9     7.957914390645279E-2   -3.447985833009124E-2    7.685182195095638E-1    1.048571247727694E-1    7.668442206265744E-1    1.073758938204516E-1    5.472347311999377E-2   -6.166784958803649E-2
 2.030855000000000E9    -2.001328161745304E-2   -1.075735463841526E-2   -1.243261097255373E-1    7.663923786533566E-1   -1.164699271556480E-1    7.609811553990293E-1    5.977532930988987E-3    8.843915595194997E-2
 2.100850000000000E9     5.087456012315254E-2    2.920189168969901E-2   -7.572750418255736E-1   -1.354928646623008E-1   -7.585679742639040E-1   -1.246959026758301E-1   -6.747446196740094E-2    3.675454306019103E-2
 2.170845000000000E9    -6.744539948128017E-2    1.053591872746994E-1    1.341221732701286E-1   -7.471802825521388E-1    1.301415561768737E-1   -7.557433736576420E-1   -5.714800574468670E-3   -3.815667188761196E-2
 2.240840000000000E9    -2.901275458983140E-2   -5.042179702535390E-2    7.507427825658399E-1    1.345428501906282E-1    7.508091333148359E-1    1.347726128104751E-1   -4.847952993865403E-2    3.601931936825646E-3
 2.310835000000000E9     9.124369075900207E-2   -1.911099348705579E-2   -1.345675021890915E-1    7.416944397371948E-1   -1.396156446455235E-1    7.459324987045644E-1    2.457556757656600E-2    2.556316827834953E-3
 2.380830000000000E9    -2.200121850602331E-2    1.203718056797314E-1   -7.344405258086502E-1   -1.373352213192290E-1   -7.357865191048689E-1   -1.490618845838412E-1   -1.387868260701700E-2    9.074410378623589E-2
 2.450825000000000E9    -1.104033162174589E-1   -1.484051911835615E-2    1.383518950880207E-1   -7.343384791823440E-1    1.524331862730015E-1   -7.315681626616894E-1   -1.186699037198525E-1   -1.319779380270917E-2
 2.520820000000000E9     3.715022843384920E-2   -2.012751789979927E-4    7.350640312150776E-1    1.516038512647703E-1    7.321519783279518E-1    1.550609344000738E-1    1.323344451434935E-2   -6.552128234774494E-2
 2.590815000000000E9    -1.823484102702629E-2    1.442306681275073E-2   -1.609272067174012E-1    7.325533358975390E-1   -1.598725760719903E-1    7.241716852428287E-1    6.026066337221132E-2    7.852806136583959E-2
 2.660810000000000E9     6.236285332249807E-3    4.633055828740568E-2   -7.274542151086617E-1   -1.668487868256279E-1   -7.166792788702093E-1   -1.593414864834811E-1   -7.677579336342347E-2    1.215592020928176E-1
 2.730805000000000E9    -5.070655526990652E-2    8.055145207420937E-2    1.677006603476743E-1   -7.196162449182387E-1    1.645354161232226E-1   -7.168812219589097E-1   -6.390997799115013E-2   -6.309022410787125E-2
 2.800800000000000E9    -3.919239663345624E-2   -3.199413529050685E-2    7.161367699878722E-1    1.719653203122156E-1    7.148222601453036E-1    1.722553556226584E-1    5.037289336267511E-2   -1.293880227203978E-3
 2.870795000000000E9     6.225770788197911E-2    1.824845026110906E-2   -1.774351140206009E-1    7.100785273092950E-1   -1.783005412176229E-1    7.100512756024466E-1    1.485555307126711E-2    6.817382115121699E-2
 2.940790000000000E9    -1.804688145697257E-2    9.823021517794119E-2   -7.057924328417408E-1   -1.795556920796172E-1   -7.063541524191457E-1   -1.831260924243634E-1   -4.807864532091906E-2    6.319962585256562E-2
 3.010785000000000E9    -3.970981957715242E-2   -2.772304966363659E-3    1.861469984308229E-1   -7.059207639519630E-1    1.886658735919037E-1   -7.040784763845467E-1   -4.557103033318054E-2    1.815822635832088E-2
 3.080780000000000E9    -4.204575595465674E-3    2.932889770305537E-2    6.993887522961945E-1    1.981006084791281E-1    6.986390925803099E-1    1.963362556259739E-1    4.546047246616680E-4   -1.967216741542614E-2
 3.150775000000000E9    -7.912171155352773E-3   -4.764894553532332E-3   -2.097751782266226E-1    6.946219304272493E-1   -2.033077192137018E-1    6.888632633257891E-1    7.644273185049898E-2    3.750729337331563E-2
 3.220770000000000E9     4.863448783407414E-2    8.070288732897428E-2   -6.889616013081197E-1   -2.182137789831143E-1   -6.776288276424401E-1   -2.048662211419702E-1   -3.795266508791923E-2    1.612650389393644E-1
 3.290765000000000E9    -7.422148707196483E-2    8.731827602029202E-2    2.155379442538419E-1   -6.858060349086025E-1    2.089892615911448E-1   -6.820361019595740E-1   -1.051331270952463E-1   -1.115904168835892E-2
 3.360760000000000E9    -6.583025183860765E-2   -5.518225235027543E-2    6.794459327621152E-1    2.127076522062616E-1    6.820704016678607E-1    2.202917607009161E-1    8.020369563839928E-2   -2.244640635266333E-2
 3.430755000000000E9     1.330577593568989E-1    3.916584195284548E-2   -2.183899378507803E-1    6.669181098399651E-1   -2.185940830634727E-1    6.731188718468862E-1    6.317836481122942E-2    1.195746361372140E-1
 3.500750000000000E9    -4.429946890234716E-2    1.303546250078666E-1   -6.637872812197335E-1   -2.201625079890287E-1   -6.705188144721156E-1   -2.205044035111972E-1   -7.135437580886556E-2    7.843794458544026E-2
 3.570745000000000E9    -4.999702110247034E-2   -4.666200197512280E-2    2.268882458172325E-1   -6.660190295028597E-1    2.283969198762171E-1   -6.692789600848720E-1   -2.541814105709360E-2   -2.608634443855127E-2
 3.640740000000000E9     3.066886910759023E-2    5.645612631833759E-2    6.650866880894317E-1    2.385565128247586E-1    6.623743523333223E-1    2.381317362111122E-1    5.473272340874290E-2    7.615286344641380E-2
 3.710735000000000E9     2.280664726325089E-3    7.120723172519185E-2   -2.389106271119214E-1    6.627898713294748E-1   -2.427995763089170E-1    6.621038345184110E-1    1.673919889084199E-2    4.868961096789659E-2
 3.780730000000000E9     1.986471185060405E-2    5.506428629176520E-2   -6.589912728514618E-1   -2.424223345837044E-1   -6.575151431986079E-1   -2.428499767883541E-1   -3.152618394192811E-3    5.832978999793615E-2
 3.850725000000000E9     1.997517037944801E-4    6.270754868103434E-2    2.454314823451237E-1   -6.538799082107912E-1    2.475773090616432E-1   -6.512063530497033E-1    5.728324415821650E-3    5.363533873118763E-2
 3.920720000000000E9    -1.289961728072230E-2   -4.960073010565906E-3    6.484703012818648E-1    2.492625706503270E-1    6.454099199497064E-1    2.529464388204036E-1    1.132328988218863E-2    2.724062776492637E-2
 3.990715000000000E9     1.134258859488442E-1    5.026446873425657E-2   -2.516694869793015E-1    6.377852095019217E-1   -2.589142501353638E-1    6.338487197762880E-1    7.847758594210216E-2    9.654621956836544E-2
 4.060710000000000E9    -4.654792244775324E-2    8.959791603483197E-2   -6.367261194934186E-1   -2.529398972441900E-1   -6.327581753056337E-1   -2.575379700760624E-1   -1.906342065912719E-2    1.006709466602220E-1
 4.130705000000000E9     8.298885227652422E-2    2.808245417420603E-2    2.704878214024929E-1   -6.316804379519237E-1    2.705662019114297E-1   -6.306070090227456E-1    5.439039181696390E-2   -1.866401879043071E-3
 4.200700000000000E9     8.126228554654237E-3    7.844184388414593E-2    6.302665058439646E-1    2.755548094436989E-1    6.286808028151706E-1    2.720298101241650E-1    6.822960210567999E-2    6.119418075815904E-2
 4.270695000000000E9     3.828171135819461E-2    1.968367112725975E-2   -2.826436144446111E-1    6.299141183924872E-1   -2.714607336005610E-1    6.262481962652112E-1    4.281571052035941E-2    8.899066902669231E-2
 4.340690000000000E9     6.875015431476759E-2    3.772231409823697E-2   -6.268977986719614E-1   -2.839551975323968E-1   -6.236005877254774E-1   -2.747755273970675E-1   -1.505787066694512E-3   -1.624416317160717E-2
 4.410685000000000E9     3.797754861769596E-2    6.622665448394109E-2    2.824302783571990E-1   -6.246360474629393E-1    2.802273982113828E-1   -6.097061173968660E-1    1.051211462607779E-1    7.121159052052313E-2
 4.480680000000000E9     8.920356842764854E-3   -3.128090404245401E-2    6.151631823381770E-1    2.822252800498665E-1    6.085570426457321E-1    2.818774852343767E-1   -6.708382009432040E-3    9.459128619308485E-2
 4.550675000000000E9     1.312726038667453E-1    8.301520265219273E-2   -2.854627701921180E-1    6.004631454313176E-1   -2.950182464391257E-1    6.091452751984183E-1    2.797655807066287E-2   -1.524729021500624E-2
 4.620670000000000E9    -6.182481109044551E-2    9.553130165481738E-4   -5.952875036765460E-1   -3.034035450970553E-1   -6.030434502589584E-1   -2.910418942787014E-1    1.448478336651891E-1    3.213057469523562E-3
 4.690665000000000E9     1.322838870469278E-1   -2.710313630750960E-2    3.097734167916598E-1   -5.893269144805394E-1    2.843397864343616E-1   -6.036522762439107E-1    6.872739355760171E-2    1.145114794941954E-1
 4.760660000000000E9     6.284294636458183E-2    1.192950718087841E-1    5.931249124786481E-1    3.020878967992903E-1    5.986766798067639E-1    2.859313073748648E-1   -2.601646093464599E-3    1.533587787763292E-2
 4.830655000000000E9    -2.039013003501464E-2    4.785948481214957E-2   -2.974574756678288E-1    5.978072443476452E-1   -2.976534303291637E-1    5.863964032100578E-1    1.365443799167178E-1   -4.170267479247010E-3
 4.900650000000000E9     6.361162183871481E-2   -1.004000320958131E-1   -5.838852564242606E-1   -2.964623119071351E-1   -5.918698840740803E-1   -3.051421624463500E-1    8.013907660023892E-2    3.094619744199890E-2
 4.970645000000000E9     1.442584153890773E-1    7.639906627920334E-2    2.896705761964947E-1   -5.753566698675282E-1    3.049841367701263E-1   -5.918930471997152E-1    7.395584864899790E-2    1.391601295245612E-2
 5.040640000000000E9     1.805013281097706E-2    7.005052558639699E-2    5.810832371068020E-1    2.917892547709662E-1    5.912224900286260E-1    2.990944407899171E-1    3.830504177656786E-2    3.081240993161545E-2
 5.110635000000000E9     2.184763145556922E-2    2.796582149844167E-2   -3.043759197011359E-1    5.780939259435268E-1   -3.044470557075484E-1    5.831795209181866E-1    3.353301656919247E-2   -6.169195118197117E-3
 5.180630000000000E9     3.129461748455270E-2   -1.039824257267105E-1   -5.707905795033212E-1   -3.041706371791363E-1   -5.632740959810149E-1   -3.072766572371353E-1    1.182630411265966E-1   -1.085451466307212E-1
 5.250625000000000E9     1.886059147093329E-1    2.132498201346758E-2    2.916253598156500E-1   -5.622564155755412E-1    2.910836021305596E-1   -5.554152230925551E-1    1.932119959625610E-1    7.605761916434163E-2
 5.320620000000000E9     8.596676516766344E-2    1.176752615903679E-1    5.660511030320000E-1    2.793827899719376E-1    5.652067920198507E-1    2.845184779860433E-1   -3.139997088978657E-2    8.455992713718757E-2
 5.390615000000000E9    -1.058505384132359E-1    3.435337449213947E-2   -2.690685130446416E-1    5.570057207862000E-1   -2.739818165805908E-1    5.524914895708203E-1   -5.764314484870428E-2   -9.034607864720898E-2
 5.460610000000000E9     3.239287180099829E-2   -2.089226686374155E-1   -5.196378888695699E-1   -2.451330224704288E-1   -5.143251789108552E-1   -2.430668076864489E-1    1.397267159208446E-1   -1.788064296397007E-1
 5.530605000000000E9     2.802566662244516E-1   -9.397230817440261E-2    2.081353739371465E-1   -4.459330769886112E-1    1.997755081807694E-1   -4.444679401969541E-1    2.476813677322111E-1    8.304218642928745E-3
 5.600600000000000E9     2.635765873141422E-1    1.156867616425213E-1    3.560737852589597E-1    2.748292419591266E-1    3.572587119588339E-1    2.667686264487411E-1    1.783414084230915E-1    9.229283608444647E-2
 5.670595000000000E9    -4.691724864518094E-3    1.797711642679125E-1   -3.929117676107879E-1    3.796156825637231E-1   -3.868541843691645E-1    3.836770949718439E-1    5.904905307334448E-2    9.184206557804422E-2
 5.740590000000000E9    -4.394178604745756E-2   -8.892372859454666E-2   -4.155225345972785E-1   -4.350638744148791E-1   -4.193762376505809E-1   -4.275949370735124E-1    3.497952520197902E-2   -5.467112624901693E-2
 5.810585000000000E9     1.169179225570685E-1   -9.887545751845755E-2    4.315839539224990E-1   -4.356639435097093E-1    4.274843160164472E-1   -4.466332975207826E-1    3.345593001551112E-2   -3.346189660183473E-2
 5.880580000000000E9     1.258174240921305E-1    2.973655083745731E-2    4.537940931146039E-1    4.201565778649293E-1    4.656778197451804E-1    4.217859339871513E-1    4.009672749644264E-2   -3.516317542831628E-2
 5.950575000000000E9    -3.632896947107382E-2    3.064622553144758E-2   -4.158769671571888E-1    4.637270197550973E-1   -4.216569257397951E-1    4.677397125302166E-1    3.820833231079834E-2   -5.200215111208852E-2
 6.020570000000000E9     5.623661625338822E-2   -1.165766189703118E-1   -4.620603112024013E-1   -4.126757468861075E-1   -4.541367437598776E-1   -4.221516617773540E-1    1.566403955642288E-1   -4.893061589696747E-2
 6.090565000000000E9     7.176701321995201E-2   -2.841179100301523E-2    4.189779767386868E-1   -4.612438890620132E-1    4.243220000517349E-1   -4.597578422928669E-1    1.326889721303983E-2    6.271180373609454E-2
 6.160560000000000E9     8.749293300334467E-2   -5.185783343746125E-2    4.567473613640045E-1    4.222232192958730E-1    4.632326861965830E-1    4.303169038691980E-1   -1.333471455807522E-3   -7.215754961013499E-2
 6.230555000000000E9    -9.849834853377858E-3    1.600119004188686E-2   -4.268837685996534E-1    4.538393934283525E-1   -4.284976991814627E-1    4.594577035987204E-1    8.269375516357967E-2   -1.052857880825826E-1
 6.300550000000000E9     3.792711324711444E-2   -9.133449770396136E-2   -4.572144956016139E-1   -4.220218973726019E-1   -4.611159199695821E-1   -4.180650672082077E-1    1.345890190402966E-1   -6.139775520106874E-2
