# Hz S MA R 50.0 
!freq magS11 angS11 magS21 angS21 magS12 angS12 magS22 angS22
1000000.0 0.007487965313179306 146.544913276676 0.9966041687960648 -2.0059405799598022 0.9966041687960648 -2.0059405799598022 0.007487965313179306 146.544913276676
70995000.0 0.010293103671156633 27.16384281658811 0.9778161133278512 -2.693864425362953 0.9778161133278512 -2.693864425362953 0.010293103671156633 27.16384281658811
140990000.0 0.1624304900642572 132.5933129533692 0.96904245069943 -1.9433681256260484 0.96904245069943 -1.9433681256260484 0.1624304900642572 132.5933129533692
210985000.0 0.015935765467529714 -41.66792245492729 0.9605390137398993 -2.505843281239889 0.9605390137398993 -2.505843281239889 0.015935765467529714 -41.66792245492729
280980000.0 0.011315596633626307 13.940673043639105 0.9541284645595777 -2.339394231408236 0.9541284645595777 -2.339394231408236 0.011315596633626307 13.940673043639105
350975000.0 0.01815947363570599 1.867009322410072 0.9482054042278173 -2.079988956322968 0.9482054042278173 -2.079988956322968 0.01815947363570599 1.867009322410072
420970000.0 0.23465035420147842 141.72923516897916 0.9381056401274916 -0.22403930878655862 0.9381056401274916 -0.22403930878655862 0.23465035420147842 141.72923516897916
490965000.0 0.03825521607869882 -54.203119138115966 0.9394740133174089 -1.417696887166258 0.9394740133174089 -1.417696887166258 0.03825521607869882 -54.203119138115966
560960000.0 0.02611418170854326 17.092163154778518 0.9347045697250035 -1.1240293683440494 0.9347045697250035 -1.1240293683440494 0.02611418170854326 17.092163154778518
630955000.0 0.022036402346251135 99.61427700641052 0.931075131809938 -0.9046589342489032 0.931075131809938 -0.9046589342489032 0.022036402346251135 99.61427700641052
700950000.0 0.16724276691760454 -109.5494680641496 0.9377313018739903 -0.9014858180077762 0.9377313018739903 -0.9014858180077762 0.16724276691760454 -109.5494680641496
770945000.0 0.010766610834356208 -22.89424961574579 0.9238240749296015 -0.054346297416784844 0.9238240749296015 -0.054346297416784844 0.010766610834356208 -22.89424961574579
840940000.0 0.007387561544622414 67.993536715694 0.9206623071428081 0.3164336775238249 0.9206623071428081 0.3164336775238249 0.007387561544622414 67.993536715694
910935000.0 0.017002364592993806 -177.56783606446524 0.9178642315333232 0.586130508497297 0.9178642315333232 0.586130508497297 0.017002364592993806 -177.56783606446524
980930000.0 0.07843738854026952 23.534433118595683 0.9127784558372272 0.9575758042808393 0.9127784558372272 0.9575758042808393 0.07843738854026952 23.534433118595683
1050925000.0 0.01652392041011645 -124.8480919066373 0.9117959332724024 1.4519595146535142 0.9117959332724024 1.4519595146535142 0.01652392041011645 -124.8480919066373
1120920000.0 0.004137384450495883 -16.822344755378122 0.9089564636692824 1.8740577297258625 0.9089564636692824 1.8740577297258625 0.004137384450495883 -16.822344755378122
1190915000.0 0.02030803331661334 172.4278013120492 0.9062932888957116 2.2591191052871697 0.9062932888957116 2.2591191052871697 0.02030803331661334 172.4278013120492
1260910000.0 0.10317040241620025 1.8344138579135099 0.8992500276973059 2.5444884127606113 0.8992500276973059 2.5444884127606113 0.10317040241620025 1.8344138579135099
1330905000.0 0.02823385675658702 -168.64657939126744 0.9009969022613834 3.069138682973345 0.9009969022613834 3.069138682973345 0.02823385675658702 -168.64657939126744
1400900000.0 0.02051206261114933 -138.75717181144304 0.8993198717658639 3.4929835512226943 0.8993198717658639 3.4929835512226943 0.02051206261114933 -138.75717181144304
1470895000.0 0.030355501441430774 -107.72262293347086 0.8966989092956942 3.884967855183583 0.8966989092956942 3.884967855183583 0.030355501441430774 -107.72262293347086
1540890000.0 0.286006329140909 101.10722997417278 0.927010068777212 5.205535592780941 0.927010068777212 5.205535592780941 0.286006329140909 101.10722997417278
1610885000.0 0.0744482499225009 -142.1969652585875 0.8886366493702198 4.620915810847491 0.8886366493702198 4.620915810847491 0.0744482499225009 -142.1969652585875
1680880000.0 0.04160357129524935 -72.32775048517684 0.8909721258151216 5.284046642534632 0.8909721258151216 5.284046642534632 0.04160357129524935 -72.32775048517684
1750875000.0 0.0740722243402799 5.630667878116938 0.884963061137537 5.627597030071097 0.884963061137537 5.627597030071097 0.0740722243402799 5.630667878116938
1820870000.0 0.3159143170499896 -171.30253104872588 0.8423106190565878 5.07714449732389 0.8423106190565878 5.07714449732389 0.3159143170499896 -171.30253104872588
1890865000.0 0.05076093422634571 -38.18712114046288 0.8836609331694085 6.661376411264614 0.8836609331694085 6.661376411264614 0.05076093422634571 -38.18712114046288
1960860000.0 0.031761354683204054 5.210789065648611 0.8810285095304683 6.792250610053343 0.8810285095304683 6.792250610053343 0.031761354683204054 5.210789065648611
2030855000.0 0.04980040412005009 114.28996698721377 0.8806144033983098 7.482418993555161 0.8806144033983098 7.482418993555161 0.04980040412005009 114.28996698721377
2100850000.0 0.01841352955124074 83.53162609717113 0.8785485810104712 7.959370017133257 0.8785485810104712 7.959370017133257 0.01841352955124074 83.53162609717113
2170845000.0 0.03115919544597201 136.20451618262288 0.8746265936693862 8.332834906934456 0.8746265936693862 8.332834906934456 0.03115919544597201 136.20451618262288
2240840000.0 0.025487874091103712 170.70698279759114 0.8735826305366723 8.7422636413455 0.8735826305366723 8.7422636413455 0.025487874091103712 170.70698279759114
2310835000.0 0.030761206860943115 -56.580147791707056 0.8716811977676022 9.14105308371928 0.8716811977676022 9.14105308371928 0.030761206860943115 -56.580147791707056
2380830000.0 0.2216003460873699 148.82062290121422 0.8580592530200358 10.877856804975025 0.8580592530200358 10.877856804975025 0.2216003460873699 148.82062290121422
2450825000.0 0.05714562196812147 -135.1090836484001 0.8671966727804067 9.911897941264217 0.8671966727804067 9.911897941264217 0.05714562196812147 -135.1090836484001
2520820000.0 0.013142844932346359 -4.108167540116678 0.8668530844347663 10.491382992681459 0.8668530844347663 10.491382992681459 0.013142844932346359 -4.108167540116678
2590815000.0 0.04102433265924282 56.9137828676641 0.8651162369570314 10.90435573287195 0.8651162369570314 10.90435573287195 0.04102433265924282 56.9137828676641
2660810000.0 0.16802968494165754 163.1173070363238 0.8521242579770761 11.802878830989945 0.8521242579770761 11.802878830989945 0.16802968494165754 163.1173070363238
2730805000.0 0.02434378031215576 -167.556762747577 0.8602665058147962 11.778865409771695 0.8602665058147962 11.778865409771695 0.02434378031215576 -167.556762747577
2800800000.0 0.0032062694859920295 6.637652134823622 0.8596179901206727 12.284734441177429 0.8596179901206727 12.284734441177429 0.0032062694859920295 6.637652134823622
2870795000.0 0.05279223067727415 19.58797924355188 0.8567147322041831 12.69953582842299 0.8567147322041831 12.69953582842299 0.05279223067727415 19.58797924355188
2940790000.0 0.1491152365255228 163.62747125535748 0.8479291669000731 13.463281364809443 0.8479291669000731 13.463281364809443 0.1491152365255228 163.62747125535748
3010785000.0 0.017517057401571494 -177.77067550252718 0.8547630799438923 13.606116524263491 0.8547630799438923 13.606116524263491 0.017517057401571494 -177.77067550252718
3080780000.0 0.007376697277940509 107.69443855665553 0.8534987286405359 14.208245482400656 0.8534987286405359 14.208245482400656 0.007376697277940509 107.69443855665553
3150775000.0 0.048819163643118564 -12.805304395990534 0.8495205498708887 14.810632827659273 0.8495205498708887 14.810632827659273 0.048819163643118564 -12.805304395990534
3220770000.0 0.2312800823234927 142.18354384224637 0.8417607078060011 16.779999417266943 0.8417607078060011 16.779999417266943 0.2312800823234927 142.18354384224637
3290765000.0 0.05616180296863385 -163.08279887046058 0.8468807006091273 15.521572464938915 0.8468807006091273 15.521572464938915 0.05616180296863385 -163.08279887046058
3360760000.0 0.028680016297662304 -52.96610174106342 0.8471578948479644 16.08103220085997 0.8471578948479644 16.08103220085997 0.028680016297662304 -52.96610174106342
3430755000.0 0.15986000883488216 12.101354114479335 0.8305572749660037 16.10537272618279 0.8305572749660037 16.10537272618279 0.15986000883488216 12.101354114479335
3500750000.0 0.17012196516321645 -177.99826525055582 0.8282116372433249 16.71495779896839 0.8282116372433249 16.71495779896839 0.17012196516321645 -177.99826525055582
3570745000.0 0.02380548227224682 -70.69039844202989 0.8412014777177084 17.317473818565304 0.8412014777177084 17.317473818565304 0.02380548227224682 -70.69039844202989
3640740000.0 0.04873031736898721 55.724248015291735 0.8409688888561355 17.8863205652238 0.8409688888561355 17.8863205652238 0.04873031736898721 55.724248015291735
3710735000.0 0.06855799674632515 32.6401300116825 0.8392686474799187 18.200362627383857 0.8392686474799187 18.200362627383857 0.06855799674632515 32.6401300116825
3780730000.0 0.10327557586004932 125.94768913293892 0.8396777188448078 18.98261261888139 0.8396777188448078 18.98261261888139 0.10327557586004932 125.94768913293892
3850725000.0 0.03472893897790401 126.78817848147563 0.836664439117353 19.179507025497493 0.836664439117353 19.179507025497493 0.03472893897790401 126.78817848147563
3920720000.0 0.015192665153439686 -28.311375315290473 0.834438469901228 19.648717441043715 0.834438469901228 19.648717441043715 0.015192665153439686 -28.311375315290473
3990715000.0 0.18596324240416934 9.140750683660128 0.8136719722835033 19.740582723033718 0.8136719722835033 19.740582723033718 0.18596324240416934 9.140750683660128
4060710000.0 0.12588007736173082 167.83857796020084 0.822496608882623 20.522366660151537 0.822496608882623 20.522366660151537 0.12588007736173082 167.83857796020084
4130705000.0 0.044348462440788744 41.53827443931389 0.8299260225980885 21.16227490776897 0.8299260225980885 21.16227490776897 0.044348462440788744 41.53827443931389
4200700000.0 0.03718627312322957 34.26646579613905 0.8298922710629649 21.619248590626384 0.8298922710629649 21.619248590626384 0.03718627312322957 34.26646579613905
4270695000.0 0.11832420747520325 5.462741925078602 0.8230473080862024 21.949395909156 0.8230473080862024 21.949395909156 0.11832420747520325 5.462741925078602
4340690000.0 0.07184335278218572 88.05457301614909 0.8295980760888831 22.388410249095564 0.8295980760888831 22.388410249095564 0.07184335278218572 88.05457301614909
4410685000.0 0.04116343349146895 90.02877244290185 0.8263005709731491 22.936677280579207 0.8263005709731491 22.936677280579207 0.04116343349146895 90.02877244290185
4480680000.0 0.03473016126099824 -49.04600948901007 0.8227137114582149 23.574614614379197 0.8227137114582149 23.574614614379197 0.03473016126099824 -49.04600948901007
4550675000.0 0.2023799604932334 -1.3282600606917134 0.8014611803994229 24.013087607931322 0.8014611803994229 24.013087607931322 0.2023799604932334 -1.3282600606917134
4620670000.0 0.04639005055724932 71.02475576124301 0.8212960155909267 24.422529023374498 0.8212960155909267 24.422529023374498 0.04639005055724932 71.02475576124301
4690665000.0 0.047411583202941046 49.762423998366565 0.8203846907836968 24.787408550609374 0.8203846907836968 24.787408550609374 0.047411583202941046 49.762423998366565
4760660000.0 0.043665899919777415 -11.79696383866927 0.8173556417499652 25.442730166396544 0.8173556417499652 25.442730166396544 0.043665899919777415 -11.79696383866927
4830655000.0 0.15629532779797461 -7.706984720886822 0.8060927684006043 25.827695932406485 0.8060927684006043 25.827695932406485 0.15629532779797461 -7.706984720886822
4900650000.0 0.07519552452088119 48.52706398977573 0.816971181705411 26.019996386388065 0.816971181705411 26.019996386388065 0.07519552452088119 48.52706398977573
4970645000.0 0.027926196434867424 31.15499533705509 0.8142446078648563 26.60293393505704 0.8142446078648563 26.60293393505704 0.027926196434867424 31.15499533705509
5040640000.0 0.05575327607795913 -28.11028288624837 0.8123510707630474 27.105828822392375 0.8123510707630474 27.105828822392375 0.05575327607795913 -28.11028288624837
5110635000.0 0.12141188677587962 -1.2411402487659828 0.8065176911199249 27.489000413293912 0.8065176911199249 27.489000413293912 0.12141188677587962 -1.2411402487659828
5180630000.0 0.09896770631047035 10.948168364738853 0.8081183342662747 28.036570595152362 0.8081183342662747 28.036570595152362 0.09896770631047035 10.948168364738853
5250625000.0 0.06372289435958585 39.069816761856025 0.8099368301395421 28.30073211589973 0.8099368301395421 28.30073211589973 0.06372289435958585 39.069816761856025
5320620000.0 0.04021440928059796 -23.996633076014724 0.8111928350952751 29.016003489995743 0.8111928350952751 29.016003489995743 0.04021440928059796 -23.996633076014724
5390615000.0 0.07775768062379547 -55.789496289569655 0.8126385084201936 29.56049960631804 0.8126385084201936 29.56049960631804 0.07775768062379547 -55.789496289569655
5460610000.0 0.11717569191255889 28.388291425051573 0.8058803600480348 29.428385499305612 0.8058803600480348 29.428385499305612 0.11717569191255889 28.388291425051573
5530605000.0 0.03237802608268915 19.678143334673802 0.8082900710637797 30.01586702188725 0.8082900710637797 30.01586702188725 0.03237802608268915 19.678143334673802
5600600000.0 0.06211838497801934 -29.556535212556412 0.8053353895280831 30.865247895643826 0.8053353895280831 30.865247895643826 0.06211838497801934 -29.556535212556412
5670595000.0 0.0344995779869432 -69.85583343297571 0.8058037124747032 31.58424229296608 0.8058037124747032 31.58424229296608 0.0344995779869432 -69.85583343297571
5740590000.0 0.1436105340656407 1.1489086901485932 0.7922956455117562 32.102003608373884 0.7922956455117562 32.102003608373884 0.1436105340656407 1.1489086901485932
5810585000.0 0.05190467841252192 7.087321378616402 0.8008586585763402 32.34010842176241 0.8008586585763402 32.34010842176241 0.05190467841252192 7.087321378616402
5880580000.0 0.017747113137944033 22.330399092534726 0.8005695179759532 32.76354989140401 0.8005695179759532 32.76354989140401 0.017747113137944033 22.330399092534726
5950575000.0 0.14947870843454958 -114.50109170149784 0.8033344470437719 32.61649756508104 0.8033344470437719 32.61649756508104 0.14947870843454958 -114.50109170149784
6020570000.0 0.14282133953015705 25.13862362120056 0.7882463860459903 33.04669075781409 0.7882463860459903 33.04669075781409 0.14282133953015705 25.13862362120056
6090565000.0 0.007479005203825965 -48.349361655947995 0.7961923042970589 34.18656592539364 0.7961923042970589 34.18656592539364 0.007479005203825965 -48.349361655947995
6160560000.0 0.05927846318508899 -66.92045031879483 0.7971153514506746 34.82729283298679 0.7971153514506746 34.82729283298679 0.05927846318508899 -66.92045031879483
6230555000.0 0.14489609860849562 -82.82251073699244 0.8031758535095039 35.350207547057806 0.8031758535095039 35.350207547057806 0.14489609860849562 -82.82251073699244
6300550000.0 0.07245629391167252 6.434231037177871 0.7926816755933723 35.349699123913446 0.7926816755933723 35.349699123913446 0.07245629391167252 6.434231037177871
6370545000.0 0.04968508976979146 -75.42673434873598 0.793511770837216 35.99699038205695 0.793511770837216 35.99699038205695 0.04968508976979146 -75.42673434873598
6440540000.0 0.032217658516741 -39.97550336921893 0.7916574295279207 36.394145300411395 0.7916574295279207 36.394145300411395 0.032217658516741 -39.97550336921893
6510535000.0 0.1928601303980559 -115.7631771941797 0.7980977078628386 36.07272036814457 0.7980977078628386 36.07272036814457 0.1928601303980559 -115.7631771941797
6580530000.0 0.04431944810371529 6.654589483006426 0.7893205186870087 37.27428565147661 0.7893205186870087 37.27428565147661 0.04431944810371529 6.654589483006426
6650525000.0 0.05317861124389505 -88.42842187143042 0.7890019116877731 37.789532886300336 0.7890019116877731 37.789532886300336 0.05317861124389505 -88.42842187143042
6720520000.0 0.040370484117626504 -76.05825830819268 0.7881206126255018 38.12654560368247 0.7881206126255018 38.12654560368247 0.040370484117626504 -76.05825830819268
6790515000.0 0.25491759559922844 -114.2903750074457 0.8008247862850016 37.23698369973411 0.8008247862850016 37.23698369973411 0.25491759559922844 -114.2903750074457
6860510000.0 0.023141812652096503 -149.59218914363515 0.7859371552301837 39.158162112641634 0.7859371552301837 39.158162112641634 0.023141812652096503 -149.59218914363515
6930505000.0 0.054389946367429054 -102.51176633094921 0.7842811787010544 39.49877815512633 0.7842811787010544 39.49877815512633 0.054389946367429054 -102.51176633094921
7000500000.0 0.03440479340029221 -67.99304384290214 0.7837099990878429 39.77985860313331 0.7837099990878429 39.77985860313331 0.03440479340029221 -67.99304384290214
7070495000.0 0.14010624131185415 -127.09295823571604 0.7852308350635885 39.73152451705722 0.7852308350635885 39.73152451705722 0.14010624131185415 -127.09295823571604
7140490000.0 0.015693181140728915 -123.81109892108377 0.7824496774911832 40.55617458742692 0.7824496774911832 40.55617458742692 0.015693181140728915 -123.81109892108377
7210485000.0 0.0888424167757062 -94.71618158069 0.7771843293347668 40.859844117727754 0.7771843293347668 40.859844117727754 0.0888424167757062 -94.71618158069
7280480000.0 0.024766867050594915 -42.617343890780646 0.777287702708003 41.306354444685084 0.777287702708003 41.306354444685084 0.024766867050594915 -42.617343890780646
7350475000.0 0.15540637834631346 -129.47543950654742 0.7792448339317093 41.251755336582136 0.7792448339317093 41.251755336582136 0.15540637834631346 -129.47543950654742
7420470000.0 0.050743794942167936 -156.95856088709587 0.7765592163529081 42.51653426838552 0.7765592163529081 42.51653426838552 0.050743794942167936 -156.95856088709587
7490465000.0 0.05850693974551449 -127.07712065816948 0.7748107389506362 42.72059066189153 0.7748107389506362 42.72059066189153 0.05850693974551449 -127.07712065816948
7560460000.0 0.03938506787534567 -119.37371109152593 0.775308373197023 43.042468256673615 0.775308373197023 43.042468256673615 0.03938506787534567 -119.37371109152593
7630455000.0 0.05480204935619032 37.218803923305146 0.7717263424698518 43.5131341416855 0.7717263424698518 43.5131341416855 0.05480204935619032 37.218803923305146
7700450000.0 0.12200604636933746 -164.86232621285993 0.7602245240073685 44.04708465468132 0.7602245240073685 44.04708465468132 0.12200604636933746 -164.86232621285993
7770445000.0 0.07486446458163427 -115.15960705504106 0.7664886868947043 44.18750862377394 0.7664886868947043 44.18750862377394 0.07486446458163427 -115.15960705504106
7840440000.0 0.03289683526900663 5.353676368040943 0.7669355085969466 44.73306963993901 0.7669355085969466 44.73306963993901 0.03289683526900663 5.353676368040943
7910435000.0 0.21267613896887322 137.98627050375967 0.7650252663341485 46.36422108747851 0.7650252663341485 46.36422108747851 0.21267613896887322 137.98627050375967
7980430000.0 0.057852895692947146 -141.14316265861825 0.7644549235034874 45.116663690461245 0.7644549235034874 45.116663690461245 0.057852895692947146 -141.14316265861825
8050425000.0 0.023154542241201614 120.78264662000458 0.7624601003632256 45.63618055297435 0.7624601003632256 45.63618055297435 0.023154542241201614 120.78264662000458
8120420000.0 0.06578313200360249 128.8474008114463 0.7612154797645693 46.261563812559956 0.7612154797645693 46.261563812559956 0.06578313200360249 128.8474008114463
8190415000.0 0.14653210582698556 99.74957903917641 0.7683862863693203 46.893592216402006 0.7683862863693203 46.893592216402006 0.14653210582698556 99.74957903917641
8260410000.0 0.0638056658363383 154.01049692436212 0.7565415597767567 46.89293169963711 0.7565415597767567 46.89293169963711 0.0638056658363383 154.01049692436212
8330405000.0 0.03883363862821709 132.9257565068267 0.7551776746358349 47.16355466100731 0.7551776746358349 47.16355466100731 0.03883363862821709 132.9257565068267
