#  HZ   S   RI   R     50.00 
! Rohde & Schwarz Vector Network Analyzer 
! Rohde-Schwarz,ZNLE14-2Port,1323001264200055,1.71.1.10-23.02.1.238
! Created: UTC 1/21/2025, 7:07:13 AM
! freq[Hz]                re:S11                  im:S11                  re:S21                  im:S21                  re:S12                  im:S12                  re:S22                  im:S22
 1.000000000000000E6    -1.268446566611635E-2    9.074066044561907E-3    9.907278656140587E-1   -6.909013614477864E-2    9.908806289729694E-1   -6.999307332681856E-2   -1.161588585625916E-2    8.230871227631763E-3
 7.099500000000000E7     5.587933488140475E-3    2.130509631676364E-2    9.150205667603251E-2    9.517194701458745E-1    8.789592198623389E-2    9.522141758586764E-1    5.423682415930670E-3    6.372168883849449E-3
 1.409900000000000E8    -9.415441005897723E-3   -7.894275406235022E-3   -9.324182499582223E-1    8.965512396230896E-2   -9.325940313585510E-1    8.629251078814526E-2   -2.646330784156971E-2    4.693602158382979E-3
 2.109850000000000E8     8.648934491374639E-3   -1.529161474584597E-2   -8.081432388276723E-2   -9.188425576696979E-1   -8.085495640288871E-2   -9.193865788552751E-1   -6.239843177692903E-3   -2.606681565315371E-2
 2.809800000000000E8     1.658454860740241E-2    1.332979885651315E-2    9.074508628511437E-1   -7.593018038844075E-2    9.074184055994879E-1   -7.249341781042665E-2    2.571612489154040E-2   -4.560038889490144E-3
 3.509750000000000E8     3.654672398861895E-3    2.038116497891494E-2    6.651866862195255E-2    8.970654695444894E-1    6.392897744840800E-2    8.969771506594919E-1    3.395118809698083E-2    1.344084681778356E-2
 4.209700000000000E8    -3.665526461327562E-2   -2.189147413542928E-2   -8.881008452123544E-1    5.632043234965004E-2   -8.887924130054092E-1    5.400834995831479E-2   -2.048085529340770E-2    3.399221048848243E-2
 4.909650000000000E8     3.602383475361478E-2   -4.177170695879848E-2   -4.544051641747738E-2   -8.812501426225300E-1   -4.428475058465781E-2   -8.808728089482634E-1   -4.795581888205869E-2   -5.693077072758895E-2
 5.609600000000000E8     1.647239341321475E-2    6.106395162520075E-2    8.734485292717500E-1   -3.430358104063257E-2    8.735634867024283E-1   -3.360664267135009E-2    7.757725861701127E-2   -3.399994703066182E-2
 6.309550000000000E8    -6.122500259227937E-2   -2.293814324667126E-2    2.572535587733771E-2    8.665680782838872E-1    2.926829886217286E-2    8.655663176799251E-1    1.602791790928030E-2    6.121181957988853E-2
 7.009500000000000E8     4.137246491755867E-2   -4.577050829136300E-2   -8.603395132286906E-1    1.382399731402335E-2   -8.605466860703923E-1    1.062210807810866E-2   -5.313972725972597E-2    4.136209591495418E-4
 7.709450000000000E8     1.042485641349659E-2    5.005678007368687E-2   -1.850353571329301E-3   -8.529099062902342E-1   -1.529819246330469E-3   -8.541265674837707E-1    2.228539013472349E-3   -7.535090531912855E-2
 8.409400000000000E8    -5.194368854528034E-2   -2.330337007415223E-3    8.473700048215049E-1    8.428499292741172E-3    8.476975052925866E-1    1.035961549101369E-2    6.204369580386575E-2    2.769102970888911E-2
 9.109350000000000E8     1.627758648350255E-2   -3.749442684366398E-2   -1.859582396622972E-2    8.433485978825761E-1   -1.592677526511168E-2    8.417327694334091E-1   -4.844942402114127E-2    7.451734693769258E-3
 9.809300000000000E8     2.451107637925928E-2    4.161142557126925E-2   -8.360429156001243E-1   -3.092834038074055E-2   -8.360764007956367E-1   -3.255783755422783E-2    1.056194088609694E-3   -3.590766397992495E-2
 1.050925000000000E9    -5.074583714463304E-2   -6.265689256529206E-3    4.109954897882746E-2   -8.299498540596848E-1    4.355430025981907E-2   -8.304796611648383E-1    8.546369323726771E-3   -6.326180517667570E-3
 1.120920000000000E9     3.854689711859748E-2   -1.190122973970391E-2    8.243583783185782E-1    5.318247907065652E-2    8.245354798586306E-1    5.482156133499380E-2   -2.396674359757997E-2    7.959848202731644E-3
 1.190915000000000E9    -2.654900914559224E-2    1.008253230912095E-4   -6.411785608947337E-2    8.189743845736651E-1   -6.516589135434672E-2    8.193216766365351E-1   -1.549450902054102E-2   -2.807504077426360E-2
 1.260910000000000E9     1.242332219404165E-3   -2.844726576730601E-2   -8.141673082226047E-1   -7.440610101230531E-2   -8.139536506126678E-1   -7.171389430009213E-2    3.758749108627138E-2    1.460789961503961E-2
 1.330905000000000E9     3.004435390465245E-3    3.333806963961758E-3    8.676460214078782E-2   -8.092786850275807E-1    8.746846590490587E-2   -8.061379747218508E-1   -7.216886240106365E-2    2.929846564139356E-2
 1.400900000000000E9    -5.713843358855875E-2    1.304244628736670E-2    8.032814420135433E-1    9.759325398984341E-2    8.022682562718894E-1    9.982416602887698E-2    4.197916438111407E-3   -6.484375972595820E-2
 1.470895000000000E9    -1.074877425089030E-2   -8.109396178377555E-2   -1.076247938085007E-1    7.962106521183696E-1   -1.104755455453668E-1    7.958510871231375E-1    4.031740107747167E-2    1.485912721688619E-2
 1.540890000000000E9     6.137913901516635E-2    5.786264016399996E-2   -7.897376564115040E-1   -1.222276684145549E-1   -7.886588405301830E-1   -1.211145167123205E-1   -1.631488150625249E-2    7.386759261891915E-2
 1.610885000000000E9    -1.186374423251617E-1    6.689110387924116E-2    1.283853707470573E-1   -7.796516041164343E-1    1.339954521624748E-1   -7.799376748550341E-1   -8.561182566176508E-2   -7.839017149691516E-2
 1.680880000000000E9     1.385400073255699E-2   -8.116977522210152E-2    7.794154695340954E-1    1.452454021391728E-1    7.794054550499764E-1    1.439690472078151E-1    4.255724012544557E-2   -5.625006462903056E-2
 1.750875000000000E9     7.820118155590751E-2    5.941600445359884E-2   -1.554095992721651E-1    7.715428807638772E-1   -1.536208271627042E-1    7.726304353169894E-1    3.522585393664408E-2    6.670182324889312E-2
 1.820870000000000E9    -7.600106534676976E-2    5.739938866884470E-2   -7.667386220512485E-1   -1.626126849101224E-1   -7.662498421842173E-1   -1.644381757565506E-1   -8.546175277880218E-2    2.242262069042075E-2
 1.890865000000000E9     1.107197830294069E-2   -4.496087277399123E-2    1.788155431625146E-1   -7.640247117941625E-1    1.774659011712959E-1   -7.574746245853068E-1    3.519094462636221E-2   -8.968860545499785E-2
 1.960860000000000E9     7.956527199932804E-2    2.931856788307066E-2    7.541495945757849E-1    1.811560573883762E-1    7.562750939116214E-1    1.841136855285431E-1    3.041614833212825E-2   -7.638986622477945E-3
 2.030855000000000E9    -6.091018804002395E-2   -1.579721828734208E-2   -2.007503381676488E-1    7.489187322215088E-1   -1.963141956322511E-1    7.477258041455785E-1   -3.986240833076171E-2    5.789769662602733E-2
 2.100850000000000E9     4.529304418456674E-2    5.075390138803313E-3   -7.410458048058947E-1   -2.143725800272910E-1   -7.429287345371054E-1   -2.089952617239293E-1   -3.647654515060023E-2    3.487750627061009E-3
 2.170845000000000E9    -4.897292970864692E-2    9.558829774946923E-2    2.186715776919937E-1   -7.303273690296174E-1    2.186912398398566E-1   -7.358340472355307E-1    2.577134691380777E-2   -1.005124752434064E-2
 2.240840000000000E9    -1.024319535707782E-2   -1.927451310004578E-2    7.303935663401343E-1    2.297467596558646E-1    7.263739964099147E-1    2.288060713469006E-1   -7.859345484079083E-2    2.196798456105258E-2
 2.310835000000000E9     5.678814237470388E-2    7.318399908544214E-3   -2.362249430197790E-1    7.211873102066900E-1   -2.390528988161420E-1    7.216384910376856E-1    6.088870218670450E-3   -2.202087311765605E-2
 2.380830000000000E9    -5.234009467897136E-2    8.240500175840337E-2   -7.117729779895337E-1   -2.436390962376700E-1   -7.098043318572530E-1   -2.515956307809091E-1   -5.065884053927161E-4    7.784725457113843E-2
 2.450825000000000E9    -6.314756770574610E-2   -3.612340769514542E-2    2.531042894861867E-1   -7.084498994539022E-1    2.615871616612248E-1   -7.048164396712682E-1   -9.565802055520209E-2   -8.080776089840116E-3
 2.520820000000000E9     3.915196210231015E-2    4.582018741175425E-2    7.012434650879421E-1    2.687115580641967E-1    7.022203478461098E-1    2.695036798349937E-1    5.971057597855146E-3   -4.196920962575326E-2
 2.590815000000000E9    -4.708566219189211E-2    1.003313491044619E-2   -2.798851330200384E-1    6.960876207219098E-1   -2.779664153404958E-1    6.918314111393083E-1    3.167698068357108E-2    7.061946249486287E-2
 2.660810000000000E9    -3.253740407189250E-3    2.890898447614858E-2   -6.893395369325881E-1   -2.905117621586738E-1   -6.825726218938986E-1   -2.829531082547029E-1   -6.975118520981709E-2    9.394663960070693E-2
 2.730805000000000E9    -3.943889837597274E-2    6.329589660585538E-2    2.967480511793903E-1   -6.796824063983737E-1    2.954714316989414E-1   -6.776603660708533E-1   -2.930301709575956E-2   -4.462647502925633E-2
 2.800800000000000E9    -1.656321448910029E-2   -1.895403154419232E-2    6.729517904731688E-1    3.069707622953329E-1    6.711353233416563E-1    3.075380599947927E-1    2.698564468981264E-2    2.215046598423428E-2
 2.870795000000000E9     4.186559129317918E-2    4.598031779087888E-2   -3.160165912416257E-1    6.640107757961998E-1   -3.173104828472921E-1    6.637773090575295E-1    2.608400661374632E-3    4.424838996815066E-2
 2.940790000000000E9    -4.231140910230664E-2    6.830551645518206E-2   -6.578492376952481E-1   -3.220547030901293E-1   -6.565949604317939E-1   -3.254263375425631E-1   -2.855457586942382E-2    5.314446956656829E-2
 3.010785000000000E9    -7.011301991273751E-3   -8.601576760928346E-3    3.339708327795881E-1   -6.510608858198957E-1    3.344718377744967E-1   -6.488288363575114E-1   -4.058232830361404E-2    2.953630848798541E-2
 3.080780000000000E9    -1.070199913732966E-2    4.346760639738964E-2    6.405372909708625E-1    3.477010289551664E-1    6.408059538237377E-1    3.455431736998028E-1   -1.526948734205020E-3   -2.196157514036432E-2
 3.150775000000000E9    -1.669078456388047E-3   -7.036025450266143E-3   -3.611220601450943E-1    6.312035279677293E-1   -3.525222950149009E-1    6.269741679868754E-1    7.651976498534660E-2    5.301289182644714E-2
 3.220770000000000E9     2.846701145060390E-2    9.468661003418347E-2   -6.205821575889592E-1   -3.728734033314371E-1   -6.144880986189117E-1   -3.562042785877927E-1   -6.483721435977931E-2    1.469919241421076E-1
 3.290765000000000E9    -8.685192645635413E-2    5.102825549857908E-2    3.754917510635822E-1   -6.161380724934341E-1    3.683221474371774E-1   -6.147565464557803E-1   -8.069311792668915E-2   -2.973122986908525E-2
 3.360760000000000E9    -5.679504863716756E-3   -6.168687325203500E-2    6.070186435640103E-1    3.791398385512424E-1    6.084024140658777E-1    3.837877817864617E-1    7.868841520611733E-2    1.249405768710458E-3
 3.430755000000000E9     1.175818471901919E-1    9.950814740480796E-2   -3.819442555277761E-1    5.894212513242099E-1   -3.837406402860278E-1    5.975367257263465E-1    3.557213789119058E-2    1.273884549472093E-1
 3.500750000000000E9    -8.165497003784027E-2    8.388644401809861E-2   -5.852338445391846E-1   -3.889565603027703E-1   -5.920863816389761E-1   -3.917472988020478E-1   -6.285471556130554E-2    4.395875773173741E-2
 3.570745000000000E9    -1.980332138129441E-3   -6.095090853463359E-2    4.003276907360661E-1   -5.804596035711194E-1    4.032502270814194E-1   -5.837541420167768E-1   -2.106004736020525E-3   -1.119964493912044E-2
 3.640740000000000E9     2.537321097625085E-2    7.171280524618294E-2    5.730330155240361E-1    4.142660161467411E-1    5.717515714828982E-1    4.143944191336534E-1    2.756330689111236E-2    7.766184159756434E-2
 3.710735000000000E9    -2.758303418981913E-3    6.800116178354922E-2   -4.189497669690780E-1    5.677015110198157E-1   -4.235308713359078E-1    5.648060059243076E-1    2.770572683833574E-2    4.018174883720279E-2
 3.780730000000000E9     1.239649284766401E-2    5.911430906220406E-2   -5.594561921849213E-1   -4.263405602676192E-1   -5.572079173008507E-1   -4.269909647499552E-1    5.393574042576251E-3    6.647423055577741E-2
 3.850725000000000E9    -1.252962235497851E-2    4.267465977305861E-2    4.334366321277783E-1   -5.512608516188263E-1    4.338278441367879E-1   -5.471721033019777E-1   -1.655238697383939E-2    5.991701237566152E-2
 3.920720000000000E9     3.022182850167215E-2   -1.332618576436200E-2    5.407912854294067E-1    4.400702994127902E-1    5.371856918894014E-1    4.418161070765282E-1    1.730151719635842E-2    2.943934241995445E-3
 3.990715000000000E9     9.784294070944340E-2    1.030752765718523E-1   -4.383659898183255E-1    5.266576726811463E-1   -4.438702404342841E-1    5.201492402345249E-1    7.645544039691020E-2    1.221414371718310E-1
 4.060710000000000E9    -5.265674291277571E-2    5.640803188692768E-2   -5.236673878655067E-1   -4.460817908851971E-1   -5.176364718161925E-1   -4.484847425292359E-1   -4.159290808517727E-2    7.909632419632240E-2
 4.130705000000000E9     7.387571216520920E-2    4.755249209783551E-2    4.647899450810299E-1   -5.093711037799676E-1    4.649637784890760E-1   -5.075394315266281E-1    5.328429836273599E-2    4.850016927528954E-3
 4.200700000000000E9     1.038483626520836E-3    3.629462944947589E-2    5.018793621750853E-1    4.757485383323503E-1    5.008900095098859E-1    4.696189692636712E-1    7.144836795472828E-2    5.562852815345348E-2
 4.270695000000000E9     7.393926900961900E-2    3.604811128310890E-2   -4.839463258262169E-1    4.920410133520222E-1   -4.712136425088462E-1    4.952286102545544E-1    3.800822903897132E-2    9.200860617312155E-2
 4.340690000000000E9     5.635003946272239E-2    8.713572257661731E-2   -4.846235332237033E-1   -4.871063212343150E-1   -4.871266846757429E-1   -4.777750716993911E-1    1.543812639740369E-2   -1.565864707605366E-2
 4.410685000000000E9    -1.157751932867316E-2    3.008507612753198E-2    4.938321745334974E-1   -4.791485997848856E-1    4.847000816426448E-1   -4.700011675334679E-1    5.058620788823787E-2    9.254114290660352E-2
 4.480680000000000E9     9.017442448829843E-2   -6.746522971970526E-2    4.610024418900616E-1    4.935167210568702E-1    4.606748554884831E-1    4.976605714673989E-1    2.332639309164604E-3    1.339431231255143E-2
 4.550675000000000E9     1.150919688826773E-1    1.457721295277642E-1   -4.864860954615461E-1    4.482477253643053E-1   -5.075762296454962E-1    4.495541607561635E-1    9.264677319647692E-2    3.115704761098466E-2
 4.620670000000000E9    -3.844809707683632E-2   -3.601130339423578E-2   -4.361690707021895E-1   -5.094227647782880E-1   -4.487949208584163E-1   -5.057727493919526E-1    9.980328052122897E-2    6.961363259006742E-2
 4.690665000000000E9     1.257285877206145E-1    2.602055470748667E-2    5.173560497654706E-1   -4.254976405140220E-1    5.088857747543752E-1   -4.447636946779494E-1   -1.550058553465555E-3    5.685476394225396E-2
 4.760660000000000E9     2.747914137080885E-2    5.758654898413360E-2    4.242380482629950E-1    5.252200506077233E-1    4.209654377975317E-1    5.126415486926493E-1    1.034003329171826E-1   -3.862442129140561E-2
 4.830655000000000E9     2.882489826164114E-2    1.020141073708174E-2   -5.244558432462788E-1    4.229666442454621E-1   -5.138349029466741E-1    4.096225957153946E-1    1.375793044239562E-1    9.859520565473265E-2
 4.900650000000000E9     1.101568179164686E-1   -1.196016253302270E-2   -4.076014142125415E-1   -5.225608185230228E-1   -4.070074589760899E-1   -5.337531115818669E-1    8.389480593749013E-3    2.614319434857201E-2
 4.970645000000000E9     2.135896545482658E-2    7.224783781814126E-2    5.247212447124402E-1   -3.954956211471203E-1    5.380540085269749E-1   -3.982478195383609E-1    6.330435487996595E-2   -4.696682495251992E-2
 5.040640000000000E9     5.887295266046160E-2   -3.576449532531815E-2    3.829416577536106E-1    5.338697931420398E-1    3.929911179440621E-1    5.365977376458054E-1    1.057588095577080E-1    1.548484844631192E-2
 5.110635000000000E9     7.184151136922221E-2    5.614028966957472E-2   -5.394779824366351E-1    3.750480563164288E-1   -5.413373405091839E-1    3.834103467633908E-1    4.172685845938182E-2    3.350668451307691E-2
 5.180630000000000E9     4.421542817741664E-2   -3.168926153004666E-2   -3.678743827629509E-1   -5.488127436595164E-1   -3.637547857659625E-1   -5.475697578464785E-1    9.963528797747538E-2   -5.100197221122462E-2
 5.250625000000000E9     8.556866557555218E-2    3.526380586143912E-2    5.500699294698096E-1   -3.608718835946618E-1    5.490372989036308E-1   -3.575601045996898E-1    9.660771284440506E-2    5.366082621733780E-2
 5.320620000000000E9     7.628478677205530E-2    1.305506324389610E-2    3.516573099654889E-1    5.560450954974397E-1    3.472271672720271E-1    5.608018490526296E-1    4.113408101454590E-2   -1.616255850250503E-2
 5.390615000000000E9     1.783295049515709E-2    2.300539359017432E-3   -5.625634791414661E-1    3.435860253338295E-1   -5.646402650609563E-1    3.390843146932597E-1    6.422236749897819E-2   -2.857965938015417E-2
 5.460610000000000E9     9.907852657530740E-2   -2.402569258821426E-2   -3.327887657429186E-1   -5.630101425193205E-1   -3.310082160584420E-1   -5.647853854568292E-1    1.014938049482729E-1   -1.779232297182295E-2
 5.530605000000000E9     6.586716708072932E-2    4.886184284306929E-3    5.681895881237228E-1   -3.262408590302289E-1    5.651301922747505E-1   -3.262405980617778E-1    3.677263393433650E-2    9.383651073712990E-3
 5.600600000000000E9     9.534233642057852E-2    1.767941220669471E-3    3.096611942240440E-1    5.749560852486145E-1    3.096955955793760E-1    5.676772118631754E-1    8.120673937622752E-2   -2.028792601999728E-2
 5.670595000000000E9    -9.596506148124982E-3    9.101351671531654E-3   -5.817013960318769E-1    2.921728161379823E-1   -5.756211909651680E-1    2.943501656909981E-1    3.860544227528979E-2   -2.942647482797273E-2
 5.740590000000000E9     9.397109510873684E-2   -7.682436728330422E-2   -2.764132370895121E-1   -5.812003045444745E-1   -2.804457016239898E-1   -5.734104065357144E-1    1.165622224079545E-1   -8.480100505963116E-2
 5.810585000000000E9     1.096509552189217E-1   -1.052129058769525E-2    5.818901694171713E-1   -2.697918121401569E-1    5.810316272132021E-1   -2.794690302239980E-1    5.678262039325259E-2    2.485573001672012E-3
 5.880580000000000E9     2.610590516212746E-2    1.915979380204103E-2    2.607322257468681E-1    5.825049146979108E-1    2.701399664848966E-1    5.845347314021336E-1    7.572161216752971E-3    1.706416865070786E-2
 5.950575000000000E9    -4.544294951481274E-3   -6.078476275341628E-2   -5.805865198280002E-1    2.551771125326696E-1   -5.829910814026574E-1    2.583816064942959E-1    2.254770011955265E-2   -8.481999784935335E-2
 6.020570000000000E9     1.113537095071157E-1   -4.297494441164385E-2   -2.485409055840597E-1   -5.775377939571726E-1   -2.432751030579774E-1   -5.813381282616645E-1    1.539561530034028E-1   -1.535599605697465E-2
 6.090565000000000E9     3.024154374472748E-2   -3.314394434732131E-2    5.858529842007401E-1   -2.337590960561692E-1    5.927062529059393E-1   -2.335807077740379E-1   -1.705435790822145E-2    1.305801106711716E-2
 6.160560000000000E9     7.822000026734749E-2   -5.876502478989396E-2    2.209046052880593E-1    5.874091710106800E-1    2.228504393876309E-1    6.000819170801727E-1    4.332571627578786E-2   -4.690793834864831E-2
 6.230555000000000E9    -8.414599874601846E-3   -3.115615889529535E-2   -5.931443596037046E-1    2.086176512614402E-1   -5.980984593256370E-1    2.153745040940347E-1    8.400958913123481E-2   -7.743544198711437E-2
 6.300550000000000E9     5.542517874192262E-2   -2.349045312588591E-2   -2.062143660372063E-1   -5.935759153227798E-1   -2.098868710550464E-1   -5.990740711815570E-1    6.829926957960759E-2   -4.951953666763768E-2
