#  HZ   S   RI   R     50.00 
! Rohde & Schwarz Vector Network Analyzer 
! Rohde-Schwarz,ZNLE14-2Port,1323001264200055,1.71.1.10-23.02.1.238
! Created: UTC 1/21/2025, 7:09:58 AM
! freq[Hz]                re:S11                  im:S11                  re:S21                  im:S21                  re:S12                  im:S12                  re:S22                  im:S22
 1.000000000000000E6    -1.258779925135284E-2    9.127774723981559E-3    9.905993819388346E-1   -6.961973487529036E-2    9.906757111899153E-1   -7.049801662882629E-2   -1.153157725574076E-2    8.279700025396101E-3
 7.099500000000000E7     5.951996654606714E-3    2.190980647738157E-2    1.264978807840144E-1    9.471760322655211E-1    1.230382424070384E-1    9.478371231206981E-1    5.202514671565402E-3    6.283547782984570E-3
 1.409900000000000E8    -8.708662612521605E-3   -8.687384486374320E-3   -9.225458471273248E-1    1.573334918120070E-1   -9.229728987224078E-1    1.541075298581633E-1   -2.757635867829551E-2    5.260191181830034E-3
 2.109850000000000E8     8.908650619536320E-3   -1.752103611379656E-2   -1.801220144081706E-1   -9.033844604921163E-1   -1.803173109628712E-1   -9.040138430098184E-1   -5.882850087947129E-3   -2.380016096309449E-2
 2.809800000000000E8     2.046301270622744E-2    1.239792924868100E-2    8.854909941509673E-1   -2.058256818550148E-1    8.860496004239172E-1   -2.026363095739465E-1    2.401323464531724E-2   -5.008631055339636E-3
 3.509750000000000E8     6.249264872975907E-3    2.131717127028442E-2    2.263504958216368E-1    8.687134420761617E-1    2.240224295542131E-1    8.692957072418817E-1    3.077310896382639E-2    4.542893737184142E-3
 4.209700000000000E8    -4.094721030782589E-2   -1.131753305008732E-2   -8.532545818132642E-1    2.453929142406916E-1   -8.547037734952126E-1    2.436389619843907E-1   -3.561218711317374E-3    3.286740325634517E-2
 4.909650000000000E8     1.884053223598721E-2   -5.574216778696552E-2   -2.633608253146510E-1   -8.395884450375501E-1   -2.622331365797138E-1   -8.400742543185575E-1   -5.900698343264979E-2   -2.826747307572009E-2
 5.609600000000000E8     4.968184035171399E-2    4.935752460515121E-2    8.251062015481819E-1   -2.802724255523651E-1    8.259518500602901E-1   -2.797211505731223E-1    5.271477222674534E-2   -5.953050963364712E-2
 6.309550000000000E8    -6.626942716749795E-2    2.382978283876465E-2    2.993087817010571E-1    8.093644733283727E-1    3.021129982438797E-1    8.085802231335013E-1    4.375840756134744E-2    4.169043846095786E-2
 7.009500000000000E8     6.417970442790836E-4   -7.314647968829950E-2   -7.962760029787664E-1    3.149329409240714E-1   -7.987026102987522E-1    3.112503239847441E-1   -3.887795297553019E-2    2.775333584112073E-2
 7.709450000000000E8     5.238334661791199E-2    2.125001411834369E-2   -3.297795801787313E-1   -7.832565830343889E-1   -3.287773502380283E-1   -7.847263359304065E-1   -3.622763324231940E-2   -5.909961553554288E-2
 8.409400000000000E8    -3.016573961074920E-2    4.154188273264782E-2    7.699695975911538E-1   -3.454369871406410E-1    7.715024683732448E-1   -3.434577173426427E-1    6.480442825245210E-2   -2.078350393548233E-2
 9.109350000000000E8    -3.103096460709868E-2   -3.009357842575175E-2    3.626622921143473E-1    7.570557644929755E-1    3.629511073191383E-1    7.552214697060445E-1   -2.167585430219908E-2    3.601473531297022E-2
 9.809300000000000E8     4.776169621086895E-2   -1.237474415637602E-2   -7.440705364114543E-1    3.751798440024930E-1   -7.440082806030031E-1    3.727167981471885E-1   -3.017895764067727E-2   -3.083959400855469E-2
 1.050925000000000E9    -2.607922719078393E-2    3.568571998160672E-2   -3.881584679863102E-1   -7.303332680151262E-1   -3.866882693397214E-1   -7.314489039420171E-1    9.882789725068914E-3   -1.994583783988451E-2
 1.120920000000000E9     9.953656357759190E-3   -2.547419451418396E-2    7.175326515322432E-1   -4.015583699663559E-1    7.179506934713922E-1   -4.002042693958106E-1    3.790456569727606E-3    2.057953367917117E-2
 1.190915000000000E9    -7.660384604025529E-3    9.474010274676418E-3    4.147523338197968E-1    7.036170575631657E-1    4.143616292508814E-1    7.039412538929387E-1   -3.279633679575163E-2   -9.210173099799756E-4
 1.260910000000000E9    -2.583634953630836E-2   -2.512958712188568E-2   -6.903826900964488E-1    4.279869595523654E-1   -6.889150620806096E-1    4.307896677604663E-1    2.587295934380742E-2   -4.344883437118209E-2
 1.330905000000000E9     9.831606979814431E-3   -9.157102975203887E-3   -4.401691049803960E-1   -6.788395591560813E-1   -4.375465095166862E-1   -6.787167195231245E-1   -7.850259778643400E-3    5.738422452212333E-2
 1.400900000000000E9    -1.473438754340267E-2    4.280645168832838E-2    6.658072199818152E-1   -4.517834602165386E-1    6.668129707025462E-1   -4.497691913904627E-1   -5.204444310790985E-2   -3.201254759299475E-2
 1.470895000000000E9    -9.262408591166128E-2   -5.080622400345338E-3    4.635701359181154E-1    6.487568829795739E-1    4.632721079067496E-1    6.520146071634009E-1   -2.482218888763127E-3   -3.874513477631385E-2
 1.540890000000000E9     4.993143840752598E-2   -7.455950465400059E-2   -6.384507499142891E-1    4.729939377687207E-1   -6.389298944109145E-1    4.718040343396167E-1    5.655809001230435E-2    2.299451954878887E-2
 1.610885000000000E9     3.325498710222775E-2    1.017781882589789E-1   -4.822490692102447E-1   -6.235349176789634E-1   -4.817053161685872E-1   -6.256281746630177E-1   -5.226438363240490E-2    5.732777656703752E-2
 1.680880000000000E9    -9.351082050852283E-2   -6.508351213888119E-3    6.108823040397502E-1   -4.928081796749615E-1    6.097388781239462E-1   -4.932692806994046E-1   -7.901600948948199E-2   -6.017232170055456E-2
 1.750875000000000E9     3.329333680899273E-2   -6.032240274100317E-2    5.043087080006201E-1    6.016049985022042E-1    5.053121364227982E-1    5.990726706174273E-1    4.522960243957694E-2   -5.035794720788578E-2
 1.820870000000000E9     6.615580870629638E-2    3.600449740150062E-2   -5.832380140365406E-1    5.172830219018523E-1   -5.860443959686797E-1    5.127548210647308E-1   -5.242462156594158E-3    7.648298081724786E-2
 1.890865000000000E9    -7.948490332723629E-2    5.079777624787178E-2   -5.260458693523465E-1   -5.691275305189422E-1   -5.230986893254784E-1   -5.703112686762024E-1   -7.943532824861765E-2    2.859407390749043E-3
 1.960860000000000E9    -5.872730523683721E-3   -1.329371194572335E-1    5.483102216881386E-1   -5.331140683339836E-1    5.519231548031405E-1   -5.346376184531142E-1   -5.626943874071000E-2   -9.111292723049473E-2
 2.030855000000000E9     3.522279278659512E-2    5.777611914208929E-2    5.424209218851210E-1    5.432624622345582E-1    5.418075465733355E-1    5.428264369166940E-1    4.903727592319705E-2    3.029025952141581E-2
 2.100850000000000E9    -7.356799294558120E-2   -3.806318185344370E-2   -5.305212881729717E-1    5.499186286743928E-1   -5.279172871171978E-1    5.503464450263365E-1   -7.251670316518481E-2    4.310289842018834E-2
 2.170845000000000E9     2.696710979859000E-2   -2.510028392750240E-2   -5.621032575236609E-1   -5.139521699287497E-1   -5.612834391710436E-1   -5.156839433155228E-1    3.820307561106483E-3   -2.360048113914989E-2
 2.240840000000000E9    -1.845354510903388E-2    4.093303109693626E-2    5.003778988641487E-1   -5.707389963280279E-1    5.003806435073312E-1   -5.686425717938051E-1   -1.498204813364157E-4    2.932245658701771E-2
 2.310835000000000E9    -2.600123855759520E-2   -5.534966475042306E-2    5.764099930918287E-1    4.845180932124256E-1    5.770181836950629E-1    4.849548129439861E-1   -2.919863880778980E-2    1.989495999160912E-2
 2.380830000000000E9     4.447625002335644E-2   -7.199395286749188E-4   -4.691268975436491E-1    5.841851392489412E-1   -4.712958944788092E-1    5.833369233169151E-1   -2.495307987646747E-2   -3.292475554683534E-2
 2.450825000000000E9    -6.663976604525211E-2    8.899213715119644E-2   -5.883031465930646E-1   -4.522085956393544E-1   -5.889190095987270E-1   -4.597460347968888E-1    2.090108490755278E-2    6.204116219742032E-2
 2.520820000000000E9    -2.965065139022716E-2   -5.281133156299028E-2    4.401759138730914E-1   -5.963055569152005E-1    4.406232825989700E-1   -5.977890637417962E-1   -6.631482907029916E-2    5.810391020745113E-2
 2.590815000000000E9     4.858058814063613E-2    4.351942106497392E-2    6.039771985340281E-1    4.267522285976941E-1    6.058756593192455E-1    4.249987008493833E-1   -4.819366859812025E-2   -2.859464850573020E-2
 2.660810000000000E9    -5.455082851750783E-2    3.435904226624962E-2   -4.116561207843044E-1    6.133665607664297E-1   -4.110566273112954E-1    6.106221794424758E-1    2.956585608870112E-2    1.588666487775276E-2
 2.730805000000000E9    -1.103557290526179E-3    6.959352513561881E-3   -6.214259074905062E-1   -3.956517763108127E-1   -6.153237286619233E-1   -3.947933925049357E-1   -2.802326822547916E-2    7.060509821908262E-2
 2.800800000000000E9     9.655737958524173E-3    4.158904402932466E-2    3.797856301843213E-1   -6.249414364649636E-1    3.801049499479920E-1   -6.226020991590090E-1   -3.417775351494431E-2    2.021600094481680E-2
 2.870795000000000E9    -3.333397532876617E-2    2.701239963462508E-2    6.305503943391948E-1    3.641758362322443E-1    6.277771622751011E-1    3.655725364801976E-1   -1.132772749731681E-2    3.319427767276553E-2
 2.940790000000000E9     1.305377391444149E-2    2.277094905775924E-2   -3.512513821671016E-1    6.343859657779010E-1   -3.509791940967411E-1    6.333212059435981E-1   -2.304310854526745E-2    1.633940398804575E-2
 3.010785000000000E9    -5.423935740414164E-2    4.053940306105720E-2   -6.378944576853467E-1   -3.359256392852741E-1   -6.392135675249214E-1   -3.367673280523111E-1    2.698106296360589E-2    2.411502136915256E-2
 3.080780000000000E9     2.461931788697158E-2   -2.974872112339819E-2    3.213988592870415E-1   -6.403476406679396E-1    3.173653268451969E-1   -6.420079142171760E-1    2.004142947180606E-2    9.315461344360222E-2
 3.150775000000000E9     3.754655775367844E-2    1.120334811386144E-1    6.396412743605178E-1    3.068970888489984E-1    6.440938263345776E-1    2.974646209283113E-1   -1.042087812996667E-1    5.895615474430221E-2
 3.220770000000000E9    -9.853842035590143E-2    3.963160492991220E-2   -2.886374491600359E-1    6.497286181605822E-1   -2.854968153127185E-1    6.495687185224432E-1   -1.912961573781316E-3   -6.138648221210349E-2
 3.290765000000000E9     3.229382504143491E-2   -5.644757334499547E-2   -6.546565151938057E-1   -2.715200929910925E-1   -6.495303683096496E-1   -2.728401260014765E-1    8.100427823106775E-2    6.488868443835213E-2
 3.360760000000000E9     6.860946693668941E-2    1.424392612965309E-1    2.539339037201269E-1   -6.489792238360242E-1    2.611776996696162E-1   -6.593115636447198E-1    3.253601238825668E-3    8.025982861359007E-2
 3.430755000000000E9    -7.794549833591682E-2    9.574848042899052E-2    6.577199638299852E-1    2.291662929944959E-1    6.634946618222854E-1    2.352466686084543E-1   -7.234800111506437E-2    3.800796838188060E-2
 3.500750000000000E9     2.846229199605643E-2   -2.336526049568212E-2   -2.267012574326390E-1    6.602861131094575E-1   -2.264100549278117E-1    6.624390454979125E-1    4.058727262688090E-2   -1.025360665651851E-4
 3.570745000000000E9     2.490773083579891E-2    4.939776868347739E-2   -6.643951029957024E-1   -2.108524035564051E-1   -6.655318587295656E-1   -2.107815193426913E-1    1.489625192356083E-2    4.900269476781022E-2
 3.640740000000000E9     2.458252732811345E-2    3.521863773010906E-2    1.983371914174031E-1   -6.658259935055862E-1    1.990039074618018E-1   -6.642564932253595E-1    4.023244327772119E-2    4.857931830986691E-2
 3.710735000000000E9     2.252233241169973E-2    9.820215852236153E-2    6.630558372531776E-1    1.774471421493950E-1    6.632923069775247E-1    1.782587267876911E-1    1.987369799116693E-3    9.474081296903371E-2
 3.780730000000000E9    -4.532246812459897E-2    5.070002338110363E-2   -1.572284717119315E-1    6.667706417181196E-1   -1.588828393494678E-1    6.665047351138971E-1   -3.951818430738072E-2    4.529383474891452E-2
 3.850725000000000E9     3.458462857207885E-2   -4.087529917006075E-2   -6.657904134766494E-1   -1.418953120175771E-1   -6.639774390138732E-1   -1.440298935474888E-1    2.393709841982821E-3   -2.611761908507023E-2
 3.920720000000000E9     1.134022276173247E-1    1.030806898565137E-1    1.238570793218098E-1   -6.552109648561664E-1    1.287141992977936E-1   -6.543209579312547E-1    1.166429570211910E-1    5.223058001144112E-2
 3.990715000000000E9    -4.829430025382356E-2    1.371687845309381E-1    6.583093727969038E-1    9.740656657184234E-2    6.534409643316160E-1    1.047487942727677E-1   -2.186494843904838E-2    1.674435490124935E-1
 4.060710000000000E9    -1.740718899958183E-2    2.255628722502187E-2   -8.847610708545671E-2    6.690513112424036E-1   -9.022830031778906E-2    6.638715303197189E-1   -3.690628838736596E-2   -1.155603273090589E-2
 4.130705000000000E9     2.755894357530631E-2   -5.389473775335555E-3   -6.666723843294050E-1   -8.767997243115126E-2   -6.629591652689441E-1   -8.581373430402038E-2    5.653247627059548E-2   -3.071339405847734E-2
 4.200700000000000E9     1.330645390671119E-1    2.478851594827892E-3    7.802567531708170E-2   -6.581756031446666E-1    6.570340816729406E-2   -6.570657736726623E-1    1.258495592586649E-1    7.301156969957345E-2
 4.270695000000000E9     5.341494400107955E-2    1.632805934806337E-1    6.527848953255071E-1    5.252884134915067E-2    6.565613841263461E-1    4.041385304592746E-2    2.044365974655308E-2    1.285759180879278E-1
 4.340690000000000E9    -9.465803271723554E-2    8.665330059071405E-2   -3.563594516850589E-2    6.558122250286845E-1   -2.997059616331849E-2    6.602896593270281E-1   -2.332056125131272E-2    1.730155825827293E-2
 4.410685000000000E9     3.087959925461763E-2   -1.288047460184749E-1   -6.535228827544879E-1   -2.356223310184939E-2   -6.546857859914103E-1   -2.667154507185205E-2   -3.162059299601979E-2   -3.860909212852479E-2
 4.480680000000000E9     2.470139973619210E-1    5.409802562294680E-2   -6.588956512663348E-4   -6.232747078042432E-1    2.218969961062391E-2   -6.335891279872925E-1    1.911265641393807E-1   -2.521531154061151E-2
 4.550675000000000E9    -1.815425934411815E-4    2.186173929311088E-1    6.221976357253617E-1   -3.539351974438797E-2    6.306811846225244E-1   -2.233717980820619E-3    7.383726456099880E-2    2.135671439769960E-1
 4.620670000000000E9    -2.817263611574108E-2   -3.745131540643033E-2    3.240965815512103E-2    6.455615203921207E-1    2.543320004118885E-2    6.449698553150155E-1   -8.545159386690343E-2    6.637788744798799E-2
 4.690665000000000E9     5.900014136372564E-2   -4.499521652990586E-3   -6.490924943983357E-1    3.996382567415070E-2   -6.356228293402316E-1    3.991940188298085E-2    8.663682929300228E-3   -1.331472722224778E-1
 4.760660000000000E9     1.377579633465912E-1   -1.642002786016436E-2   -4.462565081198124E-2   -6.396840465444402E-1   -4.937974439792943E-2   -5.984309296616572E-1    2.859641995926177E-1    2.763764793683256E-2
 4.830655000000000E9     9.418494652536297E-2    1.012952788750287E-1    6.315762166649149E-1   -8.105869537334712E-2    6.021802626265501E-1   -8.518637047521181E-2    6.467004781913928E-2    2.232924430856756E-1
 4.900650000000000E9    -1.495083623120803E-2    8.079399487157000E-2    9.043425643891377E-2    6.246055833008992E-1    9.307560855063578E-2    6.206472831865476E-1   -9.762638689540439E-2   -9.768164018339225E-3
 4.970645000000000E9    -4.061306764922985E-2   -1.076569813386560E-1   -6.109598091984891E-1    8.812347019564040E-2   -6.132207627601372E-1    1.023031943969881E-1    7.042823047796633E-2   -1.614049204099295E-1
 5.040640000000000E9     2.259051644150861E-1   -6.035233116489799E-2   -1.020680030448201E-1   -5.900267491272208E-1   -1.261772670700602E-1   -5.991506358079174E-1    2.228706202088815E-1    1.360811611001878E-2
 5.110635000000000E9     9.314419411199583E-2    1.697368305439567E-1    5.884652668730916E-1   -1.395088263875768E-1    5.995515823109776E-1   -1.534435343885505E-1    7.009423585423671E-2    1.343849921143431E-1
 5.180630000000000E9    -6.456526708074313E-2    2.842809251220621E-2    1.573676583212487E-1    6.022814722552369E-1    1.563818634460004E-1    6.083969039842239E-1   -2.375199752052026E-2    1.173761608599250E-2
 5.250625000000000E9     1.485169986078254E-2   -8.612284196898384E-2   -5.970160434852104E-1    1.712156575325213E-1   -6.006340777045434E-1    1.650229061781418E-1    2.369763270855725E-2   -8.957643274049949E-2
 5.320620000000000E9     1.887814222308326E-1   -5.384155425977604E-2   -1.870163370013770E-1   -5.751749677481128E-1   -1.786981782725132E-1   -5.785370146530037E-1    1.885843614715161E-1   -6.961024973277792E-2
 5.390615000000000E9     9.688652968901497E-2    1.142564679973627E-1    5.717959971678760E-1   -2.129804129045476E-1    5.733489089186068E-1   -2.067534114630733E-1    1.297352813155937E-1    1.123522153972118E-1
 5.460610000000000E9    -2.436168466709134E-2    7.044881394502560E-2    2.322115766394583E-1    5.699595410947929E-1    2.260679357848756E-1    5.717961904293801E-1   -4.121556134797009E-2    5.595868527897034E-2
 5.530605000000000E9    -2.688433638869764E-2   -1.187212435053035E-1   -5.565397439232519E-1    2.379395930585110E-1   -5.523095012694539E-1    2.348779855261907E-1   -3.537751954008735E-2   -1.328679999483751E-1
 5.600600000000000E9     1.978802232715627E-1   -9.864353175845171E-2   -2.515468472311753E-1   -5.254370109580945E-1   -2.524341712943119E-1   -5.164664162493149E-1    2.020179708866720E-1   -1.065520433723669E-1
 5.670595000000000E9     1.115329896762026E-1    1.007585400204702E-1    5.075343691632485E-1   -2.740891442422850E-1    5.014699120821817E-1   -2.786678419047567E-1    1.521132867395564E-1    8.215956024662155E-2
 5.740590000000000E9    -3.481693410522612E-3    3.652404259937581E-2    2.857470454981678E-1    5.130413214803781E-1    2.910375552671601E-1    5.059059721413691E-1    6.607009507892772E-3    2.935373160156025E-2
 5.810585000000000E9    -5.499285010983975E-3   -1.010079350919628E-1   -4.962674986345937E-1    2.975511684574947E-1   -4.925219664271138E-1    3.047715009841971E-1   -5.500268086295258E-2   -1.016175368600419E-1
 5.880580000000000E9     1.204388525051704E-1   -1.074733899550004E-1   -3.179458618235065E-1   -4.593871694182342E-1   -3.259633504339399E-1   -4.550076952556840E-1    1.024747177498828E-1   -1.211780038379900E-1
 5.950575000000000E9     1.174949150036987E-1    2.980689771517695E-2    4.380122101415503E-1   -3.399386055501415E-1    4.351117204702419E-1   -3.451944988052330E-1    1.499217168115017E-1    1.028809077383559E-2
 6.020570000000000E9     3.634177383786345E-2    5.426802840005805E-2    3.553775215318374E-1    4.254854501068768E-1    3.562801305439670E-1    4.295585710961866E-1    7.847807490660667E-2    8.270277620317920E-2
 6.090565000000000E9    -7.778927244632899E-2   -5.508114423071426E-2   -4.093820808571678E-1    3.476501635395757E-1   -4.165561179759755E-1    3.538940030027317E-1   -1.111130251908581E-1   -1.791975468657453E-2
 6.160560000000000E9     9.520780519108030E-2   -1.956532116170142E-1   -3.454652115695343E-1   -3.705691718960092E-1   -3.568410622403394E-1   -3.812512512767786E-1    4.179719437159929E-2   -1.783669169075125E-1
 6.230555000000000E9     1.532154766631773E-1   -1.296159242655826E-3    3.426303112740336E-1   -3.596622286196190E-1    3.495016882756104E-1   -3.725929409715716E-1    1.837359225081379E-1   -7.323093950248244E-2
 6.300550000000000E9     3.708599754864100E-2    6.876159211597092E-2    3.814009159378346E-1    3.247268501683141E-1    3.891618480012104E-1    3.296554467622653E-1    1.026972611068600E-1    2.113682701492306E-2
