! Created Mon Nov 11 19:01:38 2024
# hz S ma R 50
! 2 Port Network Data from SP1.SP block
! freq  magS11  angS11  magS21  angS21  magS12  angS12  magS22  angS22  
!     
         5000000000      0.09299534509         70.28572076        0.9956663766         -19.6563582        0.9956663766         -19.6563582       0.09299534778         70.40149389
         5020000000      0.09334618238         70.20738176        0.9956329835        -19.73446689        0.9956329835        -19.73446689       0.09334618511         70.32361547
         5040000000      0.09369701967         70.12904275        0.9955995904        -19.81257558        0.9955995904        -19.81257558       0.09369702243         70.24573705
         5060000000      0.09404785695         70.05070375        0.9955661972        -19.89068426        0.9955661972        -19.89068426       0.09404785976         70.16785863
         5080000000      0.09439869424         69.97236475        0.9955328041        -19.96879295        0.9955328041        -19.96879295       0.09439869708         70.08998021
         5100000000      0.09474953153         69.89402574         0.995499411        -20.04690164         0.995499411        -20.04690164       0.09474953441          70.0121018
         5120000000      0.09510036882         69.81568674        0.9954660179        -20.12501033        0.9954660179        -20.12501033       0.09510037174         69.93422338
         5140000000      0.09545120611         69.73734774        0.9954326248        -20.20311902        0.9954326248        -20.20311902       0.09545120906         69.85634496
         5160000000      0.09580204339         69.65900874        0.9953992316         -20.2812277        0.9953992316         -20.2812277       0.09580204639         69.77846654
         5180000000      0.09615288068         69.58066973        0.9953658385        -20.35933639        0.9953658385        -20.35933639       0.09615288371         69.70058812
         5200000000      0.09650371797         69.50233073        0.9953324454        -20.43744508        0.9953324454        -20.43744508       0.09650372104          69.6227097
         5220000000      0.09685212884         69.42404967        0.9952980478        -20.51549597        0.9952980478        -20.51549597       0.09685213195         69.54488892
         5240000000      0.09720053971         69.34576862        0.9952636502        -20.59354686        0.9952636502        -20.59354686       0.09720054286         69.46706813
         5260000000      0.09754895058         69.26748756        0.9952292527        -20.67159775        0.9952292527        -20.67159775       0.09754895377         69.38924735
         5280000000      0.09789736145          69.1892065        0.9951948551        -20.74964864        0.9951948551        -20.74964864       0.09789736468         69.31142657
         5300000000      0.09824577232         69.11092544        0.9951604575        -20.82769952        0.9951604575        -20.82769952       0.09824577559         69.23360579
         5320000000      0.09859418318         69.03264439        0.9951260599        -20.90575041        0.9951260599        -20.90575041        0.0985941865           69.155785
         5340000000      0.09894259405         68.95436333        0.9950916623         -20.9838013        0.9950916623         -20.9838013       0.09894259741         69.07796422
         5360000000      0.09929100492         68.87608227        0.9950572648        -21.06185219        0.9950572648        -21.06185219       0.09929100832         69.00014344
         5380000000      0.09963941579         68.79780122        0.9950228672        -21.13990308        0.9950228672        -21.13990308       0.09963941923         68.92232265
         5400000000      0.09998782666         68.71952016        0.9949884696        -21.21795397        0.9949884696        -21.21795397       0.09998783014         68.84450187
         5420000000       0.1003337291         68.64129872        0.9949531006        -21.29594539        0.9949531006        -21.29594539        0.1003337326         68.76674038
         5440000000       0.1006796315         68.56307728        0.9949177315        -21.37393682        0.9949177315        -21.37393682        0.1006796351         68.68897889
         5460000000       0.1010255339         68.48485584        0.9948823624        -21.45192824        0.9948823624        -21.45192824        0.1010255375          68.6112174
         5480000000       0.1013714364          68.4066344        0.9948469934        -21.52991966        0.9948469934        -21.52991966          0.10137144         68.53345591
         5500000000       0.1017173388         68.32841296        0.9948116243        -21.60791108        0.9948116243        -21.60791108        0.1017173425         68.45569442
         5520000000       0.1020632412         68.25019153        0.9947762553        -21.68590251        0.9947762553        -21.68590251        0.1020632449         68.37793293
         5540000000       0.1024091436         68.17197009        0.9947408863        -21.76389393        0.9947408863        -21.76389393        0.1024091474         68.30017144
         5560000000       0.1027550461         68.09374865        0.9947055172        -21.84188535        0.9947055172        -21.84188535        0.1027550499         68.22240995
         5580000000       0.1031009485         68.01552721        0.9946701481        -21.91987678        0.9946701481        -21.91987678        0.1031009523         68.14464846
         5600000000       0.1034468509         67.93730577        0.9946347791         -21.9978682        0.9946347791         -21.9978682        0.1034468548         68.06688697
         5620000000        0.103790164         67.85914556        0.9945984724        -22.07579855        0.9945984724        -22.07579855         0.103790168         67.98918637
         5640000000       0.1041334771         67.78098535        0.9945621657        -22.15372891        0.9945621657        -22.15372891        0.1041334811         67.91148577
         5660000000       0.1044767902         67.70282514         0.994525859        -22.23165926         0.994525859        -22.23165926        0.1044767943         67.83378517
         5680000000       0.1048201033         67.62466493        0.9944895523        -22.30958961        0.9944895523        -22.30958961        0.1048201074         67.75608457
         5700000000       0.1051634165         67.54650472        0.9944532456        -22.38751997        0.9944532456        -22.38751997        0.1051634206         67.67838397
         5720000000       0.1055067296         67.46834451        0.9944169389        -22.46545032        0.9944169389        -22.46545032        0.1055067338         67.60068338
         5740000000       0.1058500427          67.3901843        0.9943806322        -22.54338067        0.9943806322        -22.54338067        0.1058500469         67.52298278
         5760000000       0.1061933558         67.31202409        0.9943443255        -22.62131102        0.9943443255        -22.62131102        0.1061933601         67.44528218
         5780000000       0.1065366689         67.23386388        0.9943080188        -22.69924138        0.9943080188        -22.69924138        0.1065366732         67.36758158
         5800000000        0.106879982         67.15570367        0.9942717121        -22.77717173        0.9942717121        -22.77717173        0.1068799864         67.28988098
         5820000000       0.1072206261         67.07760624        0.9942345024        -22.85503947        0.9942345024        -22.85503947        0.1072206306         67.21224281
         5840000000       0.1075612703         66.99950881        0.9941972927         -22.9329072        0.9941972927         -22.9329072        0.1075612748         67.13460464
         5860000000       0.1079019144         66.92141138         0.994160083        -23.01077494         0.994160083        -23.01077494        0.1079019189         67.05696647
         5880000000       0.1082425585         66.84331395        0.9941228733        -23.08864268        0.9941228733        -23.08864268        0.1082425631          66.9793283
         5900000000       0.1085832026         66.76521653        0.9940856635        -23.16651042        0.9940856635        -23.16651042        0.1085832073         66.90169013
         5920000000       0.1089238468          66.6871191        0.9940484538        -23.24437815        0.9940484538        -23.24437815        0.1089238515         66.82405195
         5940000000       0.1092644909         66.60902167        0.9940112441        -23.32224589        0.9940112441        -23.32224589        0.1092644957         66.74641378
         5960000000        0.109605135         66.53092424        0.9939740344        -23.40011363        0.9939740344        -23.40011363        0.1096051398         66.66877561
         5980000000       0.1099457792         66.45282681        0.9939368247        -23.47798136        0.9939368247        -23.47798136         0.109945784         66.59113744
         6000000000       0.1102864233         66.37472938         0.993899615         -23.5558491         0.993899615         -23.5558491        0.1102864282         66.51349927
         6020000000         0.11062432         66.29669623        0.9938615377        -23.63365274        0.9938615377        -23.63365274        0.1106243249           66.435925
         6040000000       0.1109622166         66.21866307        0.9938234604        -23.71145637        0.9938234604        -23.71145637        0.1109622216         66.35835073
         6060000000       0.1113001133         66.14062991        0.9937853831        -23.78926001        0.9937853831        -23.78926001        0.1113001184         66.28077647
         6080000000       0.1116380099         66.06259676        0.9937473058        -23.86706364        0.9937473058        -23.86706364        0.1116380151          66.2032022
         6100000000       0.1119759066         65.98456361        0.9937092286        -23.94486728        0.9937092286        -23.94486728        0.1119759118         66.12562793
         6120000000       0.1123138033         65.90653045        0.9936711513        -24.02267092        0.9936711513        -24.02267092        0.1123138085         66.04805366
         6140000000       0.1126516999         65.82849729         0.993633074        -24.10047455         0.993633074        -24.10047455        0.1126517052         65.97047939
         6160000000       0.1129895966         65.75046414        0.9935949967        -24.17827819        0.9935949967        -24.17827819         0.112989602         65.89290513
         6180000000       0.1133274932         65.67243099        0.9935569194        -24.25608182        0.9935569194        -24.25608182        0.1133274987         65.81533086
         6200000000       0.1136653899         65.59439783        0.9935188421        -24.33388546        0.9935188421        -24.33388546        0.1136653954         65.73775659
         6220000000       0.1140004619         65.51643038        0.9934799334        -24.41162357        0.9934799334        -24.41162357        0.1140004674         65.66024764
         6240000000       0.1143355338         65.43846292        0.9934410246        -24.48936169        0.9934410246        -24.48936169        0.1143355394         65.58273869
         6260000000       0.1146706058         65.36049547        0.9934021159         -24.5670998        0.9934021159         -24.5670998        0.1146706114         65.50522973
         6280000000       0.1150056777         65.28252801        0.9933632071        -24.64483791        0.9933632071        -24.64483791        0.1150056834         65.42772078
         6300000000       0.1153407496         65.20456056        0.9933242984        -24.72257602        0.9933242984        -24.72257602        0.1153407555         65.35021183
         6320000000       0.1156758216         65.12659311        0.9932853897        -24.80031414        0.9932853897        -24.80031414        0.1156758275         65.27270288
         6340000000       0.1160108936         65.04862565        0.9932464809        -24.87805225        0.9932464809        -24.87805225        0.1160108995         65.19519393
         6360000000       0.1163459655          64.9706582        0.9932075722        -24.95579036        0.9932075722        -24.95579036        0.1163459715         65.11768497
         6380000000       0.1166810374         64.89269074        0.9931686634        -25.03352848        0.9931686634        -25.03352848        0.1166810435         65.04017602
         6400000000       0.1170161094         64.81472329        0.9931297547        -25.11126659        0.9931297547        -25.11126659        0.1170161155         64.96266707
         6420000000       0.1173482806          64.7368229        0.9930900513        -25.18893782        0.9930900513        -25.18893782        0.1173482868         64.88522478
         6440000000       0.1176804519         64.65892252         0.993050348        -25.26660906         0.993050348        -25.26660906        0.1176804581         64.80778249
         6460000000       0.1180126231         64.58102213        0.9930106446        -25.34428029        0.9930106446        -25.34428029        0.1180126294         64.73034021
         6480000000       0.1183447943         64.50312174        0.9929709413        -25.42195153        0.9929709413        -25.42195153        0.1183448007         64.65289792
         6500000000       0.1186769655         64.42522136        0.9929312379        -25.49962276        0.9929312379        -25.49962276         0.118676972         64.57545563
         6520000000       0.1190091368         64.34732097        0.9928915346        -25.57729399        0.9928915346        -25.57729399        0.1190091433         64.49801334
         6540000000        0.119341308         64.26942058        0.9928518312        -25.65496523        0.9928518312        -25.65496523        0.1193413146         64.42057105
         6560000000       0.1196734792         64.19152019        0.9928121279        -25.73263646        0.9928121279        -25.73263646        0.1196734859         64.34312877
         6580000000       0.1200056505         64.11361981        0.9927724245         -25.8103077        0.9927724245         -25.8103077        0.1200056572         64.26568648
         6600000000       0.1203378217         64.03571942        0.9927327212        -25.88797893        0.9927327212        -25.88797893        0.1203378285         64.18824419
         6620000000       0.1206670175          63.9578874        0.9926922607        -25.96558199        0.9926922607        -25.96558199        0.1206670243         64.11086985
         6640000000       0.1209962133         63.88005538        0.9926518002        -26.04318505        0.9926518002        -26.04318505        0.1209962202         64.03349551
         6660000000        0.121325409         63.80222335        0.9926113397        -26.12078811        0.9926113397        -26.12078811        0.1213254161         63.95612117
         6680000000       0.1216546048         63.72439133        0.9925708792        -26.19839117        0.9925708792        -26.19839117        0.1216546119         63.87874683
         6700000000       0.1219838006         63.64655931        0.9925304187        -26.27599424        0.9925304187        -26.27599424        0.1219838077         63.80137248
         6720000000       0.1223129964         63.56872729        0.9924899583         -26.3535973        0.9924899583         -26.3535973        0.1223130036         63.72399814
         6740000000       0.1226421922         63.49089527        0.9924494978        -26.43120036        0.9924494978        -26.43120036        0.1226421994          63.6466238
         6760000000       0.1229713879         63.41306324        0.9924090373        -26.50880342        0.9924090373        -26.50880342        0.1229713953         63.56924946
         6780000000       0.1233005837         63.33523122        0.9923685768        -26.58640648        0.9923685768        -26.58640648        0.1233005912         63.49187512
         6800000000       0.1236297795          63.2573992        0.9923281163        -26.66400954        0.9923281163        -26.66400954         0.123629787         63.41450078
         6820000000       0.1239559264         63.17963678        0.9922869368         -26.7415432        0.9922869368         -26.7415432        0.1239559339          63.3371956
         6840000000       0.1242820732         63.10187436        0.9922457572        -26.81907686        0.9922457572        -26.81907686        0.1242820808         63.25989043
         6860000000         0.12460822         63.02411194        0.9922045777        -26.89661053        0.9922045777        -26.89661053        0.1246082278         63.18258525
         6880000000       0.1249343669         62.94634952        0.9921633982        -26.97414419        0.9921633982        -26.97414419        0.1249343747         63.10528007
         6900000000       0.1252605138         62.86858709        0.9921222187        -27.05167785        0.9921222187        -27.05167785        0.1252605216         63.02797489
         6920000000       0.1255866606         62.79082467        0.9920810391        -27.12921151        0.9920810391        -27.12921151        0.1255866685         62.95066972
         6940000000       0.1259128074         62.71306225        0.9920398596        -27.20674517        0.9920398596        -27.20674517        0.1259128154         62.87336454
         6960000000       0.1262389543         62.63529983        0.9919986801        -27.28427884        0.9919986801        -27.28427884        0.1262389624         62.79605936
         6980000000       0.1265651012         62.55753741        0.9919575005         -27.3618125        0.9919575005         -27.3618125        0.1265651093         62.71875419
         7000000000        0.126891248         62.47977499         0.991916321        -27.43934616         0.991916321        -27.43934616        0.1268912562         62.64144901
         7020000000       0.1272142737         62.40208334        0.9918744611        -27.51680927        0.9918744611        -27.51680927         0.127214282         62.56421415
         7040000000       0.1275372994         62.32439168        0.9918326012        -27.59427237        0.9918326012        -27.59427237        0.1275373078         62.48697928
         7060000000       0.1278603252         62.24670003        0.9917907413        -27.67173547        0.9917907413        -27.67173547        0.1278603336         62.40974442
         7080000000       0.1281833509         62.16900837        0.9917488814        -27.74919858        0.9917488814        -27.74919858        0.1281833594         62.33250955
         7100000000       0.1285063766         62.09131672        0.9917070215        -27.82666168        0.9917070215        -27.82666168        0.1285063852         62.25527469
         7120000000       0.1288294023         62.01362507        0.9916651615        -27.90412479        0.9916651615        -27.90412479         0.128829411         62.17803983
         7140000000        0.129152428         61.93593341        0.9916233016         -27.9815879        0.9916233016         -27.9815879        0.1291524368         62.10080496
         7160000000       0.1294754538         61.85824176        0.9915814417          -28.059051        0.9915814417          -28.059051        0.1294754626          62.0235701
         7180000000       0.1297984795          61.7805501        0.9915395818         -28.1365141        0.9915395818         -28.1365141        0.1297984884         61.94633523
