! Created Sat Jan 18 22:17:15 2025
# hz S ma R 50
! 2 Port Network Data from SP1.SP block
! freq  magS11  angS11  magS21  angS21  magS12  angS12  magS22  angS22  
!     
5e+09       0.999999967         161.805094                  0                  0                  0                  0        0.999999967         161.805094
5.02e+09       0.999999967         161.732914                  0                  0                  0                  0        0.999999967         161.732914
5.04e+09       0.999999967         161.660734                  0                  0                  0                  0        0.999999967         161.660734
5.06e+09       0.999999967         161.588554                  0                  0                  0                  0        0.999999967         161.588554
5.08e+09       0.999999967         161.516374                  0                  0                  0                  0        0.999999967         161.516374
5.1e+09       0.999999967         161.444195                  0                  0                  0                  0        0.999999967         161.444195
5.12e+09       0.999999967         161.372015                  0                  0                  0                  0        0.999999967         161.372015
5.14e+09       0.999999967         161.299835                  0                  0                  0                  0        0.999999967         161.299835
5.16e+09       0.999999966         161.227655                  0                  0                  0                  0        0.999999966         161.227655
5.18e+09       0.999999966         161.155475                  0                  0                  0                  0        0.999999966         161.155475
5.2e+09       0.999999966         161.083295                  0                  0                  0                  0        0.999999966         161.083295
5.22e+09       0.999999966         161.011185                  0                  0                  0                  0        0.999999966         161.011185
5.24e+09       0.999999966         160.939074                  0                  0                  0                  0        0.999999966         160.939074
5.26e+09       0.999999966         160.866964                  0                  0                  0                  0        0.999999966         160.866964
5.28e+09       0.999999966         160.794853                  0                  0                  0                  0        0.999999966         160.794853
5.3e+09       0.999999965         160.722743                  0                  0                  0                  0        0.999999965         160.722743
5.32e+09       0.999999965         160.650633                  0                  0                  0                  0        0.999999965         160.650633
5.34e+09       0.999999965         160.578522                  0                  0                  0                  0        0.999999965         160.578522
5.36e+09       0.999999965         160.506412                  0                  0                  0                  0        0.999999965         160.506412
5.38e+09       0.999999965         160.434302                  0                  0                  0                  0        0.999999965         160.434302
5.4e+09       0.999999965         160.362191                  0                  0                  0                  0        0.999999965         160.362191
5.42e+09       0.999999965         160.290153                  0                  0                  0                  0        0.999999965         160.290153
5.44e+09       0.999999965         160.218114                  0                  0                  0                  0        0.999999965         160.218114
5.46e+09       0.999999964         160.146076                  0                  0                  0                  0        0.999999964         160.146076
5.48e+09       0.999999964         160.074038                  0                  0                  0                  0        0.999999964         160.074038
5.5e+09       0.999999964         160.001999                  0                  0                  0                  0        0.999999964         160.001999
5.52e+09       0.999999964         159.929961                  0                  0                  0                  0        0.999999964         159.929961
5.54e+09       0.999999964         159.857923                  0                  0                  0                  0        0.999999964         159.857923
5.56e+09       0.999999964         159.785884                  0                  0                  0                  0        0.999999964         159.785884
5.58e+09       0.999999964         159.713846                  0                  0                  0                  0        0.999999964         159.713846
5.6e+09       0.999999964         159.641807                  0                  0                  0                  0        0.999999964         159.641807
5.62e+09       0.999999964         159.569843                  0                  0                  0                  0        0.999999964         159.569843
5.64e+09       0.999999963         159.497879                  0                  0                  0                  0        0.999999963         159.497879
5.66e+09       0.999999963         159.425916                  0                  0                  0                  0        0.999999963         159.425916
5.68e+09       0.999999963         159.353951                  0                  0                  0                  0        0.999999963         159.353951
5.7e+09       0.999999963         159.281988                  0                  0                  0                  0        0.999999963         159.281988
5.72e+09       0.999999963         159.210024                  0                  0                  0                  0        0.999999963         159.210024
5.74e+09       0.999999963          159.13806                  0                  0                  0                  0        0.999999963          159.13806
5.76e+09       0.999999963         159.066096                  0                  0                  0                  0        0.999999963         159.066096
5.78e+09       0.999999963         158.994132                  0                  0                  0                  0        0.999999963         158.994132
5.8e+09       0.999999963         158.922168                  0                  0                  0                  0        0.999999963         158.922168
5.82e+09       0.999999962         158.850281                  0                  0                  0                  0        0.999999962         158.850281
5.84e+09       0.999999962         158.778394                  0                  0                  0                  0        0.999999962         158.778394
5.86e+09       0.999999962         158.706507                  0                  0                  0                  0        0.999999962         158.706507
5.88e+09       0.999999962          158.63462                  0                  0                  0                  0        0.999999962          158.63462
5.9e+09       0.999999962         158.562733                  0                  0                  0                  0        0.999999962         158.562733
5.92e+09       0.999999962         158.490846                  0                  0                  0                  0        0.999999962         158.490846
5.94e+09       0.999999962         158.418959                  0                  0                  0                  0        0.999999962         158.418959
5.96e+09       0.999999962         158.347071                  0                  0                  0                  0        0.999999962         158.347071
5.98e+09       0.999999961         158.275184                  0                  0                  0                  0        0.999999961         158.275184
6e+09       0.999999961         158.203297                  0                  0                  0                  0        0.999999961         158.203297
6.02e+09       0.999999961          158.13149                  0                  0                  0                  0        0.999999961          158.13149
6.04e+09       0.999999961         158.059682                  0                  0                  0                  0        0.999999961         158.059682
6.06e+09       0.999999961         157.987874                  0                  0                  0                  0        0.999999961         157.987874
6.08e+09       0.999999961         157.916066                  0                  0                  0                  0        0.999999961         157.916066
6.1e+09       0.999999961         157.844259                  0                  0                  0                  0        0.999999961         157.844259
6.12e+09        0.99999996         157.772451                  0                  0                  0                  0         0.99999996         157.772451
6.14e+09        0.99999996         157.700643                  0                  0                  0                  0         0.99999996         157.700643
6.16e+09        0.99999996         157.628835                  0                  0                  0                  0         0.99999996         157.628835
6.18e+09        0.99999996         157.557028                  0                  0                  0                  0         0.99999996         157.557028
6.2e+09        0.99999996          157.48522                  0                  0                  0                  0         0.99999996          157.48522
6.22e+09        0.99999996         157.413494                  0                  0                  0                  0         0.99999996         157.413494
6.24e+09        0.99999996         157.341768                  0                  0                  0                  0         0.99999996         157.341768
6.26e+09       0.999999959         157.270042                  0                  0                  0                  0        0.999999959         157.270042
6.28e+09       0.999999959         157.198316                  0                  0                  0                  0        0.999999959         157.198316
6.3e+09       0.999999959          157.12659                  0                  0                  0                  0        0.999999959          157.12659
6.32e+09       0.999999959         157.054864                  0                  0                  0                  0        0.999999959         157.054864
6.34e+09       0.999999959         156.983137                  0                  0                  0                  0        0.999999959         156.983137
6.36e+09       0.999999959         156.911411                  0                  0                  0                  0        0.999999959         156.911411
6.38e+09       0.999999959         156.839685                  0                  0                  0                  0        0.999999959         156.839685
6.4e+09       0.999999959         156.767959                  0                  0                  0                  0        0.999999959         156.767959
6.42e+09       0.999999959         156.696317                  0                  0                  0                  0        0.999999959         156.696317
6.44e+09       0.999999958         156.624675                  0                  0                  0                  0        0.999999958         156.624675
6.46e+09       0.999999958         156.553033                  0                  0                  0                  0        0.999999958         156.553033
6.48e+09       0.999999958         156.481391                  0                  0                  0                  0        0.999999958         156.481391
6.5e+09       0.999999958         156.409749                  0                  0                  0                  0        0.999999958         156.409749
6.52e+09       0.999999958         156.338107                  0                  0                  0                  0        0.999999958         156.338107
6.54e+09       0.999999958         156.266465                  0                  0                  0                  0        0.999999958         156.266465
6.56e+09       0.999999957         156.194823                  0                  0                  0                  0        0.999999957         156.194823
6.58e+09       0.999999957         156.123181                  0                  0                  0                  0        0.999999957         156.123181
6.6e+09       0.999999957         156.051539                  0                  0                  0                  0        0.999999957         156.051539
6.62e+09       0.999999957         155.979983                  0                  0                  0                  0        0.999999957         155.979983
6.64e+09       0.999999957         155.908428                  0                  0                  0                  0        0.999999957         155.908428
6.66e+09       0.999999957         155.836872                  0                  0                  0                  0        0.999999957         155.836872
6.68e+09       0.999999957         155.765317                  0                  0                  0                  0        0.999999957         155.765317
6.7e+09       0.999999956         155.693761                  0                  0                  0                  0        0.999999956         155.693761
6.72e+09       0.999999956         155.622205                  0                  0                  0                  0        0.999999956         155.622205
6.74e+09       0.999999956          155.55065                  0                  0                  0                  0        0.999999956          155.55065
6.76e+09       0.999999956         155.479094                  0                  0                  0                  0        0.999999956         155.479094
6.78e+09       0.999999956         155.407538                  0                  0                  0                  0        0.999999956         155.407538
6.8e+09       0.999999956         155.335983                  0                  0                  0                  0        0.999999956         155.335983
6.82e+09       0.999999956         155.264516                  0                  0                  0                  0        0.999999956         155.264516
6.84e+09       0.999999955         155.193049                  0                  0                  0                  0        0.999999955         155.193049
6.86e+09       0.999999955         155.121582                  0                  0                  0                  0        0.999999955         155.121582
6.88e+09       0.999999955         155.050115                  0                  0                  0                  0        0.999999955         155.050115
6.9e+09       0.999999955         154.978648                  0                  0                  0                  0        0.999999955         154.978648
6.92e+09       0.999999955         154.907181                  0                  0                  0                  0        0.999999955         154.907181
6.94e+09       0.999999955         154.835714                  0                  0                  0                  0        0.999999955         154.835714
6.96e+09       0.999999955         154.764247                  0                  0                  0                  0        0.999999955         154.764247
6.98e+09       0.999999955          154.69278                  0                  0                  0                  0        0.999999955          154.69278
7e+09       0.999999954         154.621313                  0                  0                  0                  0        0.999999954         154.621313
7.02e+09       0.999999954         154.549937                  0                  0                  0                  0        0.999999954         154.549937
7.04e+09       0.999999954         154.478562                  0                  0                  0                  0        0.999999954         154.478562
7.06e+09       0.999999954         154.407186                  0                  0                  0                  0        0.999999954         154.407186
7.08e+09       0.999999954          154.33581                  0                  0                  0                  0        0.999999954          154.33581
7.1e+09       0.999999954         154.264434                  0                  0                  0                  0        0.999999954         154.264434
7.12e+09       0.999999954         154.193058                  0                  0                  0                  0        0.999999954         154.193058
7.14e+09       0.999999953         154.121682                  0                  0                  0                  0        0.999999953         154.121682
7.16e+09       0.999999953         154.050306                  0                  0                  0                  0        0.999999953         154.050306
7.18e+09       0.999999953          153.97893                  0                  0                  0                  0        0.999999953          153.97893
7.2e+09       0.999999953         153.907554                  0                  0                  0                  0        0.999999953         153.907554
7.22e+09       0.999999953         153.836271                  0                  0                  0                  0        0.999999953         153.836271
7.24e+09       0.999999953         153.764989                  0                  0                  0                  0        0.999999953         153.764989
7.26e+09       0.999999952         153.693706                  0                  0                  0                  0        0.999999952         153.693706
7.28e+09       0.999999952         153.622423                  0                  0                  0                  0        0.999999952         153.622423
7.3e+09       0.999999952         153.551141                  0                  0                  0                  0        0.999999952         153.551141
7.32e+09       0.999999952         153.479858                  0                  0                  0                  0        0.999999952         153.479858
7.34e+09       0.999999952         153.408575                  0                  0                  0                  0        0.999999952         153.408575
7.36e+09       0.999999952         153.337293                  0                  0                  0                  0        0.999999952         153.337293
7.38e+09       0.999999952          153.26601                  0                  0                  0                  0        0.999999952          153.26601
7.4e+09       0.999999951         153.194727                  0                  0                  0                  0        0.999999951         153.194727
7.42e+09       0.999999951          153.12354                  0                  0                  0                  0        0.999999951          153.12354
7.44e+09       0.999999951         153.052353                  0                  0                  0                  0        0.999999951         153.052353
7.46e+09       0.999999951         152.981166                  0                  0                  0                  0        0.999999951         152.981166
