! Created Mon Nov 11 19:00:20 2024
# hz S ma R 50
! 1 Port Network Data from SP1.SP block
! freq  magS11  angS11  
!     
         5000000000       0.9999999673          161.805094
         5020000000       0.9999999672         161.7329141
         5040000000       0.9999999671         161.6607342
         5060000000       0.9999999669         161.5885543
         5080000000       0.9999999668         161.5163744
         5100000000       0.9999999667         161.4441945
         5120000000       0.9999999666         161.3720146
         5140000000       0.9999999665         161.2998347
         5160000000       0.9999999663         161.2276548
         5180000000       0.9999999662         161.1554749
         5200000000       0.9999999661          161.083295
         5220000000        0.999999966         161.0111846
         5240000000       0.9999999659         160.9390742
         5260000000       0.9999999657         160.8669639
         5280000000       0.9999999656         160.7948535
         5300000000       0.9999999655         160.7227431
         5320000000       0.9999999654         160.6506327
         5340000000       0.9999999653         160.5785223
         5360000000       0.9999999651          160.506412
         5380000000        0.999999965         160.4343016
         5400000000       0.9999999649         160.3621912
         5420000000       0.9999999648         160.2901528
         5440000000       0.9999999647         160.2181144
         5460000000       0.9999999645          160.146076
         5480000000       0.9999999644         160.0740376
         5500000000       0.9999999643         160.0019993
         5520000000       0.9999999642         159.9299609
         5540000000       0.9999999641         159.8579225
         5560000000       0.9999999639         159.7858841
         5580000000       0.9999999638         159.7138457
         5600000000       0.9999999637         159.6418073
         5620000000       0.9999999636         159.5698434
         5640000000       0.9999999635         159.4978794
         5660000000       0.9999999633         159.4259155
         5680000000       0.9999999632         159.3539515
         5700000000       0.9999999631         159.2819876
         5720000000        0.999999963         159.2100237
         5740000000       0.9999999629         159.1380597
         5760000000       0.9999999627         159.0660958
         5780000000       0.9999999626         158.9941318
         5800000000       0.9999999625         158.9221679
         5820000000       0.9999999624         158.8502808
         5840000000       0.9999999622         158.7783938
         5860000000       0.9999999621         158.7065068
         5880000000        0.999999962         158.6346197
         5900000000       0.9999999618         158.5627326
         5920000000       0.9999999617         158.4908456
         5940000000       0.9999999616         158.4189586
         5960000000       0.9999999615         158.3470715
         5980000000       0.9999999613         158.2751844
         6000000000       0.9999999612         158.2032974
         6020000000       0.9999999611         158.1314896
         6040000000       0.9999999609         158.0596819
         6060000000       0.9999999608         157.9878742
         6080000000       0.9999999607         157.9160664
         6100000000       0.9999999605         157.8442587
         6120000000       0.9999999604         157.7724509
         6140000000       0.9999999603         157.7006431
         6160000000       0.9999999602         157.6288354
         6180000000         0.99999996         157.5570277
         6200000000       0.9999999599         157.4852199
         6220000000       0.9999999598         157.4134938
         6240000000       0.9999999596         157.3417678
         6260000000       0.9999999595         157.2700417
         6280000000       0.9999999594         157.1983156
         6300000000       0.9999999593         157.1265896
         6320000000       0.9999999591         157.0548635
         6340000000        0.999999959         156.9831374
         6360000000       0.9999999589         156.9114113
         6380000000       0.9999999587         156.8396853
         6400000000       0.9999999586         156.7679592
         6420000000       0.9999999585         156.6963172
         6440000000       0.9999999583         156.6246752
         6460000000       0.9999999582         156.5530331
         6480000000        0.999999958         156.4813911
         6500000000       0.9999999579         156.4097491
         6520000000       0.9999999578         156.3381071
         6540000000       0.9999999576         156.2664651
         6560000000       0.9999999575          156.194823
         6580000000       0.9999999573          156.123181
         6600000000       0.9999999572          156.051539
         6620000000       0.9999999571         155.9799834
         6640000000       0.9999999569         155.9084277
         6660000000       0.9999999568         155.8368721
         6680000000       0.9999999566         155.7653165
         6700000000       0.9999999565         155.6937608
         6720000000       0.9999999564         155.6222052
         6740000000       0.9999999562         155.5506496
         6760000000       0.9999999561          155.479094
         6780000000       0.9999999559         155.4075383
         6800000000       0.9999999558         155.3359827
         6820000000       0.9999999557         155.2645158
         6840000000       0.9999999555         155.1930488
         6860000000       0.9999999554         155.1215819
         6880000000       0.9999999552          155.050115
         6900000000       0.9999999551         154.9786481
         6920000000        0.999999955         154.9071811
         6940000000       0.9999999548         154.8357142
         6960000000       0.9999999547         154.7642473
         6980000000       0.9999999545         154.6927803
         7000000000       0.9999999544         154.6213134
         7020000000       0.9999999542         154.5499375
         7040000000       0.9999999541         154.4785615
         7060000000        0.999999954         154.4071856
         7080000000       0.9999999538         154.3358097
         7100000000       0.9999999537         154.2644337
         7120000000       0.9999999535         154.1930578
         7140000000       0.9999999534         154.1216819
         7160000000       0.9999999532          154.050306
         7180000000       0.9999999531           153.97893
         7200000000       0.9999999529         153.9075541
         7220000000       0.9999999527         153.8362714
         7240000000       0.9999999526         153.7649887
         7260000000       0.9999999524         153.6937061
         7280000000       0.9999999523         153.6224234
         7300000000       0.9999999522         153.5511407
         7320000000        0.999999952          153.479858
         7340000000       0.9999999519         153.4085753
         7360000000       0.9999999517         153.3372927
         7380000000       0.9999999516           153.26601
         7400000000       0.9999999514         153.1947273
         7420000000       0.9999999512         153.1235401
         7440000000       0.9999999511         153.0523529
         7460000000       0.9999999509         152.9811657
         7480000000       0.9999999508         152.9099785
         7500000000       0.9999999506         152.8387914
         7520000000       0.9999999505         152.7676042
         7540000000       0.9999999503          152.696417
         7560000000       0.9999999502         152.6252298
         7580000000       0.9999999501         152.5540426
         7600000000       0.9999999499         152.4828554
         7620000000       0.9999999497         152.4117659
         7640000000       0.9999999496         152.3406764
         7660000000       0.9999999494         152.2695869
         7680000000       0.9999999493         152.1984974
         7700000000       0.9999999491          152.127408
         7720000000       0.9999999489         152.0563185
         7740000000       0.9999999488          151.985229
         7760000000       0.9999999486         151.9141395
         7780000000       0.9999999485           151.84305
         7800000000       0.9999999483         151.7719605
         7820000000       0.9999999481         151.7009709
         7840000000        0.999999948         151.6299813
         7860000000       0.9999999478         151.5589917
         7880000000       0.9999999477         151.4880021
         7900000000       0.9999999475         151.4170125
         7920000000       0.9999999473         151.3460229
         7940000000       0.9999999472         151.2750333
         7960000000        0.999999947         151.2040437
         7980000000       0.9999999469         151.1330541
         8000000000       0.9999999467         151.0620645
         8020000000       0.9999999465         150.9911769
         8040000000       0.9999999464         150.9202894
         8060000000       0.9999999462         150.8494018
         8080000000        0.999999946         150.7785142
         8100000000       0.9999999458         150.7076266
         8120000000       0.9999999457         150.6367391
         8140000000       0.9999999455         150.5658515
         8160000000       0.9999999453         150.4949639
         8180000000       0.9999999452         150.4240764
         8200000000        0.999999945         150.3531888
         8220000000       0.9999999448         150.2824054
         8240000000       0.9999999446          150.211622
         8260000000       0.9999999445         150.1408386
         8280000000       0.9999999443         150.0700552
         8300000000       0.9999999441         149.9992718
         8320000000       0.9999999439         149.9284884
         8340000000       0.9999999437          149.857705
         8360000000       0.9999999436         149.7869216
         8380000000       0.9999999434         149.7161382
         8400000000       0.9999999432         149.6453548
         8420000000        0.999999943         149.5746777
         8440000000       0.9999999428         149.5040005
         8460000000       0.9999999427         149.4333233
         8480000000       0.9999999425         149.3626462
         8500000000       0.9999999423         149.2919691
         8520000000       0.9999999421         149.2212919
         8540000000       0.9999999419         149.1506148
         8560000000       0.9999999418         149.0799376
         8580000000       0.9999999416         149.0092604
         8600000000       0.9999999414         148.9385833
         8620000000       0.9999999412         148.8680145
         8640000000        0.999999941         148.7974457
         8660000000       0.9999999409         148.7268768
         8680000000       0.9999999407          148.656308
         8700000000       0.9999999405         148.5857392
         8720000000       0.9999999403         148.5151704
         8740000000       0.9999999401         148.4446016
         8760000000         0.99999994         148.3740327
         8780000000       0.9999999398         148.3034639
         8800000000       0.9999999396         148.2328951
         8820000000       0.9999999394         148.1624366
         8840000000       0.9999999392         148.0919782
         8860000000        0.999999939         148.0215197
         8880000000       0.9999999388         147.9510613
         8900000000       0.9999999387         147.8806028
         8920000000       0.9999999385         147.8101443
         8940000000       0.9999999383         147.7396859
         8960000000       0.9999999381         147.6692274
         8980000000       0.9999999379          147.598769
         9000000000       0.9999999377         147.5283105
         9020000000       0.9999999375         147.4579644
         9040000000       0.9999999373         147.3876183
         9060000000       0.9999999371         147.3172722
         9080000000       0.9999999369         147.2469261
         9100000000       0.9999999367           147.17658
         9120000000       0.9999999365          147.106234
         9140000000       0.9999999363         147.0358879
         9160000000       0.9999999361         146.9655418
         9180000000       0.9999999359         146.8951957
         9200000000       0.9999999357         146.8248496
         9220000000       0.9999999355         146.7546178
         9240000000       0.9999999353         146.6843861
         9260000000       0.9999999351         146.6141544
         9280000000       0.9999999349         146.5439226
         9300000000       0.9999999347         146.4736908
         9320000000       0.9999999345         146.4034591
         9340000000       0.9999999343         146.3332273
         9360000000       0.9999999341         146.2629956
         9380000000       0.9999999339         146.1927639
         9400000000       0.9999999337         146.1225321
         9420000000       0.9999999335         146.0524166
         9440000000       0.9999999333         145.9823012
         9460000000       0.9999999331         145.9121857
         9480000000       0.9999999329         145.8420703
         9500000000       0.9999999326         145.7719548
         9520000000       0.9999999324         145.7018394
         9540000000       0.9999999322          145.631724
         9560000000        0.999999932         145.5616085
         9580000000       0.9999999318         145.4914931
         9600000000       0.9999999316         145.4213776
         9620000000       0.9999999314         145.3513803
         9640000000       0.9999999312         145.2813831
         9660000000        0.999999931         145.2113858
         9680000000       0.9999999308         145.1413886
         9700000000       0.9999999306         145.0713913
         9720000000       0.9999999303         145.0013941
         9740000000       0.9999999301         144.9313968
         9760000000       0.9999999299         144.8613996
         9780000000       0.9999999297         144.7914023
         9800000000       0.9999999295         144.7214051
         9820000000       0.9999999293          144.651528
         9840000000        0.999999929         144.5816508
         9860000000       0.9999999288         144.5117737
         9880000000       0.9999999286         144.4418965
         9900000000       0.9999999284         144.3720194
         9920000000       0.9999999281         144.3021422
         9940000000       0.9999999279          144.232265
         9960000000       0.9999999277         144.1623879
         9980000000       0.9999999274         144.0925108
              1e+10       0.9999999272         144.0226336
