! Created Mon Nov 11 19:00:54 2024
# hz S ma R 50
! 2 Port Network Data from SP1.SP block
! freq  magS11  angS11  magS21  angS21  magS12  angS12  magS22  angS22  
!     
         5000000000       0.1559446465        -118.0143357         0.980539593        -30.26732425         0.980539593        -30.26732425         0.156109063        -117.8854774
         5020000000       0.1565016335        -118.1372228         0.980429435        -30.38592444         0.980429435        -30.38592444        0.1566670368         -118.007924
         5040000000       0.1570586205        -118.2601099        0.9803192771        -30.50452463        0.9803192771        -30.50452463        0.1572250105        -118.1303706
         5060000000       0.1576156075         -118.382997        0.9802091191        -30.62312482        0.9802091191        -30.62312482        0.1577829843        -118.2528171
         5080000000       0.1581725945        -118.5058841        0.9800989612        -30.74172502        0.9800989612        -30.74172502        0.1583409581        -118.3752637
         5100000000       0.1587295814        -118.6287713        0.9799888032        -30.86032521        0.9799888032        -30.86032521        0.1588989319        -118.4977103
         5120000000       0.1592865684        -118.7516584        0.9798786453         -30.9789254        0.9798786453         -30.9789254        0.1594569057        -118.6201568
         5140000000       0.1598435554        -118.8745455        0.9797684874         -31.0975256        0.9797684874         -31.0975256        0.1600148795        -118.7426034
         5160000000       0.1604005424        -118.9974326        0.9796583294        -31.21612579        0.9796583294        -31.21612579        0.1605728533          -118.86505
         5180000000       0.1609575294        -119.1203197        0.9795481715        -31.33472598        0.9795481715        -31.33472598        0.1611308271        -118.9874965
         5200000000       0.1615145164        -119.2432069        0.9794380135        -31.45332618        0.9794380135        -31.45332618        0.1616888009        -119.1099431
         5220000000        0.162063725        -119.3655169         0.979325483        -31.57168173         0.979325483        -31.57168173        0.1622390197        -119.2318154
         5240000000       0.1626129336         -119.487827        0.9792129524        -31.69003729        0.9792129524        -31.69003729        0.1627892385        -119.3536876
         5260000000       0.1631621422         -119.610137        0.9791004218        -31.80839285        0.9791004218        -31.80839285        0.1633394573        -119.4755599
         5280000000       0.1637113508        -119.7324471        0.9789878913        -31.92674841        0.9789878913        -31.92674841        0.1638896761        -119.5974322
         5300000000       0.1642605595        -119.8547571        0.9788753607        -32.04510396        0.9788753607        -32.04510396        0.1644398949        -119.7193045
         5320000000       0.1648097681        -119.9770672        0.9787628301        -32.16345952        0.9787628301        -32.16345952        0.1649901137        -119.8411768
         5340000000       0.1653589767        -120.0993772        0.9786502996        -32.28181508        0.9786502996        -32.28181508        0.1655403325        -119.9630491
         5360000000       0.1659081853        -120.2216873         0.978537769        -32.40017064         0.978537769        -32.40017064        0.1660905513        -120.0849213
         5380000000       0.1664573939        -120.3439973        0.9784252385        -32.51852619        0.9784252385        -32.51852619        0.1666407701        -120.2067936
         5400000000       0.1670066026        -120.4663074        0.9783127079        -32.63688175        0.9783127079        -32.63688175        0.1671909889        -120.3286659
         5420000000       0.1675478095        -120.5880788        0.9781979883        -32.75498755        0.9781979883        -32.75498755        0.1677332283        -120.4500024
         5440000000       0.1680890164        -120.7098503        0.9780832688        -32.87309335        0.9780832688        -32.87309335        0.1682754678        -120.5713388
         5460000000       0.1686302233        -120.8316218        0.9779685492        -32.99119915        0.9779685492        -32.99119915        0.1688177072        -120.6926753
         5480000000       0.1691714302        -120.9533932        0.9778538296        -33.10930495        0.9778538296        -33.10930495        0.1693599466        -120.8140118
         5500000000       0.1697126371        -121.0751647          0.97773911        -33.22741075          0.97773911        -33.22741075        0.1699021861        -120.9353482
         5520000000        0.170253844        -121.1969362        0.9776243905        -33.34551655        0.9776243905        -33.34551655        0.1704444255        -121.0566847
         5540000000       0.1707950509        -121.3187076        0.9775096709        -33.46362235        0.9775096709        -33.46362235        0.1709866649        -121.1780211
         5560000000       0.1713362578        -121.4404791        0.9773949513        -33.58172815        0.9773949513        -33.58172815        0.1715289044        -121.2993576
         5580000000       0.1718774647        -121.5622506        0.9772802317        -33.69983395        0.9772802317        -33.69983395        0.1720711438        -121.4206941
         5600000000       0.1724186716        -121.6840221        0.9771655122        -33.81793975        0.9771655122        -33.81793975        0.1726133832        -121.5420305
         5620000000       0.1729516608        -121.8052877        0.9770487897        -33.93579118        0.9770487897        -33.93579118        0.1731474262        -121.6628639
         5640000000         0.17348465        -121.9265534        0.9769320673         -34.0536426        0.9769320673         -34.0536426        0.1736814691        -121.7836972
         5660000000       0.1740176392        -122.0478191        0.9768153449        -34.17149403        0.9768153449        -34.17149403        0.1742155121        -121.9045306
         5680000000       0.1745506284        -122.1690848        0.9766986225        -34.28934546        0.9766986225        -34.28934546        0.1747495551         -122.025364
         5700000000       0.1750836176        -122.2903505        0.9765819001        -34.40719689        0.9765819001        -34.40719689         0.175283598        -122.1461973
         5720000000       0.1756166068        -122.4116161        0.9764651776        -34.52504831        0.9764651776        -34.52504831         0.175817641        -122.2670307
         5740000000        0.176149596        -122.5328818        0.9763484552        -34.64289974        0.9763484552        -34.64289974        0.1763516839        -122.3878641
         5760000000       0.1766825852        -122.6541475        0.9762317328        -34.76075117        0.9762317328        -34.76075117        0.1768857269        -122.5086974
         5780000000       0.1772155744        -122.7754132        0.9761150104         -34.8786026        0.9761150104         -34.8786026        0.1774197698        -122.6295308
         5800000000       0.1777485636        -122.8966789        0.9759982879        -34.99645403        0.9759982879        -34.99645403        0.1779538128        -122.7503642
         5820000000       0.1782731266        -123.0174668        0.9758797509        -35.11404696        0.9758797509        -35.11404696        0.1784794496        -122.8707225
         5840000000       0.1787976895        -123.1382548        0.9757612138         -35.2316399        0.9757612138         -35.2316399        0.1790050863        -122.9910807
         5860000000       0.1793222525        -123.2590427        0.9756426767        -35.34923284        0.9756426767        -35.34923284        0.1795307231         -123.111439
         5880000000       0.1798468155        -123.3798307        0.9755241397        -35.46682577        0.9755241397        -35.46682577        0.1800563598        -123.2317973
         5900000000       0.1803713784        -123.5006186        0.9754056026        -35.58441871        0.9754056026        -35.58441871        0.1805819966        -123.3521555
         5920000000       0.1808959414        -123.6214066        0.9752870655        -35.70201165        0.9752870655        -35.70201165        0.1811076333        -123.4725138
         5940000000       0.1814205044        -123.7421945        0.9751685285        -35.81960458        0.9751685285        -35.81960458        0.1816332701        -123.5928721
         5960000000       0.1819450674        -123.8629825        0.9750499914        -35.93719752        0.9750499914        -35.93719752        0.1821589068        -123.7132303
         5980000000       0.1824696303        -123.9837704        0.9749314543        -36.05479046        0.9749314543        -36.05479046        0.1826845436        -123.8335886
         6000000000       0.1829941933        -124.1045584        0.9748129173        -36.17238339        0.9748129173        -36.17238339        0.1832101803        -123.9539469
         6020000000       0.1835101293        -124.2248928        0.9746927552        -36.28971422        0.9746927552        -36.28971422        0.1837272089        -124.0738541
         6040000000       0.1840260654        -124.3452272        0.9745725932        -36.40704505        0.9745725932        -36.40704505        0.1842442375        -124.1937614
         6060000000       0.1845420014        -124.4655616        0.9744524311        -36.52437588        0.9744524311        -36.52437588         0.184761266        -124.3136686
         6080000000       0.1850579374        -124.5858961        0.9743322691        -36.64170671        0.9743322691        -36.64170671        0.1852782946        -124.4335759
         6100000000       0.1855738735        -124.7062305        0.9742121071        -36.75903753        0.9742121071        -36.75903753        0.1857953232        -124.5534831
         6120000000       0.1860898095        -124.8265649         0.974091945        -36.87636836         0.974091945        -36.87636836        0.1863123518        -124.6733904
         6140000000       0.1866057455        -124.9468993         0.973971783        -36.99369919         0.973971783        -36.99369919        0.1868293803        -124.7932977
         6160000000       0.1871216816        -125.0672337         0.973851621        -37.11103002         0.973851621        -37.11103002        0.1873464089        -124.9132049
         6180000000       0.1876376176        -125.1875681        0.9737314589        -37.22836084        0.9737314589        -37.22836084        0.1878634375        -125.0331122
         6200000000       0.1881535536        -125.3079025        0.9736112969        -37.34569167        0.9736112969        -37.34569167        0.1883804661        -125.1530194
         6220000000         0.18866067        -125.4278043        0.9734897006        -37.46275727        0.9734897006        -37.46275727        0.1888886924        -125.2724965
         6240000000       0.1891677864        -125.5477062        0.9733681043        -37.57982286        0.9733681043        -37.57982286        0.1893969187        -125.3919735
         6260000000       0.1896749027         -125.667608        0.9732465081        -37.69688846        0.9732465081        -37.69688846         0.189905145        -125.5114506
         6280000000       0.1901820191        -125.7875098        0.9731249118        -37.81395405        0.9731249118        -37.81395405        0.1904133713        -125.6309276
         6300000000       0.1906891354        -125.9074116        0.9730033155        -37.93101965        0.9730033155        -37.93101965        0.1909215976        -125.7504047
         6320000000       0.1911962518        -126.0273134        0.9728817192        -38.04808524        0.9728817192        -38.04808524        0.1914298239        -125.8698817
         6340000000       0.1917033681        -126.1472152         0.972760123        -38.16515084         0.972760123        -38.16515084        0.1919380502        -125.9893588
         6360000000       0.1922104845         -126.267117        0.9726385267        -38.28221643        0.9726385267        -38.28221643        0.1924462766        -126.1088359
         6380000000       0.1927176008        -126.3870188        0.9725169304        -38.39928203        0.9725169304        -38.39928203        0.1929545029        -126.2283129
         6400000000       0.1932247172        -126.5069206        0.9723953342        -38.51634762        0.9723953342        -38.51634762        0.1934627292          -126.34779
         6420000000       0.1937228291         -126.626408         0.972272495        -38.63314535         0.972272495        -38.63314535        0.1939619671        -126.4668549
         6440000000        0.194220941        -126.7458955        0.9721496558        -38.74994307        0.9721496558        -38.74994307         0.194461205        -126.5859199
         6460000000       0.1947190529        -126.8653829        0.9720268167         -38.8667408        0.9720268167         -38.8667408        0.1949604429        -126.7049849
         6480000000       0.1952171649        -126.9848704        0.9719039775        -38.98353853        0.9719039775        -38.98353853        0.1954596808        -126.8240498
         6500000000       0.1957152768        -127.1043578        0.9717811383        -39.10033625        0.9717811383        -39.10033625        0.1959589187        -126.9431148
         6520000000       0.1962133887        -127.2238453        0.9716582991        -39.21713398        0.9716582991        -39.21713398        0.1964581566        -127.0621798
         6540000000       0.1967115006        -127.3433327          0.97153546         -39.3339317          0.97153546         -39.3339317        0.1969573945        -127.1812447
         6560000000       0.1972096125        -127.4628201        0.9714126208        -39.45072943        0.9714126208        -39.45072943        0.1974566324        -127.3003097
         6580000000       0.1977077244        -127.5823076        0.9712897816        -39.56752715        0.9712897816        -39.56752715        0.1979558703        -127.4193747
         6600000000       0.1982058364         -127.701795        0.9711669425        -39.68432488        0.9711669425        -39.68432488        0.1984551082        -127.5384396
         6620000000       0.1986947673        -127.8208841        0.9710430519        -39.80085258        0.9710430519        -39.80085258        0.1989451796        -127.6571084
         6640000000       0.1991836982        -127.9399732        0.9709191613        -39.91738029        0.9709191613        -39.91738029        0.1994352511        -127.7757771
         6660000000       0.1996726291        -128.0590623        0.9707952707          -40.033908        0.9707952707          -40.033908        0.1999253226        -127.8944459
         6680000000         0.20016156        -128.1781514        0.9706713801         -40.1504357        0.9706713801         -40.1504357        0.2004153941        -128.0131146
         6700000000       0.2006504909        -128.2972405        0.9705474895        -40.26696341        0.9705474895        -40.26696341        0.2009054656        -128.1317834
         6720000000       0.2011394218        -128.4163296        0.9704235989        -40.38349112        0.9704235989        -40.38349112        0.2013955371        -128.2504521
         6740000000       0.2016283528        -128.5354187        0.9702997083        -40.50001883        0.9702997083        -40.50001883        0.2018856085        -128.3691209
         6760000000       0.2021172837        -128.6545078        0.9701758177        -40.61654653        0.9701758177        -40.61654653          0.20237568        -128.4877896
         6780000000       0.2026062146        -128.7735969        0.9700519271        -40.73307424        0.9700519271        -40.73307424        0.2028657515        -128.6064584
         6800000000       0.2030951455         -128.892686        0.9699280365        -40.84960195        0.9699280365        -40.84960195         0.203355823        -128.7251271
         6820000000       0.2035747269        -129.0113909        0.9698032858        -40.96585796        0.9698032858        -40.96585796        0.2038365581        -128.8434136
         6840000000       0.2040543084        -129.1300958         0.969678535        -41.08211398         0.969678535        -41.08211398        0.2043172932        -128.9617001
         6860000000       0.2045338898        -129.2488007        0.9695537843        -41.19836999        0.9695537843        -41.19836999        0.2047980284        -129.0799867
         6880000000       0.2050134712        -129.3675056        0.9694290336        -41.31462601        0.9694290336        -41.31462601        0.2052787635        -129.1982732
         6900000000       0.2054930527        -129.4862105        0.9693042828        -41.43088202        0.9693042828        -41.43088202        0.2057594986        -129.3165597
         6920000000       0.2059726341        -129.6049154        0.9691795321        -41.54713804        0.9691795321        -41.54713804        0.2062402338        -129.4348462
         6940000000       0.2064522155        -129.7236203        0.9690547813        -41.66339405        0.9690547813        -41.66339405        0.2067209689        -129.5531327
         6960000000        0.206931797        -129.8423253        0.9689300306        -41.77965007        0.9689300306        -41.77965007         0.207201704        -129.6714192
         6980000000       0.2074113784        -129.9610302        0.9688052798        -41.89590608        0.9688052798        -41.89590608        0.2076824391        -129.7897058
         7000000000       0.2078909598        -130.0797351        0.9686805291         -42.0121621        0.9686805291         -42.0121621        0.2081631743        -129.9079923
         7020000000       0.2083610315        -130.1980684        0.9685551088        -42.12814523        0.9685551088        -42.12814523        0.2086344113         -130.025909
         7040000000       0.2088311033        -130.3164018        0.9684296885        -42.24412836        0.9684296885        -42.24412836        0.2091056484        -130.1438258
         7060000000        0.209301175        -130.4347351        0.9683042682        -42.36011149        0.9683042682        -42.36011149        0.2095768854        -130.2617425
         7080000000       0.2097712467        -130.5530684        0.9681788478        -42.47609462        0.9681788478        -42.47609462        0.2100481225        -130.3796593
         7100000000       0.2102413184        -130.6714018        0.9680534275        -42.59207775        0.9680534275        -42.59207775        0.2105193595         -130.497576
         7120000000       0.2107113901        -130.7897351        0.9679280072        -42.70806088        0.9679280072        -42.70806088        0.2109905965        -130.6154928
         7140000000       0.2111814619        -130.9080685        0.9678025869        -42.82404401        0.9678025869        -42.82404401        0.2114618336        -130.7334095
         7160000000       0.2116515336        -131.0264018        0.9676771666        -42.94002714        0.9676771666        -42.94002714        0.2119330706        -130.8513263
         7180000000       0.2121216053        -131.1447352        0.9675517463        -43.05601027        0.9675517463        -43.05601027        0.2124043077         -130.969243
