!Murata Part Number: GJM1555C1H5R1CB01
!These Parameters are Measured in Series Mode Connection
!       o--ll--o
!Port1            Port2
!       o------o
!Operation Temp=25[degC], DC Bias Voltage=0[V]
!Freq. Start=100[MHz] Stop=8.5[GHz], 401[Steps]
!Data Generated on Jan 10, 2017
# Hz S RI R 50
!Freq.(Hz) S11(Real) S11(Imag) S21(Real) S21(Imag) S12(Real) S12(Imag) S22(Real) S22(Imag)
1.0E8 0.9066954723066674 -0.2906983429527053 0.0933045276933327 0.2906983429527053 0.0933045276933327 0.2906983429527053 0.9066954723066674 -0.2906983429527053
1.21E8 0.8690010755824652 -0.33720503445146105 0.1309989244175348 0.33720503445146105 0.1309989244175348 0.33720503445146105 0.8690010755824652 -0.33720503445146105
1.42E8 0.8279883667560414 -0.37716258139202946 0.17201163324395857 0.37716258139202946 0.17201163324395857 0.37716258139202946 0.8279883667560414 -0.37716258139202946
1.63E8 0.7849656543401639 -0.4105843004214725 0.21503434565983623 0.4105843004214725 0.21503434565983623 0.4105843004214725 0.7849656543401639 -0.4105843004214725
1.84E8 0.7410857106033428 -0.43774260282349337 0.2589142893966572 0.43774260282349337 0.2589142893966572 0.43774260282349337 0.7410857106033428 -0.43774260282349337
2.05E8 0.6973088407811007 -0.45909280148581694 0.3026911592188994 0.45909280148581694 0.3026911592188994 0.45909280148581694 0.6973088407811007 -0.45909280148581694
2.26E8 0.654393134024765 -0.4752016668969665 0.345606865975235 0.4752016668969665 0.345606865975235 0.4752016668969665 0.654393134024765 -0.4752016668969665
2.47E8 0.6129043315187193 -0.48668751328284965 0.38709566848128074 0.48668751328284965 0.38709566848128074 0.48668751328284965 0.6129043315187193 -0.48668751328284965
2.68E8 0.5732376485469215 -0.4941744606221747 0.4267623514530784 0.4941744606221747 0.4267623514530784 0.4941744606221747 0.5732376485469215 -0.4941744606221747
2.89E8 0.5356451659441156 -0.4982605923134905 0.4643548340558843 0.4982605923134905 0.4643548340558843 0.4982605923134905 0.5356451659441156 -0.4982605923134905
3.1E8 0.5002641917536421 -0.4994980734081561 0.4997358082463578 0.4994980734081561 0.4997358082463578 0.4994980734081561 0.5002641917536421 -0.4994980734081561
3.31E8 0.46714371402647664 -0.498382646247373 0.5328562859735234 0.498382646247373 0.5328562859735234 0.498382646247373 0.46714371402647664 -0.498382646247373
3.52E8 0.43626744390124783 -0.49534992494834074 0.5637325560987522 0.49534992494834074 0.5637325560987522 0.49534992494834074 0.43626744390124783 -0.49534992494834074
3.73E8 0.40757291613665975 -0.4907762574260133 0.5924270838633402 0.4907762574260133 0.5924270838633402 0.4907762574260133 0.40757291613665975 -0.4907762574260133
3.94E8 0.38096671693508805 -0.4849823952131752 0.6190332830649118 0.4849823952131752 0.6190332830649118 0.4849823952131752 0.38096671693508805 -0.4849823952131752
4.15E8 0.35633623358804656 -0.4782386782775716 0.6436637664119534 0.4782386782775716 0.6436637664119534 0.4782386782775716 0.35633623358804656 -0.4782386782775716
4.36E8 0.3335584564681303 -0.4707708423299429 0.6664415435318696 0.4707708423299429 0.6664415435318696 0.4707708423299429 0.3335584564681303 -0.4707708423299429
4.57E8 0.3125063844143024 -0.46276587012798526 0.6874936155856975 0.46276587012798526 0.6874936155856975 0.46276587012798526 0.3125063844143024 -0.46276587012798526
4.78E8 0.29305354245456094 -0.4543775392331605 0.706946457545439 0.4543775392331605 0.706946457545439 0.4543775392331605 0.29305354245456094 -0.4543775392331605
4.99E8 0.2750770507218902 -0.4457314797478788 0.7249229492781099 0.4457314797478788 0.7249229492781099 0.4457314797478788 0.2750770507218902 -0.4457314797478788
5.2E8 0.25845960611440977 -0.4369296624419487 0.7415403938855901 0.4369296624419487 0.7415403938855901 0.4369296624419487 0.25845960611440977 -0.4369296624419487
5.41E8 0.2430906649532657 -0.42805430489539514 0.7569093350467343 0.42805430489539514 0.7569093350467343 0.42805430489539514 0.2430906649532657 -0.42805430489539514
5.62E8 0.22886705076780683 -0.419171222777003 0.7711329492321933 0.419171222777003 0.7711329492321933 0.419171222777003 0.22886705076780683 -0.419171222777003
5.83E8 0.2156931579919078 -0.41033267426773545 0.7843068420080924 0.41033267426773545 0.7843068420080924 0.41033267426773545 0.2156931579919078 -0.41033267426773545
6.04E8 0.20348087948216598 -0.40157975455202666 0.7965191205178338 0.40157975455202666 0.7965191205178338 0.40157975455202666 0.20348087948216598 -0.40157975455202666
6.25E8 0.19214935217073784 -0.39294439886280225 0.807850647829262 0.39294439886280225 0.807850647829262 0.39294439886280225 0.19214935217073784 -0.39294439886280225
6.46E8 0.1816245893419735 -0.38445104989636075 0.8183754106580265 0.38445104989636075 0.8183754106580265 0.38445104989636075 0.1816245893419735 -0.38445104989636075
6.67E8 0.1718390484816628 -0.37611804054487225 0.8281609515183375 0.37611804054487225 0.8281609515183375 0.37611804054487225 0.1718390484816628 -0.37611804054487225
6.88E8 0.16273116905618634 -0.3679587371067599 0.8372688309438137 0.3679587371067599 0.8372688309438137 0.3679587371067599 0.16273116905618634 -0.3679587371067599
7.09E8 0.15424490381109066 -0.3599824821986671 0.8457550961889093 0.3599824821986671 0.8457550961889093 0.3599824821986671 0.15424490381109066 -0.3599824821986671
7.3E8 0.14632925932161336 -0.3521953709422929 0.8536707406783868 0.3521953709422929 0.8536707406783868 0.3521953709422929 0.14632925932161336 -0.3521953709422929
7.51E8 0.1389378558600143 -0.34460088885645995 0.8610621441399857 0.34460088885645995 0.8610621441399857 0.34460088885645995 0.1389378558600143 -0.34460088885645995
7.72E8 0.13202851260691778 -0.3372004353385662 0.8679714873930822 0.3372004353385662 0.8679714873930822 0.3372004353385662 0.13202851260691778 -0.3372004353385662
7.93E8 0.12556286139895623 -0.32999375268110087 0.874437138601044 0.32999375268110087 0.874437138601044 0.32999375268110087 0.12556286139895623 -0.32999375268110087
8.14E8 0.11950599025004666 -0.3229792772057649 0.8804940097499536 0.3229792772057649 0.8804940097499536 0.3229792772057649 0.11950599025004666 -0.3229792772057649
8.35E8 0.11382611656705607 -0.3161544262559997 0.8861738834329439 0.3161544262559997 0.8861738834329439 0.3161544262559997 0.11382611656705607 -0.3161544262559997
8.56E8 0.10849428912303215 -0.30951583240622 0.891505710876968 0.30951583240622 0.891505710876968 0.30951583240622 0.10849428912303215 -0.30951583240622
8.77E8 0.10348411732026498 -0.30305953426012944 0.896515882679735 0.30305953426012944 0.896515882679735 0.30305953426012944 0.10348411732026498 -0.30305953426012944
8.98E8 0.09877152597426342 -0.29678113156231173 0.9012284740257367 0.29678113156231173 0.9012284740257367 0.29678113156231173 0.09877152597426342 -0.29678113156231173
9.19E8 0.09433453370764693 -0.2906759109837466 0.9056654662923531 0.2906759109837466 0.9056654662923531 0.2906759109837466 0.09433453370764693 -0.2906759109837466
9.4E8 0.09015305300890544 -0.2847389478164658 0.9098469469910945 0.2847389478164658 0.9098469469910945 0.2847389478164658 0.09015305300890544 -0.2847389478164658
9.61E8 0.08620871004827822 -0.27896518788518226 0.9137912899517218 0.27896518788518226 0.9137912899517218 0.27896518788518226 0.08620871004827822 -0.27896518788518226
9.82E8 0.08248468242552387 -0.27334951322037904 0.9175153175744761 0.27334951322037904 0.9175153175744761 0.27334951322037904 0.08248468242552387 -0.27334951322037904
1.003E9 0.07896555313369343 -0.26788679440945695 0.9210344468663069 0.26788679440945695 0.9210344468663069 0.26788679440945695 0.07896555313369343 -0.26788679440945695
1.024E9 0.0756371791463626 -0.2625719320262456 0.9243628208536373 0.2625719320262456 0.9243628208536373 0.2625719320262456 0.0756371791463626 -0.2625719320262456
1.045E9 0.0724865731643764 -0.25739988911469464 0.9275134268356235 0.25739988911469464 0.9275134268356235 0.25739988911469464 0.0724865731643764 -0.25739988911469464
1.066E9 0.06950179718615442 -0.25236571635350735 0.9304982028138457 0.25236571635350735 0.9304982028138457 0.25236571635350735 0.06950179718615442 -0.25236571635350735
1.087E9 0.06667186668922608 -0.2474645712413813 0.9333281333107739 0.2474645712413813 0.9333281333107739 0.2474645712413813 0.06667186668922608 -0.2474645712413813
1.108E9 0.06398666432760018 -0.2426917324062871 0.9360133356723999 0.2426917324062871 0.9360133356723999 0.2426917324062871 0.06398666432760018 -0.2426917324062871
1.129E9 0.06143686215853596 -0.23804260994774257 0.9385631378414642 0.23804260994774257 0.9385631378414642 0.23804260994774257 0.06143686215853596 -0.23804260994774257
1.15E9 0.05901385151269457 -0.2335127525608653 0.9409861484873054 0.2335127525608653 0.9409861484873054 0.2335127525608653 0.05901385151269457 -0.2335127525608653
1.171E9 0.05670967971340005 -0.2290978520589784 0.9432903202866001 0.2290978520589784 0.9432903202866001 0.2290978520589784 0.05670967971340005 -0.2290978520589784
1.192E9 0.05451699293403714 -0.22479374580269504 0.9454830070659627 0.22479374580269504 0.9454830070659627 0.22479374580269504 0.05451699293403714 -0.22479374580269504
1.213E9 0.05242898455785732 -0.22059641745360226 0.9475710154421426 0.22059641745360226 0.9475710154421426 0.22059641745360226 0.05242898455785732 -0.22059641745360226
1.234E9 0.050439348472166544 -0.21650199639652545 0.9495606515278335 0.21650199639652545 0.9495606515278335 0.21650199639652545 0.050439348472166544 -0.21650199639652545
1.255E9 0.048542236789603135 -0.21250675611313058 0.9514577632103969 0.21250675611313058 0.9514577632103969 0.21250675611313058 0.048542236789603135 -0.21250675611313058
1.276E9 0.046732221543566654 -0.20860711173902893 0.9532677784564335 0.20860711173902893 0.9532677784564335 0.20860711173902893 0.046732221543566654 -0.20860711173902893
1.297E9 0.045004259953413214 -0.20479961699473012 0.9549957400465868 0.20479961699473012 0.9549957400465868 0.20479961699473012 0.045004259953413214 -0.20479961699473012
1.318E9 0.04335366289835022 -0.20108096064622236 0.9566463371016496 0.20108096064622236 0.9566463371016496 0.20108096064622236 0.04335366289835022 -0.20108096064622236
1.339E9 0.04177606627756642 -0.19744796262236433 0.9582239337224334 0.19744796262236433 0.9582239337224334 0.19744796262236433 0.04177606627756642 -0.19744796262236433
1.36E9 0.04026740496851378 -0.1938975698926333 0.9597325950314863 0.1938975698926333 0.9597325950314863 0.1938975698926333 0.04026740496851378 -0.1938975698926333
1.381E9 0.03882388912586388 -0.19042685218922792 0.9611761108741361 0.19042685218922792 0.9611761108741361 0.19042685218922792 0.03882388912586388 -0.19042685218922792
1.402E9 0.037441982590897135 -0.18703299764136008 0.9625580174091026 0.18703299764136008 0.9625580174091026 0.18703299764136008 0.037441982590897135 -0.18703299764136008
1.423E9 0.0361183832053235 -0.18371330837622146 0.9638816167946764 0.18371330837622146 0.9638816167946764 0.18371330837622146 0.0361183832053235 -0.18371330837622146
1.444E9 0.03485000484510435 -0.18046519613008327 0.9651499951548956 0.18046519613008327 0.9651499951548956 0.18046519613008327 0.03485000484510435 -0.18046519613008327
1.465E9 0.03363396100904732 -0.17728617790389287 0.9663660389909525 0.17728617790389287 0.9663660389909525 0.17728617790389287 0.03363396100904732 -0.17728617790389287
1.486E9 0.032467549814043824 -0.17417387169023604 0.9675324501859561 0.17417387169023604 0.9675324501859561 0.17417387169023604 0.032467549814043824 -0.17417387169023604
1.507E9 0.03134824026404908 -0.17112599229236897 0.9686517597359511 0.17112599229236897 0.9686517597359511 0.17112599229236897 0.03134824026404908 -0.17112599229236897
1.528E9 0.03027365967347663 -0.1681403472509589 0.9697263403265235 0.1681403472509589 0.9697263403265235 0.1681403472509589 0.03027365967347663 -0.1681403472509589
1.549E9 0.029241582137782354 -0.165214832890029 0.9707584178622176 0.165214832890029 0.9707584178622176 0.165214832890029 0.029241582137782354 -0.165214832890029
1.57E9 0.028249917954808804 -0.16234743049021133 0.9717500820451913 0.16234743049021133 0.9717500820451913 0.16234743049021133 0.028249917954808804 -0.16234743049021133
1.591E9 0.027296703910100334 -0.15953620259465812 0.9727032960898996 0.15953620259465812 0.9727032960898996 0.15953620259465812 0.027296703910100334 -0.15953620259465812
1.612E9 0.02638009434800995 -0.15677928945072903 0.9736199056519899 0.15677928945072903 0.9736199056519899 0.15677928945072903 0.02638009434800995 -0.15677928945072903
1.633E9 0.025498352958115474 -0.1540749055887691 0.9745016470418846 0.1540749055887691 0.9745016470418846 0.1540749055887691 0.025498352958115474 -0.1540749055887691
1.654E9 0.024649845213349147 -0.15142133653785658 0.9753501547866508 0.15142133653785658 0.9753501547866508 0.15142133653785658 0.024649845213349147 -0.15142133653785658
1.675E9 0.023833031402409402 -0.14881693567725468 0.9761669685975906 0.14881693567725468 0.9761669685975906 0.14881693567725468 0.023833031402409402 -0.14881693567725468
1.696E9 0.02304646020454647 -0.1462601212214066 0.9769535397954537 0.1462601212214066 0.9769535397954537 0.1462601212214066 0.02304646020454647 -0.1462601212214066
1.717E9 0.022288762759765757 -0.14374937333561796 0.9777112372402341 0.14374937333561796 0.9777112372402341 0.14374937333561796 0.022288762759765757 -0.14374937333561796
1.738E9 0.021558647191937414 -0.14128323137904766 0.9784413528080624 0.14128323137904766 0.9784413528080624 0.14128323137904766 0.021558647191937414 -0.14128323137904766
1.759E9 0.020854893546290575 -0.1388602912712355 0.9791451064537093 0.1388602912712355 0.9791451064537093 0.1388602912712355 0.020854893546290575 -0.1388602912712355
1.78E9 0.020176349106358505 -0.13647920297812194 0.9798236508936414 0.13647920297812194 0.9798236508936414 0.13647920297812194 0.020176349106358505 -0.13647920297812194
1.801E9 0.019521924058667088 -0.13413866811332834 0.9804780759413331 0.13413866811332834 0.9804780759413331 0.13413866811332834 0.019521924058667088 -0.13413866811332834
1.822E9 0.01889058747636376 -0.13183743765035766 0.9811094125236363 0.13183743765035766 0.9811094125236363 0.13183743765035766 0.01889058747636376 -0.13183743765035766
1.843E9 0.01828136359560131 -0.12957430974132475 0.9817186364043986 0.12957430974132475 0.9817186364043986 0.12957430974132475 0.01828136359560131 -0.12957430974132475
1.864E9 0.01769332836085053 -0.12734812763782413 0.9823066716391493 0.12734812763782413 0.9823066716391493 0.12734812763782413 0.01769332836085053 -0.12734812763782413
1.885E9 0.017125606217445587 -0.12515777770958056 0.9828743937825543 0.12515777770958056 0.9828743937825543 0.12515777770958056 0.017125606217445587 -0.12515777770958056
1.906E9 0.016577367131589263 -0.12300218755659452 0.9834226328684109 0.12300218755659452 0.9834226328684109 0.12300218755659452 0.016577367131589263 -0.12300218755659452
1.927E9 0.01604782381978401 -0.12088032421058602 0.9839521761802159 0.12088032421058602 0.9839521761802159 0.12088032421058602 0.01604782381978401 -0.12088032421058602
1.948E9 0.01553622917122731 -0.11879119242164782 0.9844637708287726 0.11879119242164782 0.9844637708287726 0.11879119242164782 0.01553622917122731 -0.11879119242164782
1.969E9 0.01504187384813414 -0.1167338330261423 0.984958126151866 0.1167338330261423 0.984958126151866 0.1167338330261423 0.01504187384813414 -0.1167338330261423
1.99E9 0.014564084050239236 -0.11470732139200693 0.985435915949761 0.11470732139200693 0.985435915949761 0.11470732139200693 0.014564084050239236 -0.11470732139200693
2.011E9 0.014102219430902023 -0.11271076593777082 0.9858977805690977 0.11271076593777082 0.9858977805690977 0.11271076593777082 0.014102219430902023 -0.11271076593777082
2.032E9 0.013655671153298861 -0.11074330672172847 0.986344328846701 0.11074330672172847 0.986344328846701 0.11074330672172847 0.013655671153298861 -0.11074330672172847
2.053E9 0.013223860076151084 -0.10880411409785651 0.9867761399238488 0.10880411409785651 0.9867761399238488 0.10880411409785651 0.013223860076151084 -0.10880411409785651
2.074E9 0.012806235059314585 -0.10689238743520844 0.9871937649406858 0.10689238743520844 0.9871937649406858 0.10689238743520844 0.012806235059314585 -0.10689238743520844
2.095E9 0.01240227138035293 -0.10500735389765957 0.987597728619647 0.10500735389765957 0.987597728619647 0.10500735389765957 0.01240227138035293 -0.10500735389765957
2.116E9 0.012011469253942503 -0.1031482672810192 0.9879885307460573 0.1031482672810192 0.9879885307460573 0.1031482672810192 0.012011469253942503 -0.1031482672810192
2.137E9 0.01163335244661866 -0.10131440690466158 0.9883666475533813 0.10131440690466158 0.9883666475533813 0.10131440690466158 0.01163335244661866 -0.10131440690466158
2.158E9 0.011267466979974888 -0.09950507655496371 0.9887325330200254 0.09950507655496371 0.9887325330200254 0.09950507655496371 0.011267466979974888 -0.09950507655496371
2.179E9 0.010913379915976526 -0.09771960347796575 0.9890866200840236 0.09771960347796575 0.9890866200840236 0.09771960347796575 0.010913379915976526 -0.09771960347796575
2.2E9 0.010570678218552834 -0.09595733741879771 0.9894293217814472 0.09595733741879771 0.9894293217814472 0.09595733741879771 0.010570678218552834 -0.09595733741879771
2.221E9 0.01023896768608941 -0.09421764970553516 0.9897610323139104 0.09421764970553516 0.9897610323139104 0.09421764970553516 0.01023896768608941 -0.09421764970553516
2.242E9 0.009917871949862595 -0.09249993237526458 0.9900821280501373 0.09249993237526458 0.9900821280501373 0.09249993237526458 0.009917871949862595 -0.09249993237526458
2.263E9 0.00960703153384086 -0.09080359734024968 0.9903929684661592 0.09080359734024968 0.9903929684661592 0.09080359734024968 0.00960703153384086 -0.09080359734024968
2.284E9 0.009306102971629501 -0.08912807559219757 0.9906938970283705 0.08912807559219757 0.9906938970283705 0.08912807559219757 0.009306102971629501 -0.08912807559219757
2.305E9 0.009014757976656655 -0.08747281644272507 0.9909852420233433 0.08747281644272507 0.9909852420233433 0.08747281644272507 0.009014757976656655 -0.08747281644272507
2.326E9 0.008732682661993597 -0.08583728679822326 0.9912673173380065 0.08583728679822326 0.9912673173380065 0.08583728679822326 0.008732682661993597 -0.08583728679822326
2.347E9 0.00845957680647296 -0.08422097046741067 0.9915404231935272 0.08422097046741067 0.9915404231935272 0.08422097046741067 0.00845957680647296 -0.08422097046741067
2.368E9 0.008195153164016984 -0.08262336749995519 0.991804846835983 0.08262336749995519 0.991804846835983 0.08262336749995519 0.008195153164016984 -0.08262336749995519
2.389E9 0.007939136813315888 -0.0810439935546267 0.9920608631866841 0.0810439935546267 0.9920608631866841 0.0810439935546267 0.007939136813315888 -0.0810439935546267
2.41E9 0.007691264545206442 -0.07948237929552396 0.9923087354547938 0.07948237929552396 0.9923087354547938 0.07948237929552396 0.007691264545206442 -0.07948237929552396
2.431E9 0.007451284285293665 -0.07793806981499445 0.9925487157147064 0.07793806981499445 0.9925487157147064 0.07793806981499445 0.007451284285293665 -0.07793806981499445
2.452E9 0.007218954549536093 -0.07641062408193788 0.9927810454504639 0.07641062408193788 0.9927810454504639 0.07641062408193788 0.007218954549536093 -0.07641062408193788
2.473E9 0.00699404393067864 -0.07489961441425178 0.9930059560693212 0.07489961441425178 0.9930059560693212 0.07489961441425178 0.00699404393067864 -0.07489961441425178
2.494E9 0.006776330613567692 -0.07340462597424297 0.9932236693864324 0.07340462597424297 0.9932236693864324 0.07340462597424297 0.006776330613567692 -0.07340462597424297
2.515E9 0.0065656019175221614 -0.07192525628588976 0.9934343980824779 0.07192525628588976 0.9934343980824779 0.07192525628588976 0.0065656019175221614 -0.07192525628588976
2.536E9 0.0063616538640621926 -0.07046111477289724 0.9936383461359377 0.07046111477289724 0.9936383461359377 0.07046111477289724 0.0063616538640621926 -0.07046111477289724
