# Hz S MA R 50.0 
!freq magS11 angS11 magS21 angS21 magS12 angS12 magS22 angS22
100000000.0 0.0041253895376187 -93.15262708329232 0.9996666771133003 -2.322549909916342 0.9996666771133003 -2.322549909916342 0.0041253895376187 -93.15262708329232
200000000.0 0.00813476192389091 -95.95055218193279 0.999386401949317 -4.628993588166261 0.999386401949317 -4.628993588166261 0.00813476192389091 -95.95055218193279
300000000.0 0.012112469444064413 -98.49607870904335 0.9991064361754548 -6.9331573619272095 0.9991064361754548 -6.9331573619272095 0.012112469444064413 -98.49607870904335
400000000.0 0.016059513691728984 -100.94774769036822 0.9988182107622458 -9.236340429279451 0.9988182107622458 -9.236340429279451 0.016059513691728984 -100.94774769036822
500000000.0 0.01995966870552157 -103.35604151080743 0.9985197499232797 -11.538638196559871 0.9985197499232797 -11.538638196559871 0.01995966870552157 -103.35604151080743
600000000.0 0.02379746050712122 -105.74050006273956 0.9982101509271114 -13.840038609462257 0.9982101509271114 -13.840038609462257 0.02379746050712122 -105.74050006273956
700000000.0 0.027554817015029317 -108.11034242310616 0.9978893359566016 -16.140352981513903 0.9978893359566016 -16.140352981513903 0.027554817015029317 -108.11034242310616
800000000.0 0.031217891488769633 -110.471123312033 0.9975576637704185 -18.439569499322698 0.9975576637704185 -18.439569499322698 0.031217891488769633 -110.471123312033
900000000.0 0.034776570097297815 -112.82574326358994 0.9972152650452565 -20.73751470223599 0.9972152650452565 -20.73751470223599 0.034776570097297815 -112.82574326358994
1000000000.0 0.038210301328992155 -115.17775510946537 0.9968637070216049 -23.034668973585475 0.9968637070216049 -23.034668973585475 0.038210301328992155 -115.17775510946537
1100000000.0 0.04152372489699006 -117.52711583273141 0.9965027279036348 -25.330928498405118 0.9965027279036348 -25.330928498405118 0.04152372489699006 -117.52711583273141
1200000000.0 0.044713296285259774 -119.87628228997535 0.9961323120424951 -27.626723795970694 0.9961323120424951 -27.626723795970694 0.044713296285259774 -119.87628228997535
1300000000.0 0.047765715954880196 -122.22759108267925 0.995753907106271 -29.922895688842104 0.995753907106271 -29.922895688842104 0.047765715954880196 -122.22759108267925
1400000000.0 0.050719003632237594 -124.57924377705899 0.995365815931449 -32.220623313105236 0.995365815931449 -32.220623313105236 0.050719003632237594 -124.57924377705899
1500000000.0 0.053524264960601094 -126.93477961690698 0.9949698661389876 -34.518797389826915 0.9949698661389876 -34.518797389826915 0.053524264960601094 -126.93477961690698
1600000000.0 0.05617896721000278 -129.29506004149212 0.9945661700878944 -36.81747688116237 0.9945661700878944 -36.81747688116237 0.05617896721000278 -129.29506004149212
1700000000.0 0.0586725096270769 -131.66120311319034 0.9941552579088191 -39.116783572982534 0.9941552579088191 -39.116783572982534 0.0586725096270769 -131.66120311319034
1800000000.0 0.06099556284181247 -134.0342681619466 0.9937377337005598 -41.416915589452735 0.9937377337005598 -41.416915589452735 0.06099556284181247 -134.0342681619466
1900000000.0 0.06314908850650615 -136.41463354879448 0.9933134842587721 -43.71814807155156 0.9933134842587721 -43.71814807155156 0.06314908850650615 -136.41463354879448
2000000000.0 0.06513066796216252 -138.80002482768896 0.9928829509496766 -46.02119697718019 0.9928829509496766 -46.02119697718019 0.06513066796216252 -138.80002482768896
2100000000.0 0.06692436023556828 -141.1951100131166 0.9924462780233033 -48.32571834240362 0.9924462780233033 -48.32571834240362 0.06692436023556828 -141.1951100131166
2200000000.0 0.06853298952268772 -143.60042122472478 0.9920029320898772 -50.631379480506155 0.9920029320898772 -50.631379480506155 0.06853298952268772 -143.60042122472478
2300000000.0 0.06992819883065764 -146.01914952434933 0.9915552390616449 -52.93947594337268 0.9915552390616449 -52.93947594337268 0.06992819883065764 -146.01914952434933
2400000000.0 0.07112430604100549 -148.45036318063066 0.991101328323194 -55.249003178096174 0.991101328323194 -55.249003178096174 0.07112430604100549 -148.45036318063066
2500000000.0 0.07210859657491896 -150.8958873576713 0.9906419543606045 -57.56048287757984 0.9906419543606045 -57.56048287757984 0.07210859657491896 -150.8958873576713
2600000000.0 0.0729033810670442 -153.35506720610545 0.990168788902627 -59.875003660413086 0.990168788902627 -59.875003660413086 0.0729033810670442 -153.35506720610545
2700000000.0 0.07345720111002284 -155.83357570144685 0.9896873677829332 -62.19298551789942 0.9896873677829332 -62.19298551789942 0.07345720111002284 -155.83357570144685
2800000000.0 0.07380157371156239 -158.33038176339454 0.9891966067364331 -64.51325827074297 0.9891966067364331 -64.51325827074297 0.07380157371156239 -158.33038176339454
2900000000.0 0.07391647683517936 -160.8491677637861 0.9886973211801879 -66.83647594013247 0.9886973211801879 -66.83647594013247 0.07391647683517936 -160.8491677637861
3000000000.0 0.0737997113003965 -163.39157943837213 0.9881894165723376 -69.16257843561095 0.9881894165723376 -69.16257843561095 0.0737997113003965 -163.39157943837213
3100000000.0 0.07346121472863225 -165.95909491168513 0.987671167556732 -71.49135552858758 0.987671167556732 -71.49135552858758 0.07346121472863225 -165.95909491168513
3200000000.0 0.07286116345681996 -168.55604616453707 0.9871472097879627 -73.82421376344543 0.9871472097879627 -73.82421376344543 0.07286116345681996 -168.55604616453707
3300000000.0 0.07202697225023921 -171.18443859761996 0.9866125320426695 -76.16009838262357 0.9866125320426695 -76.16009838262357 0.07202697225023921 -171.18443859761996
3400000000.0 0.07095568700572204 -173.8506723549923 0.9860641122299374 -78.49964124147925 0.9860641122299374 -78.49964124147925 0.07095568700572204 -173.8506723549923
3500000000.0 0.06964226353852204 -176.5610859135457 0.9854999273646166 -80.84306986419342 0.9854999273646166 -80.84306986419342 0.06964226353852204 -176.5610859135457
3600000000.0 0.06808665179633179 -179.32222802112335 0.9849178704052604 -83.19047434496579 0.9849178704052604 -83.19047434496579 0.06808665179633179 -179.32222802112335
3700000000.0 0.066305583343686 177.86009000813203 0.9843145579272811 -85.5416788921925 0.9843145579272811 -85.5416788921925 0.066305583343686 177.86009000813203
3800000000.0 0.06426376339030156 174.96921534962416 0.9836828476600656 -87.89869143786565 0.9836828476600656 -87.89869143786565 0.06426376339030156 174.96921534962416
3900000000.0 0.062009064027171164 171.9970804563726 0.9830054514816718 -90.26132879434797 0.9830054514816718 -90.26132879434797 0.062009064027171164 171.9970804563726
4000000000.0 0.05952059839853905 168.92869500584578 0.9823013097259982 -92.62826931452064 0.9823013097259982 -92.62826931452064 0.05952059839853905 168.92869500584578
4100000000.0 0.056802262435615015 165.74281109899738 0.9815676966570522 -94.9999313001486 0.9815676966570522 -94.9999313001486 0.056802262435615015 165.74281109899738
4200000000.0 0.05386329209452523 162.41344798461972 0.9808019806851098 -97.37641155418213 0.9808019806851098 -97.37641155418213 0.05386329209452523 162.41344798461972
4300000000.0 0.050703026893640826 158.90136925768496 0.9800010565768196 -99.75789644756945 0.9800010565768196 -99.75789644756945 0.050703026893640826 158.90136925768496
4400000000.0 0.047338917355888965 155.1610570634155 0.9791628075993508 -102.1440888388701 0.9791628075993508 -102.1440888388701 0.047338917355888965 155.1610570634155
4500000000.0 0.04377413055317636 151.12624433748786 0.9782888673953963 -104.53548510826813 0.9782888673953963 -104.53548510826813 0.04377413055317636 151.12624433748786
4600000000.0 0.04003718341483303 146.69075120194856 0.9773689901482305 -106.93188429460955 0.9773689901482305 -106.93188429460955 0.04003718341483303 146.69075120194856
4700000000.0 0.036155755991521744 141.70306153077107 0.976398621887093 -109.33346930621458 0.976398621887093 -109.33346930621458 0.036155755991521744 141.70306153077107
4800000000.0 0.0321881923952789 135.9473677626378 0.9753738017619706 -111.73955022459201 0.9753738017619706 -111.73955022459201 0.0321881923952789 135.9473677626378
4900000000.0 0.028150747841821273 129.0167963307227 0.9742897292067334 -114.15303105353256 0.9742897292067334 -114.15303105353256 0.028150747841821273 129.0167963307227
5000000000.0 0.024183541694867233 120.34793991734931 0.9731445921227894 -116.56890415462614 0.9731445921227894 -116.56890415462614 0.024183541694867233 120.34793991734931
5100000000.0 0.020480057250655742 109.02266008318685 0.9719237758875056 -118.99279525418405 0.9719237758875056 -118.99279525418405 0.020480057250655742 109.02266008318685
5200000000.0 0.017378777943351374 93.74418015072176 0.9706321973214836 -121.42086022969968 0.9706321973214836 -121.42086022969968 0.017378777943351374 93.74418015072176
5300000000.0 0.015421262288297297 73.4520522341224 0.9692695963955474 -123.85617389217428 0.9692695963955474 -123.85617389217428 0.015421262288297297 73.4520522341224
5400000000.0 0.015276517175125216 50.02345285265744 0.9678349952338228 -126.29577682441519 0.9678349952338228 -126.29577682441519 0.015276517175125216 50.02345285265744
5500000000.0 0.017138782357066958 28.273913982198636 0.9663204362144433 -128.73923513554067 0.9663204362144433 -128.73923513554067 0.017138782357066958 28.273913982198636
5600000000.0 0.0205978628889505 11.206372718943795 0.9647227508254532 -131.19233303640632 0.9647227508254532 -131.19233303640632 0.0205978628889505 11.206372718943795
5700000000.0 0.025085578395657473 -1.4022809158891492 0.9630447227973014 -133.64684001148575 0.9630447227973014 -133.64684001148575 0.025085578395657473 -1.4022809158891492
5800000000.0 0.030214346061149585 -10.91004795819705 0.9612818426552051 -136.10565301112186 0.9612818426552051 -136.10565301112186 0.030214346061149585 -10.91004795819705
5900000000.0 0.03577002101534166 -18.40565521475445 0.9594283989548791 -138.56955999042856 0.9594283989548791 -138.56955999042856 0.03577002101534166 -18.40565521475445
6000000000.0 0.04159511612835692 -24.57928216513414 0.9574912426903172 -141.03615802760058 0.9574912426903172 -141.03615802760058 0.04159511612835692 -24.57928216513414
6100000000.0 0.0476681703786121 -29.891974209560697 0.9554515307914665 -143.51031697559853 0.9554515307914665 -143.51031697559853 0.0476681703786121 -29.891974209560697
6200000000.0 0.05387532074412218 -34.5813873031595 0.9533254631333105 -145.98584900529283 0.9533254631333105 -145.98584900529283 0.05387532074412218 -34.5813873031595
6300000000.0 0.060216599919007706 -38.83947309719523 0.951102951306292 -148.4658789830132 0.951102951306292 -148.4658789830132 0.060216599919007706 -38.83947309719523
6400000000.0 0.0666605354551894 -42.783116482329675 0.948786662090345 -150.94899599459708 0.948786662090345 -150.94899599459708 0.0666605354551894 -42.783116482329675
6500000000.0 0.07315492017604164 -46.480667626962095 0.9463821767540758 -153.434057046534 0.9463821767540758 -153.434057046534 0.07315492017604164 -46.480667626962095
6600000000.0 0.07970784691762824 -49.987210430047504 0.9438704694994527 -155.92371106797583 0.9438704694994527 -155.92371106797583 0.07970784691762824 -49.987210430047504
6700000000.0 0.08627016528761021 -53.347839861934794 0.9412727750021057 -158.41507009176337 0.9412727750021057 -158.41507009176337 0.08627016528761021 -53.347839861934794
6800000000.0 0.09284104681543327 -56.58900746194594 0.9385781347868635 -160.90986410715556 0.9385781347868635 -160.90986410715556 0.09284104681543327 -56.58900746194594
6900000000.0 0.09939403932440063 -59.73480125981816 0.9357930000564869 -163.40618513039414 0.9357930000564869 -163.40618513039414 0.09939403932440063 -59.73480125981816
7000000000.0 0.10591488409501489 -62.803403577076466 0.9329184768296473 -165.904363121989 0.9329184768296473 -165.904363121989 0.10591488409501489 -62.803403577076466
7100000000.0 0.1123815792884184 -65.80960191119381 0.9299653583019205 -168.40345314463957 0.9299653583019205 -168.40345314463957 0.1123815792884184 -65.80960191119381
7200000000.0 0.118801662394484 -68.7606009246368 0.9269099334966461 -170.90465914358154 0.9269099334966461 -170.90465914358154 0.118801662394484 -68.7606009246368
7300000000.0 0.1251389943821838 -71.66806869407142 0.9237804341044982 -173.40632113520007 0.9237804341044982 -173.40632113520007 0.1251389943821838 -71.66806869407142
7400000000.0 0.13138585061000552 -74.53975911825425 0.920574046252074 -175.90851910450132 0.920574046252074 -175.90851910450132 0.13138585061000552 -74.53975911825425
7500000000.0 0.1375264120878605 -77.38057117130981 0.9172953749349984 -178.41027404143918 0.9172953749349984 -178.41027404143918 0.1375264120878605 -77.38057117130981
7600000000.0 0.1435651903358118 -80.19593533239957 0.9139395535796523 179.08638601453328 0.9139395535796523 179.08638601453328 0.1435651903358118 -80.19593533239957
7700000000.0 0.1494691187083898 -82.99064348788683 0.9105221974877205 176.58416010807983 0.9105221974877205 176.58416010807983 0.1494691187083898 -82.99064348788683
7800000000.0 0.15521195728102138 -85.76710139291283 0.9070615459895713 174.08580019353013 0.9070615459895713 174.08580019353013 0.15521195728102138 -85.76710139291283
7900000000.0 0.1608164825661813 -88.53252235039109 0.9035296356950268 171.58216638200565 0.9035296356950268 171.58216638200565 0.1608164825661813 -88.53252235039109
8000000000.0 0.1662514513402874 -91.28425595437479 0.8999368174316954 169.08198356388482 0.8999368174316954 169.08198356388482 0.1662514513402874 -91.28425595437479
8100000000.0 0.17148862758764333 -94.02934564944162 0.8963310761050677 166.5839667707248 0.8963310761050677 166.5839667707248 0.17148862758764333 -94.02934564944162
8200000000.0 0.17654155984594103 -96.77026078022062 0.892668605137701 164.08733495980326 0.892668605137701 164.08733495980326 0.17654155984594103 -96.77026078022062
8300000000.0 0.18139096161006144 -99.50818924912451 0.8889805756011084 161.59103022725566 0.8889805756011084 161.59103022725566 0.18139096161006144 -99.50818924912451
8400000000.0 0.18600811833327488 -102.2476699900232 0.8852845098947653 159.09821148046143 0.8852845098947653 159.09821148046143 0.18600811833327488 -102.2476699900232
8500000000.0 0.19039101399535066 -104.98824583154124 0.8815965080773369 156.60893871627636 0.8815965080773369 156.60893871627636 0.19039101399535066 -104.98824583154124
8600000000.0 0.1945364031853756 -107.73896669825125 0.8778452043365482 154.11499510826417 0.8778452043365482 154.11499510826417 0.1945364031853756 -107.73896669825125
8700000000.0 0.19840743441516145 -110.49628257358839 0.8741333940979978 151.6276724038407 0.8741333940979978 151.6276724038407 0.19840743441516145 -110.49628257358839
8800000000.0 0.2020046783555636 -113.26434447891664 0.8704226914871632 149.14079270814278 0.8704226914871632 149.14079270814278 0.2020046783555636 -113.26434447891664
8900000000.0 0.20531018748032098 -116.04560636117147 0.8667356612765309 146.65458197856717 0.8667356612765309 146.65458197856717 0.20531018748032098 -116.04560636117147
9000000000.0 0.20830932142739803 -118.84137970160735 0.8630329937530659 144.17010338840817 0.8630329937530659 144.17010338840817 0.20830932142739803 -118.84137970160735
9100000000.0 0.21098108282383937 -121.65518247200798 0.8593706743667534 141.68716663005034 0.8593706743667534 141.68716663005034 0.21098108282383937 -121.65518247200798
9200000000.0 0.21331356847642083 -124.48835070109996 0.8557300427901005 139.20536790816155 0.8557300427901005 139.20536790816155 0.21331356847642083 -124.48835070109996
9300000000.0 0.21528069027059776 -127.34420732736402 0.8521264690223387 136.7256219461388 0.8521264690223387 136.7256219461388 0.21528069027059776 -127.34420732736402
9400000000.0 0.2168869532877325 -130.22169504629898 0.8485409903173995 134.2446021762103 0.8485409903173995 134.2446021762103 0.2168869532877325 -130.22169504629898
9500000000.0 0.21809745232906638 -133.12400295278036 0.8449464869501274 131.76604240728176 0.8449464869501274 131.76604240728176 0.21809745232906638 -133.12400295278036
9600000000.0 0.2188963472385865 -136.05505784782767 0.8414007230248132 129.2886014111917 0.8414007230248132 129.2886014111917 0.2188963472385865 -136.05505784782767
9700000000.0 0.21927853447447182 -139.01504174774342 0.8378854064090123 126.81162839330116 0.8378854064090123 126.81162839330116 0.21927853447447182 -139.01504174774342
9800000000.0 0.2192207651579596 -142.00424616822312 0.8344312139253055 124.34547320861259 0.8344312139253055 124.34547320861259 0.2192207651579596 -142.00424616822312
9900000000.0 0.21867505315809102 -145.03018399844794 0.830936859743823 121.87116014412025 0.830936859743823 121.87116014412025 0.21867505315809102 -145.03018399844794
10000000000.0 0.2176486928007061 -148.08806368978574 0.8275072238250514 119.40779289828487 0.8275072238250514 119.40779289828487 0.2176486928007061 -148.08806368978574
