! Created Wed Feb  5 17:15:03 2025
# hz S ma R 50
! 2 Port Network Data from SP1.SP block
! freq  magS11  angS11  magS21  angS21  magS12  angS12  magS22  angS22  
!     
         100000000       0.951704083        -22.8442319        0.304243568         67.1401024        0.304243568         67.1401024        0.951704079        -22.8442403
         200000000       0.842717755         -42.581053        0.534805533         47.3987713        0.534805533         47.3987713        0.842717732        -42.5811169
         300000000       0.726269651        -58.5073814        0.683689185         31.4800545        0.683689185         31.4800545        0.726269594        -58.5075924
         400000000       0.626860251        -71.3304879        0.775219587         18.6762785        0.775219587         18.6762785        0.626860149        -71.3309753
         500000000       0.548233754        -81.9604414        0.832153424         8.07644128        0.832153424         8.07644128        0.548233601        -81.9613631
         600000000       0.487296249        -91.0852328        0.868713123        -1.00888032        0.868713123        -1.00888032        0.487296044         -91.086773
         700000000       0.439760506          -99.18377        0.893242969        -9.06035598        0.893242969        -9.06035598        0.439760258         -99.186124
         800000000       0.402143851         -106.56136        0.910354332        -16.3849519        0.910354332        -16.3849519        0.402143563        -106.564732
         900000000       0.371852706        -113.417447         0.92271056        -23.1837751         0.92271056        -23.1837751        0.371852411        -113.422093
             1e+09       0.346995017        -119.886203        0.931911278         -29.592363        0.931911278         -29.592363        0.346994708        -119.892169
           1.1e+09       0.326176599        -126.062246        0.938968298        -35.7068978        0.938968298        -35.7068978        0.326176302        -126.069811
           1.2e+09       0.308361796        -132.013877        0.944534203        -41.5964895        0.944534203        -41.5964895        0.308361559        -132.023267
           1.3e+09       0.292777002        -137.790873        0.949040276        -47.3115366        0.949040276        -47.3115366        0.292776805        -137.801972
           1.4e+09       0.278927769         -143.42918         0.95275089        -52.8897336         0.95275089        -52.8897336        0.278927652        -143.442408
           1.5e+09       0.266293463        -148.954987        0.955891744        -58.3569451        0.955891744        -58.3569451        0.266293448        -148.970247
           1.6e+09       0.254522337        -154.390109        0.958608219        -63.7354287        0.958608219        -63.7354287        0.254522449        -154.407632
           1.7e+09       0.243337995        -159.751363        0.961001672        -69.0422377        0.961001672        -69.0422377        0.243338258        -159.771285
           1.8e+09       0.232526083        -165.052282        0.963142812        -74.2910753        0.963142812        -74.2910753        0.232526485        -165.074478
           1.9e+09        0.22193596        -170.303043        0.965076133        -79.4929397        0.965076133        -79.4929397        0.221936534         -170.32785
             2e+09       0.211433013        -175.512496        0.966836837        -84.6585934        0.966836837        -84.6585934        0.211433762        -175.539871
           2.1e+09       0.200902305         179.311532        0.968448274         -89.794633        0.968448274         -89.794633        0.200903234         179.281696
           2.2e+09       0.190281864         174.164902        0.969918598        -94.9061723        0.969918598        -94.9061723        0.190283019         174.131943
           2.3e+09       0.179490381         169.040232        0.971257325        -100.000683        0.971257325        -100.000683        0.179491673         169.005123
           2.4e+09        0.16851542         163.937769        0.972457643        -105.080212        0.972457643        -105.080212         0.16851688         163.899845
           2.5e+09       0.157327967         158.854799        0.973515487        -110.149091        0.973515487        -110.149091        0.157329583         158.814013
           2.6e+09       0.145951391         153.791742        0.974404431        -115.211631        0.974404431        -115.211631        0.145953269         153.747232
           2.7e+09       0.134343079         148.746468        0.975125705        -120.271108        0.975125705        -120.271108         0.13434497         148.700212
           2.8e+09       0.122563216         143.727633        0.975665466        -125.326271        0.975665466        -125.326271        0.122565233         143.678179
           2.9e+09        0.11062398         138.739444        0.976014267        -130.379647        0.976014267        -130.379647        0.110626019         138.687311
             3e+09      0.0985682588         133.794444         0.97616116         -135.43165         0.97616116         -135.43165       0.0985703204         133.739233
           3.1e+09       0.086456907         128.913329        0.976094629        -140.481876        0.976094629        -140.481876       0.0864590223         128.853731
           3.2e+09       0.074317133         124.123753        0.975814407        -145.533421        0.975814407        -145.533421       0.0743191708         124.061777
           3.3e+09      0.0622366962          119.48472        0.975310138        -150.583617        0.975310138        -150.583617        0.062238481         119.419681
           3.4e+09      0.0502826295         115.100216        0.974576494        -155.633259        0.974576494        -155.633259       0.0502841827         115.031466
           3.5e+09      0.0385310092         111.198882        0.973612897        -160.682171        0.973612897        -160.682171       0.0385322164         111.125784
           3.6e+09      0.0270750627         108.382276        0.972422668        -165.729816        0.972422668        -165.729816       0.0270757667         108.303625
           3.7e+09      0.0160644827         108.828356        0.971012642        -170.775147        0.971012642        -170.775147       0.0160643693         108.738721
           3.8e+09     0.00616325328         128.547899        0.969380088        -175.821453        0.969380088        -175.821453      0.00616088832         128.439118
           3.9e+09     0.00672923667        -130.400846        0.967522818         179.132072        0.967522818         179.132072      0.00672691612        -130.447801
             4e+09      0.0157805569        -115.046392        0.965486696         174.088754        0.965486696         174.088754        0.015780296        -115.110805
           4.1e+09      0.0247707454        -115.236567        0.963295672         169.048001        0.963295672         169.048001       0.0247716401        -115.309072
           4.2e+09      0.0331843816          -118.3495        0.960971191         164.009759        0.960971191         164.009759       0.0331864165        -118.427654
           4.3e+09       0.040897617        -122.513825        0.958534243         158.973612        0.958534243         158.973612        0.040900669        -122.595485
           4.4e+09      0.0478416022        -127.191605         0.95600962         153.939834         0.95600962         153.939834       0.0478460134        -127.277361
           4.5e+09      0.0539604175        -132.174324        0.953429078          148.90691        0.953429078          148.90691       0.0539659523        -132.262688
           4.6e+09      0.0592149802        -137.374847        0.950799401         143.874356        0.950799401         143.874356       0.0592219325        -137.465852
           4.7e+09      0.0635734106        -142.753318         0.94813666         138.840753         0.94813666         138.840753       0.0635818718        -142.847023
           4.8e+09        0.06702665        -148.289158        0.945455278         133.806054        0.945455278         133.806054       0.0670375034        -148.389358
           4.9e+09      0.0695228481        -154.001945        0.942766147         128.763405        0.942766147         128.763405        0.069534687        -154.099968
             5e+09      0.0710781384        -159.882077        0.940082387          123.72088        0.940082387          123.72088        0.071091824        -159.981794
           5.1e+09      0.0717103589        -165.961475        0.937387563          118.66536        0.937387563          118.66536       0.0717268038        -166.063128
           5.2e+09      0.0714380389        -172.267726         0.93469796         113.602655         0.93469796         113.602655       0.0714571236        -172.374764
           5.3e+09      0.0702498531        -178.872628        0.932020464         108.524978        0.932020464         108.524978       0.0702703356        -178.975396
           5.4e+09         0.0682432         174.180089        0.929348133         103.435931        0.929348133         103.435931       0.0682668319         174.077664
           5.5e+09      0.0654826804         166.793484        0.926660142         98.3345731        0.926660142         98.3345731       0.0655082683         166.685866
           5.6e+09       0.062024923         158.802379        0.923945728         93.2076422        0.923945728         93.2076422       0.0620477773          158.70727
           5.7e+09      0.0580210634         150.070226        0.921194478         88.0697022        0.921194478         88.0697022        0.058043466         149.981661
           5.8e+09      0.0536406103         140.340226        0.918382855         82.9134375        0.918382855         82.9134375       0.0536636669         140.258758
           5.9e+09      0.0491210541         129.262469        0.915483552         77.7359764        0.915483552         77.7359764       0.0491365413         129.195525
             6e+09       0.044815612         116.500323        0.912486606         72.5408167        0.912486606         72.5408167       0.0448307196         116.437376
           6.1e+09      0.0411362863         101.554414        0.909346028         67.3173569        0.909346028         67.3173569       0.0411284543         101.520482
           6.2e+09      0.0386971758         84.5063853        0.906063436         62.0771517        0.906063436         62.0771517       0.0386737213         84.4851726
           6.3e+09      0.0380388302         65.9022093        0.902608416         56.8134314        0.902608416         56.8134314       0.0379835323         65.8776403
           6.4e+09      0.0394770714         47.1493411        0.898970202          51.528572        0.898970202          51.528572        0.039393923         47.1037647
           6.5e+09       0.042920217         29.8058451        0.895142182         46.2246244        0.895142182         46.2246244       0.0428168459         29.7378719
           6.6e+09      0.0479867381         14.5973293        0.891085419         40.8962558        0.891085419         40.8962558       0.0478527997         14.4860859
           6.7e+09       0.054094704         1.58018619        0.886832563         35.5490528        0.886832563         35.5490528       0.0539442733          1.4467876
           6.8e+09      0.0608084671        -9.59849897        0.882367752         30.1793663        0.882367752         30.1793663       0.0606357933        -9.76296248
           6.9e+09      0.0677144436        -19.3373206        0.877709303         24.7904775        0.877709303         24.7904775       0.0675238333        -19.5211009
             7e+09      0.0745078655        -27.9717573         0.87287295         19.3810335         0.87287295         19.3810335        0.074297823        -28.1721327
           7.1e+09      0.0809170887        -35.7526032        0.867896369         13.9517675        0.867896369         13.9517675       0.0806907796        -35.9579317
           7.2e+09      0.0867774551        -42.8453659        0.862760736         8.49850641        0.862760736         8.49850641       0.0865276258        -43.0732308
           7.3e+09      0.0918475125        -49.3698791        0.857542079         3.02195403        0.857542079         3.02195403       0.0915758456        -49.6101649
           7.4e+09      0.0959677612        -55.3969415        0.852264155        -2.48147056        0.852264155        -2.48147056       0.0956721708        -55.6493953
           7.5e+09       0.098980633        -60.9592366        0.846964327        -8.01418875        0.846964327        -8.01418875       0.0986587939        -61.2178206
           7.6e+09       0.100777644        -66.0524938        0.841662999        -13.5860222        0.841662999        -13.5860222         0.10042753        -66.3293569
           7.7e+09        0.10119771         -70.637088        0.836410862          -19.19893        0.836410862          -19.19893        0.100813654        -70.9264926
           7.8e+09       0.100112265        -74.6177294        0.831256948        -24.8565088        0.831256948        -24.8565088       0.0997067382        -74.9090951
           7.9e+09      0.0975541196        -77.8423594        0.826161344        -30.5879159        0.826161344        -30.5879159       0.0970934455         -78.146027
             8e+09      0.0935092329        -80.0354166        0.821133493        -36.3888825        0.821133493        -36.3888825       0.0929932336        -80.3550622
           8.1e+09      0.0881227403        -80.7768579        0.816230222        -42.2783065        0.816230222        -42.2783065        0.087551502        -81.0861539
           8.2e+09      0.0819279524         -79.393769        0.811318979        -48.2775772        0.811318979        -48.2775772       0.0812848797        -79.6802367
           8.3e+09      0.0759924438        -74.9465581        0.806361181        -54.4112935        0.806361181        -54.4112935       0.0752712255        -75.1736903
           8.4e+09      0.0723515803        -66.6144253        0.801237485         -60.700639        0.801237485         -60.700639       0.0715849009        -66.6967995
           8.5e+09      0.0742135544        -54.9791913        0.795760781        -67.1777274        0.795760781        -67.1777274       0.0734697544        -54.8851553
           8.6e+09      0.0759666636        -56.7688653        0.790054279        -72.3867651        0.790054279        -72.3867651       0.0752115482        -56.6416894
           8.7e+09      0.0782663597        -57.8071041        0.784327347        -77.5970397        0.784327347        -77.5970397       0.0775403768        -57.6463192
           8.8e+09       0.081380201        -58.2883133        0.778482829        -82.8224884        0.778482829        -82.8224884       0.0806821014        -58.1003475
           8.9e+09       0.085504764        -58.4238605        0.772521304        -88.0637019        0.772521304        -88.0637019       0.0848450151        -58.2177568
             9e+09      0.0908079074        -58.4651187        0.766329149        -93.3189894        0.766329149        -93.3189894       0.0901820703        -58.2464092
           9.1e+09      0.0973704496        -58.6116056        0.759955693        -98.5887001        0.759955693        -98.5887001       0.0967931943        -58.3916707
           9.2e+09       0.105224501        -59.0493181        0.753318936        -103.872678        0.753318936        -103.872678        0.104695075        -58.8377022
           9.3e+09       0.114304948        -59.8880528        0.746390897        -109.167333        0.746390897        -109.167333         0.11383537        -59.6940107
           9.4e+09       0.124538609        -61.2048689        0.739099893        -114.476403        0.739099893        -114.476403        0.124105458        -61.0327185
           9.5e+09       0.135727763        -63.0094392        0.731349075        -119.788528        0.731349075        -119.788528        0.135327347        -62.8603399
           9.6e+09       0.147691797        -65.2687076        0.723203555        -125.101719        0.723203555        -125.101719        0.147324324        -65.1453327
           9.7e+09       0.160231444         -67.952534        0.714614159        -130.411378        0.714614159        -130.411378        0.159884269        -67.8538791
           9.8e+09       0.173053454        -70.9932246           0.705623        -135.689717           0.705623        -135.689717        0.172733114        -70.9198648
           9.9e+09        0.18604813        -74.3776465        0.696048867        -140.966946        0.696048867        -140.966946        0.185742819        -74.3239763
             1e+10       0.198879857        -78.0166128        0.686111514        -146.196418        0.686111514        -146.196418        0.198591932         -77.982966
