! Created Wed Feb  5 17:11:42 2025
! List of port names and net name(s): example Port n = <port_name> <net_name1> <net_name2> ...
! Port 1 = P1 P1  
! Port 2 = P2 P1  
# hz S ma R 50
! 2 Port Network Data from data block
! freq  magS11  angS11  magS21  angS21  magS12  angS12  magS22  angS22  
!     
                 0    2.38830834e-05                  0        0.999976117                  0        0.999976117                  0     2.38830834e-05                  0
          25000000     0.00106518084        -90.0523964        0.999893564       -0.585180343        0.999893564       -0.585180343      0.00106518022        -90.0530789
          50000000     0.00209221825        -91.4983787        0.999817937        -1.16593721        0.999817937        -1.16593721      0.00209221692        -91.4997395
          75000000     0.00311134763         -92.371337        0.999740866        -1.74480893        0.999740866        -1.74480893      0.00311134555        -92.3733701
         100000000     0.00412539077        -93.1512426        0.999666677        -2.32254991        0.999666677        -2.32254991      0.00412538831        -93.1540116
         125000000     0.00513241941        -93.8909534         0.99959516        -2.89961591         0.99959516        -2.89961591      0.00513241675        -93.8943514
         150000000     0.00613569575        -94.5993265        0.999525101        -3.47628412        0.999525101        -3.47628412      0.00613569348        -94.6033913
         175000000     0.00713665163        -95.2830548        0.999455678        -4.05274273        0.999455678        -4.05274273       0.0071366503        -95.2878072
         200000000      0.0081347618        -95.9478267        0.999386402        -4.62899359        0.999386402        -4.62899359      0.00813476206        -95.9532781
         225000000     0.00913190436         -96.598101        0.999316963        -5.20516902        0.999316963        -5.20516902      0.00913190684        -96.6042602
         250000000      0.0101266518        -97.2374807        0.999247237        -5.78122884        0.999247237        -5.78122884       0.0101266567        -97.2442776
         275000000      0.0111199934        -97.8681731        0.999177104        -6.35720284        0.999177104        -6.35720284       0.0111200015        -97.8756662
         300000000      0.0121124633        -98.4919897        0.999106436        -6.93315738        0.999106436        -6.93315738       0.0121124757        -98.5001673
         325000000      0.0131030831        -99.1103645        0.999035244        -7.50904848        0.999035244        -7.50904848       0.0131031004        -99.1192651
         350000000      0.0140905385        -99.7245524        0.998963531        -8.08485573        0.998963531        -8.08485573       0.0140905608        -99.7340708
         375000000      0.0150760955        -100.335023        0.998891206        -8.66061109        0.998891206        -8.66061109       0.0150761232        -100.345247
         400000000      0.0160594963        -100.942293        0.998818211        -9.23634043        0.998818211        -9.23634043       0.0160595312        -100.953203
         425000000       0.017039639        -101.547026        0.998744588        -9.81200223        0.998744588        -9.81200223       0.0170396815        -101.558635
         450000000      0.0180164186        -102.149586        0.998670323        -10.3875928        0.998670323        -10.3875928       0.0180164691        -102.161886
         475000000      0.0189901587        -102.750131        0.998595355        -10.9631385        0.998595355        -10.9631385       0.0189902185        -102.763154
         500000000      0.0199596348        -103.349231         0.99851975        -11.5386382         0.99851975        -11.5386382       0.0199597029        -103.362852
         525000000      0.0209283429        -103.946153         0.99844324        -12.1140401         0.99844324        -12.1140401       0.0209284261          -103.9607
         550000000      0.0218870352        -104.543043         0.99836636        -12.6894429         0.99836636        -12.6894429       0.0218871247        -104.558011
         575000000      0.0228453264        -105.138099        0.998288584        -13.2647951        0.998288584        -13.2647951       0.0228454281        -105.153838
         600000000      0.0237974041        -105.732301        0.998210151        -13.8400386        0.998210151        -13.8400386       0.0237975174        -105.748699
         625000000      0.0247443898        -106.325569        0.998130992        -14.4152052        0.998130992        -14.4152052        0.024744517        -106.342599
         650000000      0.0256868668        -106.918024        0.998051151        -14.9903244        0.998051151        -14.9903244       0.0256870075        -106.935805
         675000000      0.0266240731         -107.50959        0.997970556        -15.5653653        0.997970556        -15.5653653       0.0266242314        -107.528161
         700000000      0.0275547305        -108.100743        0.997889336         -16.140353        0.997889336         -16.140353       0.0275549043        -108.119941
         725000000      0.0284838099         -108.69062        0.997807177        -16.7152214        0.997807177        -16.7152214        0.028484009        -108.710837
         750000000      0.0293988208        -109.281298        0.997724826        -17.2901069        0.997724826        -17.2901069       0.0293990289        -109.301892
         775000000      0.0303111881        -109.870979        0.997641589        -17.8648836        0.997641589        -17.8648836       0.0303114128        -109.892199
         800000000      0.0312177698          -110.4601        0.997557664        -18.4395695        0.997557664        -18.4395695       0.0312180143        -110.482147
         825000000      0.0321161757        -111.049071        0.997473135        -19.0141694        0.997473135        -19.0141694       0.0321164385        -111.071698
         850000000       0.033009204        -111.637506        0.997387888        -19.5887256        0.997387888        -19.5887256       0.0330094896        -111.660963
         875000000      0.0338947981        -112.225701        0.997301999        -20.1632056        0.997301999        -20.1632056       0.0338951081        -112.249895
         900000000      0.0347763985        -112.813129        0.997215265        -20.7375147        0.997215265        -20.7375147       0.0347767434        -112.838357
         925000000      0.0356427755        -113.401658        0.997128488        -21.3119436        0.997128488        -21.3119436       0.0356431307        -113.427197
         950000000      0.0365061524        -113.989303         0.99704081        -21.8862263         0.99704081        -21.8862263       0.0365065318        -114.015594
         975000000      0.0373631118        -114.576678        0.996952476        -22.4604979        0.996952476        -22.4604979       0.0373635186        -114.603769
             1e+09      0.0382100864        -115.163913        0.996863707         -23.034669        0.996863707         -23.034669       0.0382105185        -115.191597
         1.025e+09      0.0390492297        -115.751084          0.9967744        -23.6087689          0.9967744        -23.6087689        0.039049685        -115.779385
          1.05e+09      0.0398830276        -116.337996        0.996684336        -24.1829506        0.996684336        -24.1829506       0.0398835162        -116.367086
         1.075e+09      0.0407066768        -116.925037         0.99659387        -24.7569601         0.99659387        -24.7569601       0.0407071895        -116.954775
           1.1e+09      0.0415234522        -117.511779        0.996502728        -25.3309285        0.996502728        -25.3309285       0.0415240006        -117.542452
         1.125e+09      0.0423314294        -118.098951        0.996411098        -25.9049742        0.996411098        -25.9049742       0.0423320033        -118.130133
          1.15e+09      0.0431327248        -118.685724        0.996318774        -26.4789443        0.996318774        -26.4789443       0.0431333389        -118.717845
         1.175e+09      0.0439288281        -119.272093        0.996225657        -27.0527249        0.996225657        -27.0527249       0.0439294947        -119.305381
           1.2e+09      0.0447129487        -119.859335        0.996132312        -27.6267238        0.996132312        -27.6267238       0.0447136478         -119.89323
         1.225e+09       0.045482588        -120.447349        0.996038884        -28.2007657        0.996038884        -28.2007657       0.0454832994        -120.481424
          1.25e+09       0.046255743        -121.033785        0.995944023        -28.7745303        0.995944023        -28.7745303       0.0462565182        -121.069264
         1.275e+09      0.0470083848        -121.622178        0.995849556        -29.3486296        0.995849556        -29.3486296       0.0470091686        -121.657674
           1.3e+09      0.0477653074        -122.209477        0.995753907        -29.9228957        0.995753907        -29.9228957       0.0477661293        -122.245705
         1.325e+09      0.0485166285        -122.796663        0.995657647        -30.4972775        0.995657647        -30.4972775       0.0485174934        -122.833739
          1.35e+09      0.0492588773        -123.384217        0.995560938        -31.0717175        0.995560938        -31.0717175        0.049259777        -123.421985
         1.375e+09      0.0499940661        -123.971626        0.995463532        -31.6461936        0.995463532        -31.6461936       0.0499950199         -124.01037
           1.4e+09        0.05071851        -124.559481        0.995365816        -32.2206233        0.995365816        -32.2206233       0.0507195033        -124.599006
         1.425e+09      0.0514341723        -125.147566        0.995267511         -32.795141        0.995267511         -32.795141        0.051435212        -125.187818
          1.45e+09      0.0521455339        -125.735443        0.995168326        -33.3695514        0.995168326        -33.3695514       0.0521466352        -125.776638
         1.475e+09      0.0528377797        -126.324526        0.995069513        -33.9442068        0.995069513        -33.9442068       0.0528389093        -126.366281
           1.5e+09      0.0535236853        -126.913673        0.994969866        -34.5187974        0.994969866        -34.5187974       0.0535248519        -126.955885
         1.525e+09      0.0542029581        -127.502764        0.994869582        -35.0934349        0.994869582        -35.0934349       0.0542041782        -127.545858
          1.55e+09      0.0548700665        -128.092451        0.994768982        -35.6680566        0.994768982        -35.6680566       0.0548713289        -128.136094
         1.575e+09      0.0555302557        -128.682002        0.994667761        -36.2427071        0.994667761        -36.2427071       0.0555315809        -128.726804
           1.6e+09       0.056178286        -129.272411         0.99456617        -36.8174769         0.99456617        -36.8174769       0.0561796572        -129.317709
         1.625e+09      0.0568175086        -129.862842         0.99446407        -37.3922198         0.99446407        -37.3922198       0.0568189413        -129.909083
          1.65e+09      0.0574516409        -130.453102        0.994361053        -37.9668376        0.994361053        -37.9668376       0.0574531571        -130.500608
         1.675e+09      0.0580639071        -131.045222        0.994258676        -38.5418934        0.994258676        -38.5418934       0.0580654427        -131.093022
           1.7e+09      0.0586717138        -131.636942        0.994155258        -39.1167836        0.994155258        -39.1167836        0.058673316        -131.685463
         1.725e+09      0.0592678787        -132.229205        0.994051574        -39.6916859        0.994051574        -39.6916859       0.0592695286         -132.27847
          1.75e+09      0.0598548688        -132.821875        0.993947308        -40.2667393        0.993947308        -40.2667393       0.0598565798        -132.871821
         1.775e+09      0.0604301974        -133.415061        0.993842758        -40.8418041        0.993842758        -40.8418041       0.0604319578         -133.46568
           1.8e+09       0.060994657        -134.008619        0.993737734        -41.4169156        0.993737734        -41.4169156       0.0609964809        -134.059916
         1.825e+09      0.0615513716        -134.602285         0.99363214        -41.9921267         0.99363214        -41.9921267        0.061553281        -134.654737
          1.85e+09       0.062092829        -135.197042        0.993526411        -42.5674053        0.993526411        -42.5674053       0.0620947847        -135.249964
         1.875e+09         0.0626267        -135.791687        0.993420093         -43.142695        0.993420093         -43.142695       0.0626287422        -135.845712
           1.9e+09      0.0631480465        -136.387268        0.993313484        -43.7181481        0.993313484        -43.7181481       0.0631501449        -136.441999
         1.925e+09      0.0636599145        -136.982653        0.993206469         -44.293814        0.993206469         -44.293814       0.0636620702        -137.038083
          1.95e+09      0.0641613686        -137.578269        0.993099005        -44.8695613        0.993099005        -44.8695613        0.064163596        -137.634467
         1.975e+09      0.0646508941        -138.174494        0.992991191        -45.4453628        0.992991191        -45.4453628       0.0646531904        -138.231397
             2e+09      0.0651294848        -138.771039        0.992882951         -46.021197        0.992882951         -46.021197       0.0651318678        -138.829009
         2.025e+09      0.0655934768        -139.368676        0.992774463        -46.5971516        0.992774463        -46.5971516       0.0655959217        -139.427068
          2.05e+09      0.0660484663        -139.966679        0.992665467        -47.1732283        0.992665467        -47.1732283       0.0660509845        -140.025902
         2.075e+09      0.0664918891        -140.565366        0.992556046        -47.7494428        0.992556046        -47.7494428       0.0664944875        -140.625378
           2.1e+09      0.0669230294        -141.164647        0.992446278        -48.3257184        0.992446278        -48.3257184         0.06692571        -141.225571
         2.125e+09      0.0673416637        -141.764656        0.992336172        -48.9020663        0.992336172        -48.9020663       0.0673444254        -141.826399
          2.15e+09      0.0677478111        -142.365395        0.992225734        -49.4784826        0.992225734        -49.4784826       0.0677506509        -142.427889
         2.175e+09      0.0681438814        -142.966351        0.992114782        -50.0550005        0.992114782        -50.0550005       0.0681468485        -143.030229
           2.2e+09      0.0685314612        -143.567838        0.992002932        -50.6313795        0.992002932        -50.6313795       0.0685345399        -143.633003
         2.225e+09      0.0688947342        -144.171428        0.991892036        -51.2084012        0.991892036        -51.2084012       0.0688978807        -144.236953
          2.25e+09      0.0692497326        -144.775612         0.99178023         -51.785312         0.99178023         -51.785312       0.0692529226        -144.841395
         2.275e+09      0.0695955268        -145.380142        0.991667829        -52.3624054        0.991667829        -52.3624054       0.0695988083        -145.446764
           2.3e+09      0.0699265234        -145.985414        0.991555239         -52.939476        0.991555239         -52.939476       0.0699298985        -146.052884
         2.325e+09      0.0702458184         -146.59112        0.991442291        -53.5166135        0.991442291        -53.5166135       0.0702493171        -146.659957
          2.35e+09      0.0705492754        -147.198407        0.991329073        -54.0939132        0.991329073        -54.0939132       0.0705528396        -147.267617
         2.375e+09      0.0708428268        -147.806069        0.991215381        -54.6713835        0.991215381        -54.6713835       0.0708464969        -147.876414
           2.4e+09      0.0711224341         -148.41483        0.991101328        -55.2490033        0.991101328        -55.2490033       0.0711262056        -148.485894
         2.425e+09      0.0713910656        -149.023957        0.990986854        -55.8266849        0.990986854        -55.8266849       0.0713949973        -149.096288
          2.45e+09      0.0716418921        -149.634778        0.990872306        -56.4045036        0.990872306        -56.4045036       0.0716458741        -149.707745
         2.475e+09      0.0718829307        -150.245773        0.990757156        -56.9824379        0.990757156        -56.9824379        0.071887088        -150.319955
           2.5e+09      0.0721065116        -150.858515        0.990641954         -57.560483        0.990641954         -57.560483       0.0721107124        -150.933257
         2.525e+09      0.0723196254        -151.472009        0.990526135        -58.1387835        0.990526135        -58.1387835       0.0723239331        -151.547352
          2.55e+09      0.0725248899        -152.085485        0.990407946        -58.7174481        0.990407946        -58.7174481       0.0725293891        -152.162244
         2.575e+09      0.0727124989        -152.701016        0.990289216         -59.296334        0.990289216         -59.296334       0.0727170361        -152.778152
           2.6e+09       0.072900983        -153.315086        0.990168788        -59.8750036        0.990168788        -59.8750036       0.0729058141        -153.395047
         2.625e+09       0.073063392          -153.9322        0.990048969        -60.4541263        0.990048969        -60.4541263       0.0730683468        -154.013123
          2.65e+09      0.0732111685        -154.550564        0.989928618        -61.0334371        0.989928618        -61.0334371       0.0732162495        -154.632272
         2.675e+09      0.0733336611        -155.171866        0.989808833        -61.6132582        0.989808833        -61.6132582       0.0733386936        -155.252978
           2.7e+09      0.0734546424        -155.792741        0.989687367        -62.1929857        0.989687367        -62.1929857       0.0734597977        -155.874408
         2.725e+09      0.0735622408        -156.414409        0.989565446        -62.7727927        0.989565446        -62.7727927       0.0735675328        -156.497395
          2.75e+09      0.0736551103        -157.037534        0.989443004        -63.3527886        0.989443004        -63.3527886       0.0736605366        -157.121465
         2.775e+09       0.073746314        -157.660002        0.989318916        -63.9326117        0.989318916        -63.9326117       0.0737520839        -157.746437
           2.8e+09      0.0737987175        -158.287392        0.989196606        -64.5132582        0.989196606        -64.5132582       0.0738044707        -158.373368
         2.825e+09      0.0738474135        -158.914849        0.989072598        -65.0937937        0.989072598        -65.0937937       0.0738532574        -159.001415
          2.85e+09      0.0738866975        -159.542464        0.988947974         -65.674454        0.988947974         -65.674454       0.0738928097        -159.630854
