! Created Wed Feb  5 17:18:51 2025
# hz S ma R 50
! 2 Port Network Data from SP1.SP block
! freq  magS11  angS11  magS21  angS21  magS12  angS12  magS22  angS22  
!     
         100000000     0.00824118689        -95.4729446        0.999316561        -4.64499273        0.999316561        -4.64499273      0.00824118197        -95.4757136
         200000000      0.0162059924        -100.573432        0.998708512        -9.25720533        0.998708512        -9.25720533        0.016205993        -100.578883
         300000000      0.0240246858        -105.417203        0.998073633        -13.8638585        0.998073633        -13.8638585       0.0240247104        -105.425381
         400000000      0.0316615801         -110.16375        0.997399132        -18.4671716        0.997399132        -18.4671716       0.0316616489         -110.17466
         500000000       0.039048428        -114.863341        0.996686983        -23.0670196        0.996686983        -23.0670196       0.0390485612        -114.876962
         600000000       0.046120934        -119.535194        0.995942457        -27.6631407        0.995942457        -27.6631407       0.0461211535        -119.551592
         700000000      0.0528129303        -124.188173        0.995173446         -32.255016        0.995173446         -32.255016       0.0528132635        -124.207371
         800000000      0.0590701002        -128.827699        0.994389069        -36.8425754        0.994389069        -36.8425754       0.0590705628        -128.849746
         900000000      0.0648490691        -133.456316        0.993597923         -41.425519        0.993597923         -41.425519       0.0648497123        -133.481544
             1e+09      0.0700911004        -138.078668         0.99281179        -46.0049833         0.99281179        -46.0049833        0.070091893        -138.106352
           1.1e+09      0.0747883245         -142.69404        0.992036927        -50.5809589        0.992036927        -50.5809589       0.0747893122        -142.724713
           1.2e+09      0.0789205595        -147.305585        0.991279781        -55.1545921        0.991279781        -55.1545921       0.0789217935         -147.33948
           1.3e+09      0.0824539299        -151.917261        0.990549196         -59.727962        0.990549196         -59.727962       0.0824553486        -151.953489
           1.4e+09      0.0854450928         -156.52749        0.989844319        -64.3036281        0.989844319        -64.3036281       0.0854467662        -156.567015
           1.5e+09      0.0878066961        -161.139859        0.989173982         -68.880039        0.989173982         -68.880039         0.08780861        -161.182071
           1.6e+09      0.0895357108        -165.754935        0.988539939        -73.4578088        0.988539939        -73.4578088       0.0895378962        -165.800233
           1.7e+09      0.0906201452        -170.374236        0.987943433        -78.0377457        0.987943433        -78.0377457       0.0906226199        -170.422757
           1.8e+09      0.0910549782        -174.999381        0.987384046        -82.6208134        0.987384046        -82.6208134        0.091057701        -175.050678
           1.9e+09      0.0908548242        -179.630349          0.9868581        -87.2080464          0.9868581        -87.2080464       0.0908578433         -179.68508
             2e+09      0.0900318819         175.734253        0.986361214        -91.8013463        0.986361214        -91.8013463        0.090035176         175.676283
           2.1e+09      0.0885855619         171.090457        0.985887635        -96.4005538        0.985887635        -96.4005538       0.0885891102         171.029533
           2.2e+09      0.0865460952         166.439642        0.985428585        -101.005334        0.985428585        -101.005334       0.0865499832         166.374477
           2.3e+09      0.0839060326         161.776593        0.984978933        -105.618774        0.984978933        -105.618774       0.0839100825         161.709123
           2.4e+09      0.0807208156          157.10658        0.984525157        -110.238938        0.984525157        -110.238938       0.0807250961         157.035516
           2.5e+09      0.0770139746         152.428739        0.984057524        -114.867051        0.984057524        -114.867051       0.0770184613         152.353997
           2.6e+09      0.0728489046         147.747167        0.983550085        -119.505105        0.983550085        -119.505105       0.0728537323         147.667206
           2.7e+09      0.0682192763          143.05692        0.982999332        -124.154188        0.982999332        -124.154188       0.0682240641         142.975253
           2.8e+09      0.0632109977         138.369036        0.982394675        -128.811486        0.982394675        -128.811486       0.0632159255          138.28306
           2.9e+09      0.0578595491         133.685394        0.981726029        -133.478092        0.981726029        -133.478092       0.0578644648          133.59599
             3e+09       0.052223202          129.01674        0.980983764        -138.153428        0.980983764        -138.153428       0.0522281044         128.923203
           3.1e+09      0.0463716086         124.379882        0.980157933        -142.836465        0.980157933        -142.836465       0.0463765601         124.280034
           3.2e+09      0.0403422817         119.792796        0.979246795        -147.529546        0.979246795        -147.529546       0.0403470232         119.690043
           3.3e+09      0.0342250752         115.301907        0.978239678        -152.229718        0.978239678        -152.229718        0.034229444         115.195213
           3.4e+09      0.0280870246         110.981484        0.977128526        -156.937533        0.977128526        -156.937533       0.0280910227         110.870088
           3.5e+09      0.0219989569         106.988299        0.975909083        -161.652701        0.975909083        -161.652701       0.0220024571         106.871849
           3.6e+09      0.0160389807          103.70173        0.974579891        -166.374636        0.974579891        -166.374636       0.0160418474             103.58
           3.7e+09      0.0103015316         102.297689        0.973141515        -171.102239        0.973141515        -171.102239       0.0103036805         102.167519
           3.8e+09     0.00494807917          108.75785        0.971582453        -175.838891        0.971582453        -175.838891      0.00494922966         108.623771
           3.9e+09     0.00196809299        -169.799981        0.969883922          179.41637        0.969883922          179.41637      0.00196860639        -169.939182
             4e+09     0.00576992778        -122.857732        0.968091715         174.666703        0.968091715         174.666703      0.00577165695         -123.00394
           4.1e+09      0.0100024437        -120.241102        0.966213319         169.911636        0.966213319         169.911636        0.010005916        -120.394772
           4.2e+09      0.0138012492        -122.878747        0.964257942         165.151193        0.964257942         165.151193       0.0138069475        -123.041598
           4.3e+09      0.0170477554        -127.173828        0.962233246         160.385082        0.962233246         160.385082       0.0170559336        -127.344692
           4.4e+09      0.0196790316        -132.315626        0.960150713         155.613787        0.960150713         155.613787       0.0196905418        -132.497942
           4.5e+09      0.0216445878        -138.069884        0.958027498         150.836086        0.958027498         150.836086       0.0216597124        -138.262635
           4.6e+09      0.0229134037        -144.409476         0.95585717         146.051876         0.95585717         146.051876       0.0229331902        -144.614726
           4.7e+09      0.0234678873        -151.418023        0.953642533         141.260181        0.953642533         141.260181       0.0234934991        -151.638142
           4.8e+09      0.0233228794        -159.268207        0.951386134         136.461567        0.951386134         136.461567       0.0233575314        -159.514601
           4.9e+09      0.0224869883        -168.362121        0.949084249         131.649527        0.949084249         131.649527       0.0225293479        -168.615477
             5e+09      0.0210721779        -179.230568        0.946739271         126.832979        0.946739271         126.832979       0.0211267814        -179.499155
           5.1e+09      0.0192952869         167.202548        0.944323872         121.999604        0.944323872         121.999604       0.0193666551         166.928469
           5.2e+09      0.0175675971         149.645095         0.94184483         117.156025         0.94184483         117.156025         0.01766176         149.387073
           5.3e+09      0.0166238011         127.005937        0.939296405         112.295091        0.939296405         112.295091       0.0167315758         126.850144
           5.4e+09      0.0174708391         101.190998        0.936666419         107.421612        0.936666419         107.421612       0.0175849144         101.177429
           5.5e+09      0.0207013733         77.0594901        0.933926379         102.535574        0.933926379         102.535574        0.020812845         77.1454363
           5.6e+09      0.0261721387         57.6321451        0.931055155          97.624606        0.931055155          97.624606       0.0262581634         57.7321714
           5.7e+09      0.0333741693         42.6660523         0.92803844         92.7045547         0.92803844         92.7045547        0.033443486         42.7523469
           5.8e+09      0.0419182929          30.790684        0.924846537         87.7692358        0.924846537         87.7692358       0.0419740544         30.8572247
           5.9e+09      0.0515603652         20.9188394        0.921446493         82.8169092        0.921446493         82.8169092       0.0516037492         20.9571073
             6e+09      0.0620769875         12.3518651        0.917827182         77.8526046        0.917827182         77.8526046       0.0621157117          12.378248
           6.1e+09       0.073430298          4.6410414         0.91393098         72.8667353         0.91393098         72.8667353       0.0734541759          4.6392741
           6.2e+09      0.0853987763        -2.45887767        0.909765401          67.872715        0.909765401          67.872715        0.085413266        -2.47323007
           6.3e+09      0.0979357097        -9.13129611        0.905291616         62.8651142        0.905291616         62.8651142       0.0979427463        -9.16283871
           6.4e+09       0.110932002        -15.4945215         0.90049663         57.8480833         0.90049663         57.8480833         0.11093132        -15.5379541
           6.5e+09       0.124234517        -21.6131272        0.895378889         52.8257564        0.895378889         52.8257564         0.12422325        -21.6633079
           6.6e+09       0.137780155        -27.5365682        0.889894774         47.7944591        0.889894774         47.7944591        0.137762963        -27.6007956
           6.7e+09       0.151410673        -33.3114533        0.884081717         42.7622883        0.884081717         42.7622883        0.151383912        -33.3816992
           6.8e+09       0.165041235         -38.956992        0.877923071         37.7278186        0.877923071         37.7278186         0.16500814         -39.037977
           6.9e+09        0.17854607        -44.4964267        0.871441105         32.6972256        0.871441105         32.6972256        0.178504728        -44.5847993
             7e+09       0.191820109        -49.9437342        0.864653827         27.6721094        0.864653827         27.6721094        0.191769481        -50.0393183
           7.1e+09       0.204749012        -55.3118071        0.857603823         22.6566459        0.857603823         22.6566459        0.204686035        -55.4103825
           7.2e+09        0.21726475        -60.6011112        0.850273022         17.6502195        0.850273022         17.6502195        0.217196065        -60.7094991
           7.3e+09       0.229243413        -65.8241086        0.842747712         12.6582607        0.842747712         12.6582607        0.229165546        -65.9383727
           7.4e+09       0.240607243        -70.9845089         0.83505787          7.6821678         0.83505787          7.6821678        0.240519886        -71.1043943
           7.5e+09       0.251275781        -76.0852886        0.827251739         2.72516671        0.827251739         2.72516671        0.251174414        -76.2083971
           7.6e+09       0.261201185        -81.1287575         0.81935785        -2.21597383         0.81935785        -2.21597383        0.261095354        -81.2590645
           7.7e+09       0.270295269        -86.1187226        0.811450346        -7.13517522        0.811450346        -7.13517522        0.270178861        -86.2541341
           7.8e+09       0.278479574        -91.0557488        0.803607154        -12.0268756        0.803607154        -12.0268756        0.278359398         -91.190993
           7.9e+09       0.285768147        -95.9482628        0.795810904        -16.9096274        0.795810904        -16.9096274        0.285628672        -96.0898746
             8e+09       0.292079416        -100.788071        0.788124178        -21.7669711        0.788124178        -21.7669711        0.291934877        -100.937245
           8.1e+09       0.297378171        -105.587328        0.780671407        -26.6025389        0.780671407        -26.6025389        0.297220493        -105.738039
           8.2e+09       0.301663391        -110.344022        0.773402669        -31.4195339        0.773402669        -31.4195339        0.301495095        -110.499478
           8.3e+09       0.304905567        -115.061732        0.766403219        -36.2222269        0.766403219        -36.2222269        0.304734555        -115.223635
           8.4e+09       0.307081228        -119.746376        0.759732744         -41.006785        0.759732744         -41.006785        0.306896211        -119.910057
           8.5e+09       0.308184272        -124.396336        0.753434924        -45.7761061        0.753434924        -45.7761061         0.30800731        -124.561561
           8.6e+09       0.308203827        -129.022312        0.747403699         -50.549346        0.747403699         -50.549346        0.308011685        -129.195941
           8.7e+09       0.307137424        -133.621869        0.741827222        -55.3081426        0.741827222        -55.3081426        0.306933291        -133.796918
           8.8e+09       0.304974512        -138.198555        0.736641012        -60.0684696        0.736641012        -60.0684696        0.304766669        -138.377457
           8.9e+09       0.301713703        -142.756795        0.731881549        -64.8340642        0.731881549        -64.8340642        0.301508246         -142.93889
             9e+09       0.297350725        -147.292674          0.7274721         -69.607199          0.7274721         -69.607199         0.29714564        -147.481077
           9.1e+09       0.291893589        -151.813433        0.723492187        -74.3927942        0.723492187        -74.3927942        0.291688532        -152.005402
           9.2e+09       0.285345817        -156.315318        0.719883905        -79.1961761        0.719883905        -79.1961761        0.285142256        -156.511351
           9.3e+09       0.277714835        -160.799849        0.716641961        -84.0202038        0.716641961        -84.0202038        0.277508525        -160.995476
           9.4e+09       0.269017438        -165.255054        0.713686667        -88.8754643        0.713686667        -88.8754643        0.268821351        -165.455969
           9.5e+09       0.259273851        -169.672676        0.710923826        -93.7588562        0.710923826        -93.7588562         0.25908368        -169.879283
           9.6e+09       0.248525238        -174.049415        0.708391898        -98.6765527        0.708391898        -98.6765527        0.248343945        -174.259017
           9.7e+09       0.236826127        -178.363333         0.70598885        -103.632452         0.70598885        -103.632452        0.236659492        -178.579167
           9.8e+09       0.224292051         177.407673        0.703687987        -108.607995        0.703687987        -108.607995        0.224141414         177.192098
           9.9e+09       0.210878807         173.293095        0.701239183        -113.642985        0.701239183        -113.642985        0.210726466         173.071505
             1e+10        0.19682076         169.335164        0.698724761        -118.698191        0.698724761        -118.698191        0.196676991         169.113392
