!Keysight Technologies,N5247B,MY61255062,A.15.50.07
!Date: Thursday, February 13, 2025 10:49:04
!Correction: S11(C  2-Port  ) 
!S21(C  2-Port  ) 
!S12(C  2-Port  ) 
!S22(C  2-Port  ) 
!S2P File: Measurements: S11, S21, S12, S22:
# Hz S  MA   R 50
500000000 0.0024749164 -47.711857 0.99611342 -2.435307 0.99605274 -2.4353664 0.006424454 -17.277264
600000000 0.0029805687 -52.522469 0.99595654 -2.9111924 0.99592876 -2.9105787 0.0067448844 -21.662373
700000000 0.0035589417 -56.822323 0.99584597 -3.3862119 0.99581832 -3.383276 0.0071281656 -26.014143
800000000 0.0039248513 -61.903248 0.9956516 -3.8610945 0.99562079 -3.8602455 0.0074594431 -30.33189
900000000 0.0045252233 -65.730766 0.99547154 -4.3374553 0.99543482 -4.3352008 0.0078477981 -33.8106
1000000000 0.0051313262 -67.964478 0.99528897 -4.8095469 0.99526542 -4.8107915 0.008217671 -38.035133
1100000000 0.0058498937 -70.074554 0.99513608 -5.2847733 0.99517202 -5.2839956 0.0086068334 -41.465462
1200000000 0.0064372541 -72.183517 0.99504548 -5.7584672 0.99504787 -5.7572584 0.0090863779 -44.193615
1300000000 0.0069851726 -74.371986 0.99489981 -6.2348795 0.99490601 -6.2346439 0.0095650973 -47.681515
1400000000 0.0075072548 -77.033066 0.99463725 -6.7110147 0.9946841 -6.7115793 0.0099725146 -51.438091
1500000000 0.0082008224 -79.326241 0.99450159 -7.1899796 0.9944874 -7.1897306 0.010443904 -54.339741
1600000000 0.0089308061 -82.619553 0.99411243 -7.6746902 0.99406844 -7.6746559 0.010912592 -58.507935
1700000000 0.0093879448 -85.874443 0.99352783 -8.1459198 0.99347115 -8.1443882 0.011056358 -62.089813
1800000000 0.0094919596 -89.655304 0.9929499 -8.5991373 0.99291486 -8.5987329 0.011135502 -64.915504
1900000000 0.009009771 -91.969933 0.99238116 -9.021471 0.99234533 -9.0198126 0.010506509 -66.613579
2000000000 0.0091631645 -88.492157 0.99285042 -9.4650383 0.99282992 -9.4639559 0.011077875 -63.255379
2100000000 0.009557208 -87.336159 0.99288028 -9.9258604 0.99289185 -9.922822 0.011421232 -63.904884
2200000000 0.010030961 -84.324989 0.99321884 -10.383201 0.9932397 -10.378633 0.011954755 -63.022278
2300000000 0.010840924 -82.428658 0.99358678 -10.861006 0.99362135 -10.85673 0.0129072 -62.830139
2400000000 0.011813648 -83.511955 0.99363405 -11.346888 0.99362594 -11.34193 0.013800883 -64.643204
2500000000 0.012580029 -84.602516 0.99349576 -11.829226 0.99350423 -11.826219 0.014445647 -66.591904
2600000000 0.013303469 -85.710976 0.9932512 -12.302815 0.99328351 -12.300957 0.015132219 -68.513474
2700000000 0.013871396 -86.369568 0.99302989 -12.770733 0.99308383 -12.771522 0.015626732 -69.943306
2800000000 0.014408753 -87.713547 0.99291146 -13.234686 0.9929325 -13.234623 0.016189288 -71.796753
2900000000 0.014959167 -88.58947 0.99281394 -13.701963 0.99282157 -13.702782 0.01660227 -73.144501
3000000000 0.015442343 -89.195396 0.99280363 -14.166379 0.99278945 -14.166408 0.017053898 -74.142159
3100000000 0.016113661 -89.546677 0.99274445 -14.640597 0.99272805 -14.640132 0.017689805 -74.789909
3200000000 0.016682237 -90.327301 0.99263746 -15.109221 0.99260825 -15.11029 0.018208269 -76.254654
3300000000 0.017274497 -91.093178 0.99246311 -15.579242 0.99243766 -15.582085 0.018704634 -77.281563
3400000000 0.017681247 -91.834732 0.99232858 -16.044113 0.99229175 -16.044533 0.019214284 -78.579582
3500000000 0.018183097 -92.488152 0.99220932 -16.504656 0.99213731 -16.503777 0.019591449 -79.294098
3600000000 0.018691706 -92.685097 0.99219835 -16.966049 0.99220037 -16.965761 0.020127799 -79.967033
3700000000 0.0194123 -92.89994 0.99230641 -17.436747 0.99230772 -17.436707 0.020701207 -80.562645
3800000000 0.020064222 -93.422134 0.99226892 -17.913538 0.99221826 -17.912405 0.021403406 -81.701759
3900000000 0.020657843 -94.101677 0.99211937 -18.38464 0.99209535 -18.384874 0.021956449 -82.382286
4000000000 0.021202702 -94.533623 0.99202532 -18.855808 0.99199682 -18.85597 0.022563638 -83.273529
4100000000 0.021787686 -95.229294 0.99186695 -19.325127 0.99190032 -19.325357 0.023057895 -84.083633
4200000000 0.022383578 -95.775284 0.99181634 -19.794703 0.99171436 -19.795073 0.023622127 -85.060356
4300000000 0.022917818 -96.456917 0.99171615 -20.26367 0.99161279 -20.265476 0.024182228 -85.828232
4400000000 0.023556061 -97.07869 0.99161011 -20.733459 0.99147427 -20.733654 0.024715714 -86.735168
4500000000 0.024110435 -97.595306 0.99143726 -21.200897 0.991377 -21.20071 0.025315026 -87.546867
4600000000 0.024696389 -98.2071 0.99131656 -21.669516 0.99127281 -21.669827 0.025887348 -88.291298
4700000000 0.025256947 -98.748047 0.99120212 -22.138855 0.99117309 -22.138344 0.026467819 -89.067802
4800000000 0.025870401 -99.228027 0.99110782 -22.608055 0.99104762 -22.609823 0.027004447 -89.657158
4900000000 0.026433285 -99.596733 0.99095428 -23.076918 0.99090213 -23.07859 0.027560037 -90.51767
5000000000 0.026966136 -100.23582 0.99082524 -23.546574 0.9907313 -23.547089 0.028067516 -91.078613
5100000000 0.027542029 -100.5366 0.99073976 -24.014032 0.99062079 -24.016851 0.028620109 -91.974792
5200000000 0.027979214 -101.23896 0.99060142 -24.482716 0.99046636 -24.486036 0.029095968 -92.539627
5300000000 0.028650314 -101.68756 0.99043936 -24.950439 0.99030429 -24.952934 0.029697141 -93.48423
5400000000 0.029151028 -102.35967 0.99029487 -25.419868 0.9901638 -25.420698 0.030252986 -93.886902
5500000000 0.029867632 -102.7664 0.99014533 -25.888702 0.99003363 -25.889133 0.030830627 -94.810257
5600000000 0.030265886 -103.22305 0.98996729 -26.355947 0.98984855 -26.357937 0.031356413 -95.075905
5700000000 0.030943308 -103.77267 0.9898085 -26.824345 0.98971575 -26.82399 0.031863168 -96.116516
5800000000 0.031346284 -104.02495 0.98962504 -27.294415 0.98957038 -27.292854 0.032383602 -96.328087
5900000000 0.03199207 -104.67834 0.9894073 -27.761354 0.9893769 -27.759998 0.032864634 -97.329262
6000000000 0.032428771 -104.84846 0.98926795 -28.228207 0.98919863 -28.22801 0.033449367 -97.601158
6100000000 0.032986436 -105.63942 0.98906398 -28.694574 0.98902506 -28.695511 0.033891249 -98.488121
6200000000 0.033505999 -105.86596 0.98888397 -29.161303 0.9888013 -29.161257 0.034552969 -98.723114
6300000000 0.034046795 -106.68189 0.98862416 -29.628521 0.9885726 -29.627466 0.034950953 -99.524681
6400000000 0.034629878 -106.79206 0.98844796 -30.095915 0.98839599 -30.094858 0.035656363 -99.791817
6500000000 0.035167433 -107.42249 0.98819488 -30.559978 0.98820096 -30.561008 0.036043264 -100.55422
6600000000 0.035866041 -107.62099 0.98789573 -31.026165 0.98789835 -31.027102 0.036740981 -100.91795
6700000000 0.036337651 -108.10098 0.98773396 -31.491076 0.98766369 -31.492193 0.03713122 -101.56403
6800000000 0.037076384 -108.38203 0.98745066 -31.956154 0.98738694 -31.95631 0.037836492 -102.0211
6900000000 0.037502293 -108.77683 0.98723167 -32.416424 0.98715621 -32.418652 0.038250312 -102.53651
7000000000 0.038211863 -109.17066 0.98694807 -32.876263 0.98687536 -32.880455 0.038979597 -103.04099
7100000000 0.038681697 -109.51075 0.9867118 -33.336472 0.98661852 -33.339973 0.039456867 -103.46048
7200000000 0.039445791 -110.14 0.98637891 -33.79623 0.98632491 -33.798462 0.040212087 -103.99582
7300000000 0.040020399 -110.51389 0.98613 -34.25391 0.98609388 -34.253494 0.040789872 -104.41948
7400000000 0.040748805 -111.22313 0.98582375 -34.707817 0.9857949 -34.710583 0.041546553 -105.04556
7500000000 0.041462451 -111.48821 0.98557675 -35.164051 0.98559046 -35.166138 0.042246301 -105.56781
7600000000 0.042182252 -112.1703 0.98532093 -35.61573 0.98531419 -35.618725 0.042979427 -106.25336
7700000000 0.04299612 -112.46239 0.98508114 -36.065865 0.98509806 -36.071884 0.043684769 -106.7939
7800000000 0.043589834 -112.98479 0.98489076 -36.518677 0.98482168 -36.519997 0.044299796 -107.44207
7900000000 0.044416331 -113.4958 0.98470849 -36.967518 0.98461449 -36.968487 0.045073032 -108.11147
8000000000 0.044878393 -114.09909 0.98462111 -37.415112 0.98452431 -37.415913 0.045647133 -108.86805
8100000000 0.045772955 -114.92034 0.98449451 -37.864174 0.98442489 -37.865391 0.046436109 -109.5929
8200000000 0.046253946 -115.51786 0.98444813 -38.309505 0.98438102 -38.310337 0.046934903 -110.40337
8300000000 0.047192417 -116.55959 0.9843446 -38.757378 0.98429841 -38.757923 0.04782895 -111.2113
8400000000 0.047667336 -117.07905 0.98435771 -39.208065 0.98434091 -39.206108 0.048313785 -111.98854
8500000000 0.048492178 -118.10031 0.98438251 -39.657848 0.98435175 -39.655499 0.04906461 -112.76793
8600000000 0.049027726 -118.48041 0.98442733 -40.109863 0.98436451 -40.109432 0.049436826 -113.57122
8700000000 0.049772177 -119.45081 0.98438865 -40.559902 0.98436731 -40.557888 0.050167423 -114.46941
8800000000 0.050369438 -119.87441 0.98443931 -41.006966 0.98441327 -41.007099 0.050485097 -115.24156
8900000000 0.050840087 -121.17027 0.98459893 -41.452957 0.98454285 -41.453831 0.051173203 -116.23965
9000000000 0.051131006 -121.77698 0.9849326 -41.906471 0.98482645 -41.907688 0.051403187 -117.00803
9100000000 0.051196106 -122.99257 0.98509264 -42.364975 0.98499638 -42.369083 0.051980186 -117.83978
9200000000 0.051637579 -123.41553 0.98527151 -42.831367 0.98517883 -42.831444 0.052123699 -118.41546
9300000000 0.051791761 -124.26542 0.98543644 -43.293793 0.98536462 -43.293076 0.05258894 -119.22844
9400000000 0.052404396 -124.65789 0.98549134 -43.758369 0.9854691 -43.759544 0.052740462 -119.74975
9500000000 0.052567799 -125.26557 0.98558354 -44.223961 0.98549318 -44.22414 0.053264637 -120.62782
9600000000 0.053181484 -125.69187 0.98567963 -44.68919 0.98559195 -44.689869 0.053441405 -121.05556
9700000000 0.053257413 -126.09835 0.9857223 -45.155132 0.98565954 -45.155544 0.053877514 -121.93979
9800000000 0.053821117 -126.57729 0.98574227 -45.619877 0.98567075 -45.620934 0.054153033 -122.28939
9900000000 0.05397382 -126.98477 0.98573399 -46.084438 0.98568374 -46.082329 0.054606192 -123.0328
10000000000 0.0545021 -127.64897 0.98573643 -46.54998 0.98571587 -46.548874 0.05492498 -123.2874
10100000000 0.054697413 -128.07491 0.98581403 -47.013794 0.98574734 -47.012772 0.055276543 -124.07393
10200000000 0.055196486 -128.80232 0.98581451 -47.478512 0.98574847 -47.479748 0.055589098 -124.31401
10300000000 0.05554603 -129.16789 0.98580545 -47.942928 0.98579681 -47.945557 0.055958871 -125.18111
10400000000 0.055997126 -129.80045 0.9857958 -48.407063 0.98583895 -48.40863 0.056366716 -125.54856
10500000000 0.056512401 -130.12593 0.98578048 -48.873177 0.98579431 -48.87476 0.056736995 -126.38461
10600000000 0.056833006 -130.75713 0.98581284 -49.336754 0.98579448 -49.340565 0.057257347 -126.76401
10700000000 0.057344042 -131.14575 0.9858638 -49.802132 0.98586118 -49.807575 0.057501547 -127.49902
10800000000 0.05758781 -131.71727 0.985861 -50.268906 0.98580539 -50.274303 0.057986703 -127.76546
10900000000 0.058016639 -132.11598 0.98582661 -50.737141 0.98582047 -50.741585 0.058099497 -128.39201
11000000000 0.058217827 -132.67525 0.98576075 -51.202175 0.98576742 -51.206154 0.05864197 -128.83401
11100000000 0.058750477 -133.22983 0.98575479 -51.669308 0.98576319 -51.672298 0.058758419 -129.39655
11200000000 0.058974642 -133.6936 0.98576224 -52.135956 0.98571533 -52.135204 0.059356179 -129.93102
11300000000 0.059622187 -134.34193 0.98570758 -52.602592 0.98573202 -52.604671 0.059513155 -130.41606
11400000000 0.059917647 -134.70967 0.98566949 -53.070335 0.98566246 -53.067295 0.060253058 -131.05011
11500000000 0.060453277 -135.3098 0.98559886 -53.536789 0.98553663 -53.536137 0.060445677 -131.41112
11600000000 0.060815886 -135.53255 0.98548681 -53.999496 0.98541737 -54.002193 0.061131556 -132.07973
11700000000 0.061329536 -136.30074 0.9853552 -54.465622 0.98530358 -54.466091 0.061252594 -132.29405
11800000000 0.061696909 -136.5249 0.98528475 -54.929123 0.98525155 -54.928291 0.061834853 -133.10384
11900000000 0.061990488 -137.27155 0.98520839 -55.396614 0.98518044 -55.395794 0.061955031 -133.35062
12000000000 0.062567733 -137.54565 0.98509598 -55.857105 0.98508531 -55.858219 0.062438026 -134.30777
12100000000 0.062819749 -138.3707 0.98506683 -56.321499 0.98494321 -56.321243 0.062772386 -134.51736
12200000000 0.063389465 -138.72693 0.98494005 -56.782764 0.98495221 -56.780312 0.063294195 -135.55206
12300000000 0.063544869 -139.48549 0.98486602 -57.243782 0.98485804 -57.246078 0.063659474 -135.64738
12400000000 0.064251304 -139.9693 0.98479098 -57.70768 0.98478431 -57.705074 0.064113036 -136.61623
12500000000 0.064425975 -140.62965 0.98463666 -58.172314 0.98457479 -58.170589 0.064501792 -136.64247
12600000000 0.065101177 -141.22952 0.98461246 -58.634026 0.98457527 -58.632641 0.064624995 -137.54318
12700000000 0.065190211 -141.70084 0.98439103 -59.097366 0.98442131 -59.101532 0.065048821 -137.63889
12800000000 0.065735988 -142.27895 0.98430437 -59.56089 0.98431236 -59.561962 0.064971201 -138.46587
12900000000 0.065921098 -142.67735 0.98407346 -60.021156 0.98406142 -60.021122 0.065563187 -138.67772
13000000000 0.066397712 -143.4637 0.98392761 -60.480793 0.98390645 -60.478287 0.065692134 -139.21407
13100000000 0.066673614 -143.7596 0.98366803 -60.930317 0.9835704 -60.931 0.066777863 -139.22498
13200000000 0.067117892 -144.69237 0.98344231 -61.373642 0.98343956 -61.372585 0.067608863 -139.78334
13300000000 0.067726985 -145.22862 0.98348922 -61.810459 0.98345232 -61.812618 0.068950258 -140.47736
13400000000 0.067947842 -146.25513 0.98368466 -62.257496 0.98370337 -62.260181 0.069267742 -141.54779
13500000000 0.068689942 -146.88315 0.98387295 -62.711292 0.98393053 -62.711834 0.070052899 -142.53165
13600000000 0.068580016 -147.84387 0.98409653 -63.171391 0.98414612 -63.169865 0.069895066 -143.47571
13700000000 0.069256924 -148.48763 0.98426157 -63.632885 0.98434401 -63.63102 0.070404187 -144.5529
13800000000 0.069165111 -149.14915 0.98442268 -64.096268 0.98448622 -64.093994 0.070310056 -145.49237
13900000000 0.069655634 -149.98157 0.98456514 -64.557999 0.98456532 -64.554802 0.070801698 -146.48459
14000000000 0.069372714 -150.61137 0.98468131 -65.026718 0.98468781 -65.02169 0.070659816 -147.10074
14100000000 0.069724381 -151.55101 0.98478884 -65.491798 0.98478037 -65.484917 0.071056657 -148.02638
14200000000 0.069524102 -152.13684 0.98481703 -65.95919 0.98485917 -65.953697 0.070991024 -148.47134
14300000000 0.069715738 -153.2644 0.98486239 -66.424057 0.98483086 -66.418335 0.07112436 -149.32237
14400000000 0.06983339 -153.7527 0.98476702 -66.886093 0.98479027 -66.883125 0.071298681 -149.8512
14500000000 0.070002452 -154.79565 0.98483706 -67.344521 0.98487371 -67.339409 0.071517795 -151.05977
14600000000 0.070442781 -155.25758 0.98488247 -67.805672 0.98488927 -67.802742 0.071621902 -151.85675
14700000000 0.070131093 -156.20151 0.98503017 -68.267067 0.98501694 -68.261925 0.071488485 -153.09694
14800000000 0.070519663 -156.65433 0.98497868 -68.731567 0.9850328 -68.726189 0.071605653 -153.68362
14900000000 0.069884822 -157.49118 0.98517925 -69.19516 0.98517048 -69.190353 0.071295485 -154.76201
15000000000 0.070240796 -158.25041 0.98521245 -69.656357 0.98522019 -69.651726 0.071383752 -155.30324
15100000000 0.06934429 -159.00294 0.98537499 -70.124313 0.98540789 -70.120926 0.070808589 -156.27988
15200000000 0.069765493 -160.08282 0.98539537 -70.586082 0.98543745 -70.584953 0.070926242 -156.77402
15300000000 0.069052659 -160.59154 0.98554635 -71.057129 0.98559618 -71.054039 0.070212781 -157.74753
15400000000 0.069470763 -161.7428 0.98562557 -71.515678 0.98561549 -71.514732 0.070402399 -158.30191
15500000000 0.068970524 -161.90413 0.98572046 -71.989532 0.98569131 -71.984016 0.069671817 -159.24345
15600000000 0.069043994 -163.01357 0.98587817 -72.448547 0.98581898 -72.443802 0.069881603 -159.79121
15700000000 0.068633065 -162.94357 0.98588413 -72.923607 0.98587108 -72.916405 0.068957254 -160.59015
15800000000 0.068090774 -164.07886 0.9860425 -73.390205 0.98602265 -73.384552 0.069170147 -161.28928
15900000000 0.067674428 -164.11266 0.98605013 -73.863503 0.98599797 -73.855446 0.06822715 -161.86319
16000000000 0.066889741 -165.23825 0.98617899 -74.331284 0.98613411 -74.330193 0.068456106 -162.52211
16100000000 0.06684126 -165.52585 0.98620707 -74.80146 0.98615569 -74.80088 0.067502975 -162.88216
16200000000 0.066041015 -166.49016 0.98631817 -75.270538 0.98630506 -75.269249 0.067650273 -163.52347
16300000000 0.066286542 -166.97118 0.98636419 -75.742119 0.98629886 -75.740227 0.066741325 -163.74023
16400000000 0.065422483 -167.57948 0.98648894 -76.21534 0.98647213 -76.213776 0.066632286 -164.57965
16500000000 0.065649286 -168.06396 0.98654765 -76.690399 0.98650801 -76.68679 0.065903462 -164.73735
16600000000 0.064653814 -168.06792 0.9865281 -77.169014 0.98653716 -77.165207 0.06563586 -165.68234
16700000000 0.064522006 -168.70352 0.98650122 -77.640991 0.98650753 -77.640816 0.065209463 -165.86528
16800000000 0.06364879 -168.59303 0.98647994 -78.118942 0.98651093 -78.118729 0.064949945 -166.66229
16900000000 0.063297614 -169.61964 0.98636889 -78.597076 0.98632932 -78.597702 0.064642817 -166.53445
17000000000 0.06281285 -169.60992 0.98622787 -79.072159 0.98622346 -79.070511 0.064147256 -167.25523
17100000000 0.062279951 -170.82608 0.98603547 -79.542053 0.98601508 -79.539787 0.063977353 -167.02487
17200000000 0.06224113 -170.78679 0.98586679 -80.010376 0.98589778 -80.011436 0.063205719 -167.79796
17300000000 0.061469745 -171.74057 0.98577338 -80.473213 0.98579502 -80.469643 0.063047461 -167.75136
17400000000 0.061486494 -171.63983 0.98576134 -80.933464 0.98572636 -80.930031 0.062100042 -168.38512
17500000000 0.060211651 -171.77592 0.98592854 -81.396049 0.98589331 -81.396149 0.062361948 -168.4718
17600000000 0.060360037 -171.68829 0.98609078 -81.871468 0.98608887 -81.868958 0.06173481 -168.86224
17700000000 0.059266213 -171.73526 0.98611319 -82.350052 0.98608989 -82.346649 0.062199052 -169.17638
17800000000 0.059461474 -172.14085 0.98612016 -82.833275 0.98603451 -82.830711 0.061341051 -169.34715
17900000000 0.058484487 -172.07535 0.98600209 -83.310532 0.98596597 -83.310425 0.061733902 -169.74763
18000000000 0.058705918 -172.81818 0.985834 -83.792465 0.98575872 -83.791 0.060791187 -169.52205
18100000000 0.057958972 -172.48621 0.98570848 -84.26844 0.98563355 -84.266716 0.060974535 -170.25224
18200000000 0.058068153 -173.23839 0.98548985 -84.747749 0.98544127 -84.744179 0.0602405 -169.97174
18300000000 0.057765897 -172.64001 0.98529398 -85.219353 0.98521799 -85.217499 0.060386635 -170.95261
18400000000 0.057624921 -173.36023 0.98499388 -85.695915 0.98501891 -85.693787 0.059974436 -170.54353
18500000000 0.057507772 -172.73189 0.98472208 -86.157364 0.98469383 -86.158997 0.059918951 -171.6503
18600000000 0.056967255 -173.58034 0.98452348 -86.630486 0.98445475 -86.631256 0.059598509 -171.06734
18700000000 0.057079859 -173.01433 0.98430014 -87.092049 0.98427606 -87.090477 0.059406295 -172.1322
18800000000 0.056286696 -173.78731 0.98402005 -87.560738 0.98403364 -87.562378 0.059149515 -171.56425
18900000000 0.056455329 -173.65767 0.98395264 -88.026253 0.98394287 -88.0252 0.058627773 -172.53123
19000000000 0.05539519 -174.21097 0.98376256 -88.495605 0.98370051 -88.495651 0.058759354 -171.99129
19100000000 0.055724759 -174.25722 0.98360252 -88.967499 0.98359042 -88.9655 0.058093451 -172.69212
19200000000 0.054952141 -174.36377 0.98330718 -89.435905 0.9832949 -89.43248 0.058243021 -172.38319
19300000000 0.055291649 -174.78712 0.9831323 -89.909111 0.98309004 -89.902199 0.057426441 -172.9332
19400000000 0.054519527 -174.61533 0.98290956 -90.368889 0.98282081 -90.370712 0.057591714 -172.81412
19500000000 0.054716721 -175.13191 0.98272198 -90.839684 0.98271847 -90.836723 0.05696629 -173.29439
19600000000 0.054159623 -174.6067 0.98247784 -91.300537 0.98241562 -91.295837 0.057233945 -173.13286
19700000000 0.054127026 -175.07184 0.98226291 -91.768478 0.98218292 -91.766449 0.05663019 -173.59454
19800000000 0.05356089 -174.47292 0.98207033 -92.225624 0.9820084 -92.226219 0.057092823 -173.67244
19900000000 0.053086039 -175.17435 0.98180813 -92.69339 0.98179018 -92.697693 0.056220807 -173.64549
