!Keysight Technologies,N5247B,MY61255062,A.15.50.07
!Date: Thursday, February 13, 2025 10:43:35
!Correction: S11(C  2-Port  ) 
!S21(C  2-Port  ) 
!S12(C  2-Port  ) 
!S22(C  2-Port  ) 
!S2P File: Measurements: S11, S21, S12, S22:
# Hz S  MA   R 50
500000000 0.0025459961 -177.91464 0.00017907428 89.118919 0.00018059583 88.898636 0.00024148304 -24.738827
600000000 0.0025848525 -178.09175 0.00021630769 87.963913 0.00021526498 89.005287 0.00022704266 -29.738562
700000000 0.0025725064 -177.63225 0.00024934989 89.02227 0.00024861592 88.386803 0.00024714039 -26.057341
800000000 0.0026041153 -177.59572 0.00028989962 89.371452 0.00029240394 89.558624 0.00024097187 -31.135176
900000000 0.0025863112 -177.21989 0.00032699379 88.760925 0.00032468146 88.452591 0.00025193801 -31.547104
1000000000 0.0026106061 -177.36009 0.00035917133 89.245705 0.00036432515 89.829422 0.00025775644 -37.069679
1100000000 0.0025886798 -176.97307 0.00040278473 89.414764 0.00040197308 89.64093 0.00025973958 -39.479549
1200000000 0.0026309008 -177.20641 0.00044733364 88.75499 0.00044992423 88.507973 0.00028999435 -45.369919
1300000000 0.0026115 -176.69775 0.00050243916 89.195663 0.00049910328 88.632317 0.0002854935 -45.603489
1400000000 0.002636598 -176.91467 0.00054310297 89.032921 0.00054548722 88.964478 0.00030828739 -50.213116
1500000000 0.0026229513 -176.60825 0.00061479758 87.819061 0.00061345421 87.459351 0.00030913745 -49.874599
1600000000 0.0026544083 -176.73192 0.00067000091 86.313339 0.00066981826 87.070129 0.0003354284 -53.132362
1700000000 0.0026351132 -176.31215 0.0007593332 82.747574 0.00075474521 82.655304 0.00032497622 -52.014088
1800000000 0.0026572109 -176.32031 0.00083961332 77.188553 0.00084431632 77.545151 0.00036339613 -54.980202
1900000000 0.0026428422 -176.1936 0.00088858814 66.28054 0.00088401826 66.419975 0.00033875849 -55.830776
2000000000 0.0026649544 -176.31865 0.00079376769 60.193726 0.00079632521 60.184628 0.00039137396 -60.632675
2100000000 0.002645843 -176.13336 0.00078383466 55.411438 0.00078226638 55.602119 0.0003750578 -58.238197
2200000000 0.0026815217 -176.18866 0.00056632981 43.489677 0.0005624466 43.889751 0.00041528445 -61.286011
2300000000 0.0026536121 -175.98613 0.00040986406 76.045738 0.00041221437 75.978195 0.00039814835 -58.530411
2400000000 0.0026905995 -176.00204 0.00056047714 91.314003 0.0005543732 91.928108 0.00044582595 -61.929741
2500000000 0.0026621372 -175.81976 0.00070902565 93.776878 0.0007071576 93.301537 0.00041053107 -59.324768
2600000000 0.0027222885 -175.70146 0.00080874271 90.10009 0.0008062353 89.830147 0.00047798976 -63.585674
2700000000 0.0026497957 -175.62723 0.00090158964 88.129105 0.00090924476 88.388062 0.00044209039 -60.869213
2800000000 0.0027222673 -176.3526 0.0010021946 81.856583 0.0010018251 81.442833 0.00049707101 -65.673531
2900000000 0.0026695125 -175.34244 0.00099602807 76.207161 0.00099306204 75.565468 0.00044767142 -60.760551
3000000000 0.0027069654 -176.43837 0.00094785809 70.962646 0.00095848483 70.999352 0.00052084436 -67.722092
3100000000 0.0026675332 -175.14497 0.00088168686 72.823624 0.00087630015 72.52478 0.0004814915 -61.518879
3200000000 0.0027116102 -176.7104 0.00081446709 75.741035 0.00081386947 75.714386 0.00054761762 -69.138168
3300000000 0.0027027985 -175.10553 0.0008628607 80.420509 0.00085904659 80.656471 0.00052129116 -62.658741
3400000000 0.0027142104 -176.61525 0.00090740313 81.850052 0.00090896885 81.885872 0.00056292652 -69.066795
3500000000 0.0027295002 -174.71556 0.00094727741 82.439575 0.0009445668 82.902122 0.00052677019 -63.790886
3600000000 0.002711691 -176.02283 0.00096251286 82.28022 0.00096973637 83.247482 0.00055980205 -70.880211
3700000000 0.0027524009 -174.69397 0.00099118229 82.895782 0.0009933901 82.843193 0.00056273642 -67.005997
3800000000 0.0027021586 -175.63936 0.00098930311 84.281097 0.00099260174 84.3731 0.00060497591 -72.536148
3900000000 0.0027371708 -174.95052 0.0010256066 85.606438 0.0010256412 85.724739 0.00062288565 -69.412285
4000000000 0.0026994755 -175.50218 0.0010532371 86.367516 0.0010563865 86.419128 0.00065766805 -71.599213
4100000000 0.0027447697 -175.42056 0.0011004627 87.603668 0.0010960622 87.070335 0.00064474548 -68.9785
4200000000 0.0027135552 -175.27769 0.0011229521 87.163544 0.0011235934 87.116409 0.00065190223 -71.561089
4300000000 0.0027396164 -175.70461 0.0011432759 87.743652 0.0011468115 87.903122 0.00064515602 -70.650192
4400000000 0.0027612906 -175.03259 0.0011760682 88.544495 0.0011716479 88.871979 0.00065428804 -72.518692
4500000000 0.0027615272 -175.28825 0.0012113048 89.52433 0.0012117348 89.354408 0.00069445564 -73.902824
4600000000 0.0027739932 -174.58063 0.0012495518 89.457039 0.0012486849 89.464417 0.00069733232 -73.618713
4700000000 0.0027500328 -174.42451 0.0012811337 89.592987 0.0012834874 89.592598 0.00075609161 -75.10186
4800000000 0.002774786 -174.56042 0.0013170209 89.970726 0.0013112674 90.153038 0.00075873244 -71.722374
4900000000 0.0027108844 -174.26706 0.0013415967 90.331566 0.0013409122 90.553337 0.0007866192 -74.909592
5000000000 0.0027572971 -174.8027 0.001376407 90.673637 0.0013807256 90.4972 0.00079061056 -70.6838
5100000000 0.0027191055 -174.10892 0.001404284 90.536942 0.0014028607 90.976944 0.00078431936 -75.029411
5200000000 0.002746403 -175.8801 0.0014345887 91.224922 0.0014429663 90.984901 0.00079481653 -71.752769
5300000000 0.0027490263 -173.85445 0.0014783618 91.030182 0.0014786853 91.198189 0.00078158802 -78.657173
5400000000 0.0027576105 -176.10272 0.001508675 91.241959 0.0015103428 91.342064 0.00085298828 -74.207687
5500000000 0.0027993307 -173.19405 0.0015420148 91.604706 0.0015406469 91.628372 0.0008496645 -79.400223
5600000000 0.0027463946 -175.36363 0.0015705756 91.662598 0.0015632142 91.838326 0.00093480083 -72.318512
5700000000 0.0028106081 -172.83229 0.0015990314 91.905022 0.0016020922 91.953484 0.00086938124 -77.433937
5800000000 0.0026972741 -174.61932 0.0016342363 92.177246 0.0016297766 91.913376 0.0009586378 -70.423439
5900000000 0.0027972655 -173.00478 0.0016676643 92.212952 0.0016679842 92.094055 0.00085065508 -76.483467
6000000000 0.0026552386 -174.63147 0.0016918372 92.32843 0.0016978267 92.270401 0.00097211503 -71.879616
6100000000 0.0027911295 -174.51851 0.0017276297 92.425758 0.0017276667 92.448891 0.00087478867 -77.076622
6200000000 0.0026668771 -174.9144 0.0017583717 92.533554 0.0017618201 92.574974 0.0010370394 -73.526382
6300000000 0.0028270537 -175.48911 0.0017953763 92.944618 0.0017949679 92.835594 0.00091369468 -76.329239
6400000000 0.0027228971 -174.384 0.0018203354 92.782646 0.0018227769 92.850006 0.0010693957 -73.91127
6500000000 0.0028384144 -175.40833 0.0018519288 93.19471 0.0018560727 93.138786 0.00092770421 -74.801552
6600000000 0.0027568068 -172.70709 0.0018861918 93.26313 0.0018891809 92.996994 0.001083036 -73.301048
6700000000 0.0028071345 -174.69609 0.0019268398 93.163994 0.0019168066 93.232269 0.00094988878 -73.508423
6800000000 0.0027472805 -172.17764 0.0019497625 93.24498 0.0019522215 93.209267 0.0011006302 -75.529549
6900000000 0.0027249136 -174.93417 0.0019816796 93.469582 0.001981304 93.327629 0.00097921991 -73.424927
7000000000 0.0027389692 -172.97614 0.0020214559 93.465218 0.0020115296 93.489899 0.0011188207 -76.719986
7100000000 0.0026779764 -175.53151 0.0020544862 93.762711 0.0020511174 93.807701 0.0010272848 -73.434204
7200000000 0.0027595684 -174.39514 0.0020841677 93.739174 0.0020891218 93.864685 0.0011424122 -77.698273
7300000000 0.0027401026 -175.52489 0.0021185507 93.982674 0.0021175707 93.887733 0.0010660437 -72.666229
7400000000 0.0028507719 -175.13467 0.0021510087 94.028625 0.002157436 93.992332 0.0011297074 -76.900238
7500000000 0.0027868634 -174.48186 0.0021878318 94.114792 0.0021842464 94.145576 0.0011132894 -73.675568
7600000000 0.002865985 -174.68385 0.0022277227 94.4161 0.0022177973 94.210236 0.0011474779 -77.56501
7700000000 0.0028045306 -172.5632 0.0022570374 94.311378 0.0022533664 94.312233 0.0011694254 -74.60833
7800000000 0.0027861297 -173.68335 0.0022884286 94.44899 0.0022902782 94.475647 0.0011779178 -76.131752
7900000000 0.0027656024 -172.00734 0.002330302 94.612556 0.0023238256 94.580025 0.0012301536 -74.428436
8000000000 0.0027016685 -174.70496 0.0023677533 94.591179 0.0023650781 94.699013 0.0011772431 -75.839912
8100000000 0.0027877698 -173.3745 0.0024069163 94.621162 0.0024068437 94.766594 0.0012432331 -76.228928
8200000000 0.0026901576 -175.69627 0.0024559253 94.572029 0.0024558851 94.620483 0.0011724815 -76.555145
8300000000 0.002872949 -174.54361 0.0024917729 94.533897 0.002497751 94.572594 0.0013018588 -78.220039
8400000000 0.0027589276 -174.46281 0.0025288875 94.519852 0.002536593 94.405006 0.0012538451 -76.289131
8500000000 0.0029325169 -173.93942 0.0025642726 94.362 0.0025655017 94.168365 0.0013607274 -77.423973
8600000000 0.0028008528 -172.32739 0.002602438 94.284592 0.0026097498 94.124168 0.0012589796 -73.534019
8700000000 0.0029077081 -172.95541 0.0026413563 94.029564 0.0026419205 93.939857 0.0013636663 -78.085579
8800000000 0.0027679319 -170.82866 0.0026721172 93.630806 0.0026778996 93.576714 0.0012921917 -72.183327
8900000000 0.0028239873 -174.08134 0.0026917888 93.526146 0.002694672 93.593056 0.0013578786 -79.552795
9000000000 0.0026883287 -171.51111 0.0027270634 93.584839 0.0027316543 93.66143 0.0013086245 -74.058945
9100000000 0.0027672502 -176.57414 0.002766988 93.693169 0.0027609719 93.597359 0.0014259734 -81.050011
9200000000 0.0027605621 -173.24646 0.0027919849 93.583031 0.0028038435 93.552086 0.0013988449 -72.779381
9300000000 0.0027747105 -177.62357 0.0028283149 93.608803 0.0028300034 93.413872 0.0014476172 -79.405563
9400000000 0.0028659606 -173.38972 0.0028750249 93.501373 0.0028725946 93.342255 0.0013932218 -70.186165
9500000000 0.0027967512 -175.25838 0.0029021176 93.229324 0.002899745 93.088463 0.0014010391 -78.665558
9600000000 0.0029133763 -171.6059 0.0029362752 92.950058 0.0029304402 93.02475 0.0014013604 -71.148483
9700000000 0.0027276298 -172.97249 0.0029581881 92.741844 0.0029563378 92.848114 0.0013630802 -80.492851
9800000000 0.0028076447 -170.9745 0.0029921776 92.839142 0.0029879352 92.888191 0.0014594714 -73.861107
9900000000 0.0026311311 -172.4458 0.0030227441 92.668091 0.0030279548 92.669884 0.001415388 -81.932686
10000000000 0.0027668583 -173.20068 0.003058881 92.405907 0.0030659544 92.433098 0.0015533159 -73.501274
10100000000 0.0026168332 -173.67784 0.0030954797 91.929436 0.0030860244 91.95137 0.0014626568 -79.45433
10200000000 0.0027992611 -175.15796 0.0031121895 91.577248 0.0031065498 91.638916 0.0015769171 -72.32515
10300000000 0.0027312865 -173.54257 0.0031218892 91.298531 0.0031326585 91.288536 0.0014200609 -76.636604
10400000000 0.0028656665 -174.85698 0.0031395927 90.845055 0.0031378863 90.966812 0.0015119647 -74.234619
10500000000 0.0028261326 -171.96109 0.0031407154 90.680756 0.0031414456 90.794777 0.0013940111 -79.246368
10600000000 0.0028347275 -172.99516 0.0031359068 90.714561 0.0031257332 90.827728 0.001578192 -77.777069
10700000000 0.0028123565 -170.56326 0.0031439231 91.024529 0.0031426288 91.115044 0.0014732481 -79.605736
10800000000 0.0027343931 -172.2224 0.0031520394 91.260216 0.003142321 91.180794 0.0016823829 -79.250839
10900000000 0.0027794752 -171.70271 0.0031548694 91.509979 0.0031621817 91.477692 0.0015463287 -75.826134
11000000000 0.0026854619 -173.31314 0.0031797085 91.831474 0.0031743774 91.897125 0.0016795049 -77.916733
11100000000 0.0028254059 -173.20128 0.0032132738 92.201645 0.0032159048 92.144501 0.0015345021 -73.794785
11200000000 0.0027106074 -173.79189 0.0032346616 92.218704 0.0032322942 92.192566 0.0016225468 -79.300323
11300000000 0.002919765 -173.25688 0.0032467083 92.28186 0.0032544362 92.372719 0.0015377786 -74.407669
11400000000 0.0027911458 -172.26161 0.0032770473 92.40136 0.0032740596 92.540321 0.0016318101 -82.586609
11500000000 0.0029289043 -173.59828 0.0032953105 92.690712 0.0032940479 92.598 0.0016590817 -76.849777
11600000000 0.0027595556 -169.6739 0.0033116571 92.827759 0.0033141824 92.930679 0.0017171456 -83.730057
11700000000 0.0028739811 -173.08475 0.0033263175 93.181862 0.0033373709 93.168083 0.0018277017 -75.184975
11800000000 0.0027836596 -168.8293 0.0033483901 93.435455 0.0033499708 93.498116 0.001762487 -80.828445
11900000000 0.0027834408 -173.78816 0.0033857755 93.828354 0.0033830251 93.655815 0.0018531216 -73.264946
12000000000 0.0028099327 -169.06015 0.0034134593 94.122711 0.0034228161 93.921806 0.0016658056 -79.186752
12100000000 0.0027383147 -174.03421 0.003449575 94.325546 0.0034421918 94.185371 0.0018406129 -74.205345
12200000000 0.0028405651 -169.96375 0.0034895537 94.363022 0.0034889698 94.365776 0.0016376071 -81.90062
12300000000 0.0026624312 -174.13803 0.0035116754 94.470245 0.0035168515 94.483475 0.0019143318 -77.535286
12400000000 0.002886923 -170.27144 0.0035404274 94.385307 0.0035326702 94.606888 0.001713591 -83.466515
12500000000 0.002646442 -172.03735 0.0035627398 94.699898 0.0035681257 94.678108 0.0020837106 -78.194679
12600000000 0.0029401963 -170.91429 0.0035992737 94.940559 0.0036009122 94.725929 0.0018032677 -79.670082
12700000000 0.0026237869 -169.79631 0.0036399064 94.771347 0.003638773 94.925095 0.0021738769 -76.50209
12800000000 0.0029151456 -170.32234 0.0036671821 94.8647 0.0036672903 94.80542 0.0017708882 -74.782158
12900000000 0.0026677449 -166.7908 0.0036902872 94.866241 0.0036805118 94.982414 0.0020871505 -76.858246
13000000000 0.0029711775 -172.14522 0.0036856954 95.235558 0.003696651 95.146545 0.0017344751 -75.392113
13100000000 0.0026619229 -167.11745 0.0037209298 95.558754 0.0037288272 95.581184 0.0020753401 -80.167137
13200000000 0.0027912501 -174.33961 0.0037572233 96.001564 0.0037628482 95.917191 0.0018481823 -77.595871
13300000000 0.0027076914 -168.76068 0.0038065796 96.118095 0.0037980461 96.139145 0.0021927685 -81.419403
13400000000 0.0026939909 -176.96635 0.0038325652 96.336067 0.0038366229 96.340263 0.0019626291 -75.12719
13500000000 0.0028364314 -169.54485 0.0038814305 96.448242 0.0038774482 96.477043 0.0022227741 -78.527046
13600000000 0.002670188 -176.55104 0.0039202757 96.609634 0.0039258553 96.599289 0.002072437 -70.979256
13700000000 0.0029425134 -170.8792 0.0039572348 96.678604 0.0039577857 96.777184 0.0021195482 -76.848877
13800000000 0.0026874361 -172.29977 0.0039949967 96.687683 0.00400323 96.621704 0.0019856954 -70.653656
13900000000 0.002946493 -170.377 0.0040257131 96.795799 0.004026236 96.843712 0.0019971014 -80.252609
14000000000 0.0025754687 -170.2235 0.004080235 96.837708 0.0040752953 96.88031 0.0020714349 -73.774284
14100000000 0.0028144149 -172.17374 0.0041141878 96.970741 0.0041047451 96.839043 0.0020728938 -81.886215
14200000000 0.0025105698 -170.73016 0.004155132 97.014717 0.0041404925 96.919724 0.0022795103 -75.125618
14300000000 0.0027620767 -176.18573 0.0041775452 97.00042 0.0041804425 97.041985 0.0021035634 -77.635826
14400000000 0.002626318 -171.68524 0.0042289426 97.024147 0.004225587 96.973198 0.0023303966 -73.190422
14500000000 0.0028457043 -177.69652 0.0042709676 97.131989 0.0042571411 97.156372 0.0020730942 -75.117645
14600000000 0.0029608659 -171.37903 0.0043055271 97.11071 0.0043090796 97.023163 0.0023090874 -73.68721
14700000000 0.0028758836 -175.96185 0.0043509142 97.105591 0.004347716 97.088493 0.0019427438 -74.095741
14800000000 0.0030514959 -167.96561 0.0043887361 97.033348 0.0043937233 97.088852 0.0023179154 -77.095795
14900000000 0.0026963002 -171.61478 0.0044273655 96.910873 0.0044178125 97.106262 0.002040762 -74.76252
15000000000 0.0029652764 -168.80331 0.004464197 97.100952 0.0044765854 97.076721 0.0023572685 -78.894707
15100000000 0.0024741499 -172.03497 0.0045282971 96.88279 0.004522623 96.992844 0.00213626 -72.478996
15200000000 0.0029131656 -173.66336 0.004547352 96.781113 0.0045537823 96.865128 0.0024218359 -79.373611
15300000000 0.0025302628 -173.27322 0.0045958008 96.615204 0.0045884582 96.663185 0.0021662493 -69.785744
15400000000 0.0030848945 -177.61351 0.0046290993 96.539108 0.0046244264 96.482071 0.0023751529 -79.63356
15500000000 0.0027919773 -170.17699 0.0046632411 96.32563 0.0046560848 96.355003 0.0022166439 -69.516365
15600000000 0.0031104025 -175.35754 0.0046838061 96.15976 0.0046819509 96.051613 0.0023729929 -80.622971
15700000000 0.0029745912 -164.01004 0.0047058617 96.12973 0.0047045043 96.103363 0.0023304697 -68.264717
15800000000 0.0029587254 -172.14816 0.0047286204 95.98764 0.004726267 96.058907 0.0022905678 -80.693024
15900000000 0.0028660507 -162.83061 0.0047605899 95.876129 0.0047694617 95.86158 0.0023578198 -69.210014
16000000000 0.0026387877 -172.2679 0.0047644274 95.852928 0.0047789956 95.919609 0.0022527089 -81.929268
16100000000 0.0027878559 -166.81277 0.0048054443 95.788811 0.0048051975 95.800415 0.0024452945 -70.600227
16200000000 0.0025451782 -175.46881 0.0048404094 95.862419 0.0048414939 95.861046 0.0023198621 -80.923241
16300000000 0.0029818474 -171.86421 0.0048776469 95.773438 0.0048696487 95.666931 0.0026064597 -71.175201
16400000000 0.002682793 -174.44794 0.0049096132 95.576813 0.0049046045 95.611267 0.0023442851 -76.622513
16500000000 0.0031865579 -171.91014 0.0049297321 95.461853 0.0049257204 95.347931 0.0026194309 -69.825951
16600000000 0.0027705047 -167.84888 0.0049418509 95.187576 0.0049384115 95.240593 0.0023024473 -71.603485
16700000000 0.0030526649 -169.31863 0.004954481 95.125595 0.0049675149 95.091461 0.0024945319 -71.194847
16800000000 0.0026936198 -163.87842 0.0049604424 95.070236 0.0049579851 95.269341 0.0022571664 -73.589691
16900000000 0.0027513506 -171.28766 0.0049700812 95.233803 0.0049733464 95.154907 0.0025841591 -75.503761
17000000000 0.0026105777 -167.13701 0.0049789608 95.14785 0.0049969465 95.218285 0.0023960075 -74.603844
17100000000 0.0026168216 -176.6431 0.0050039967 95.172752 0.00500987 95.284859 0.002705106 -75.80899
17200000000 0.002777861 -172.88867 0.0050438698 95.339661 0.0050387327 95.373032 0.002535732 -71.188644
17300000000 0.0027358816 -178.44691 0.0050382405 95.469788 0.0050565186 95.35112 0.0026485447 -73.969528
17400000000 0.0030051176 -173.74739 0.0050882599 95.495049 0.0050809528 95.534935 0.0025386629 -68.160469
17500000000 0.0026981428 -173.34427 0.0051120226 95.352394 0.0051284879 95.313423 0.0024720805 -73.155014
17600000000 0.0029170804 -171.07188 0.0051355837 95.199951 0.0051358524 95.304405 0.0025101677 -69.857857
17700000000 0.0025334591 -167.94701 0.0051436927 95.079407 0.0051701656 95.088707 0.0024424819 -77.798492
17800000000 0.002744698 -171.73009 0.0051720189 95.151039 0.0051644039 95.246719 0.0026401267 -71.845879
17900000000 0.0024464601 -167.51242 0.0051842611 95.170464 0.0051877992 95.07692 0.0024639457 -79.555733
18000000000 0.0026944983 -177.11098 0.0051728538 95.130402 0.0051989052 95.133842 0.0028699082 -72.30883
18100000000 0.0025597306 -170.18436 0.0051961145 95.246078 0.0051988959 95.183014 0.0024928527 -75.38868
18200000000 0.0027188601 -179.25813 0.0052180523 95.403908 0.0052106208 95.388023 0.0028954139 -70.965027
18300000000 0.0027775271 -169.88474 0.0052291634 95.440369 0.0052282535 95.422852 0.0024153145 -73.705475
18400000000 0.0027535341 -177.12613 0.0052397177 95.581078 0.005226139 95.721909 0.0028597952 -73.267899
18500000000 0.0029087982 -167.92928 0.0052524963 95.78228 0.0052581499 95.576309 0.0023724516 -74.737427
18600000000 0.0026047525 -173.43066 0.0052643358 95.920815 0.005254522 95.779945 0.0029623657 -74.433678
18700000000 0.0028969964 -166.43941 0.0053137573 96.140968 0.0053097573 96.20961 0.002426906 -75.649734
18800000000 0.0024576634 -169.72435 0.005343962 96.039886 0.0053431648 96.071777 0.0029973877 -75.680687
18900000000 0.0027969445 -169.07213 0.0053733741 96.023018 0.0053691929 96.001984 0.0024842345 -72.890656
19000000000 0.0023446924 -169.17133 0.0053820065 95.843124 0.0053882608 95.803429 0.0030263297 -78.222862
19100000000 0.0027134414 -171.94548 0.0053900741 95.785133 0.0053997366 95.770294 0.0026493836 -73.211266
