!Keysight Technologies,N5247B,MY61255062,A.15.50.07
!Date: Thursday, February 13, 2025 10:58:59
!Correction: S11(C  2-Port  ) 
!S21(C  2-Port  ) 
!S12(C  2-Port  ) 
!S22(C  2-Port  ) 
!S2P File: Measurements: S11, S21, S12, S22:
# Hz S  MA   R 50
500000000 0.99989283 0.18786775 5.6019817e-005 88.977318 5.5414421e-005 91.090309 1.000368 0.20446374
600000000 0.99992651 0.2281491 6.4959611e-005 92.724586 6.6591485e-005 89.229111 1.0002506 0.23991418
700000000 1.000069 0.26611409 7.9177917e-005 89.080505 8.2693747e-005 88.185242 1.0003623 0.28420311
800000000 0.99995756 0.30550486 9.3717725e-005 87.209106 9.415939e-005 90.76635 1.0003234 0.32474479
900000000 0.99994719 0.34171993 0.00010426034 86.97406 0.00010454759 86.900635 1.000399 0.36629471
1000000000 0.99990535 0.38138035 0.00011601477 87.029984 0.0001209226 87.274467 1.0004015 0.40407223
1100000000 1.000035 0.42276406 0.00012716641 86.499306 0.00013039315 89.385887 1.0004169 0.44644791
1200000000 0.99997461 0.46157187 0.00014468507 85.707001 0.00014485759 88.573441 1.0003582 0.48078972
1300000000 0.99994636 0.49768314 0.00015968025 88.881752 0.00016327229 88.732773 1.0003821 0.52537781
1400000000 1.000011 0.54103184 0.00017078315 87.70092 0.00017791284 86.544662 1.0003892 0.56379968
1500000000 1.0000477 0.57831055 0.00019548231 86.255295 0.00019453435 87.161346 1.0004969 0.60558319
1600000000 0.99993789 0.61782557 0.000207887 86.399826 0.00021275626 87.551514 1.000496 0.64022237
1700000000 1.0000033 0.65838283 0.00023312437 85.831734 0.00023170399 84.546501 1.0004809 0.68739378
1800000000 1.0000371 0.69762355 0.00025654898 81.765099 0.00026230165 82.205566 1.0004857 0.72399896
1900000000 1.0001225 0.73607588 0.00028749439 79.194351 0.00029007779 79.42038 1.0004922 0.77332908
2000000000 1.0001414 0.7771793 0.00030926531 74.599762 0.00031131005 75.387138 1.0006298 0.80315977
2100000000 1.0001982 0.8162663 0.00033091349 72.748466 0.00033688432 73.332253 1.000669 0.85077512
2200000000 1.0002649 0.85810858 0.00040299195 65.311005 0.00040927558 64.637566 1.0008396 0.88021415
2300000000 1.0003653 0.89055002 0.00040468047 39.607914 0.00040382086 40.036068 1.0009183 0.9235608
2400000000 1.000314 0.92558181 0.00024417337 17.825809 0.0002452044 17.510426 1.0009768 0.94748437
2500000000 1.0003588 0.95522451 0.00010587509 59.104858 0.00010849408 57.202877 1.0008757 0.99133176
2600000000 1.0002133 0.99656636 0.00019660624 89.91993 0.00020144445 89.847488 1.0007933 1.0189466
2700000000 1.0002862 1.0297976 0.00028017873 86.856743 0.00027825579 87.321945 1.0006821 1.0752025
2800000000 1.0002375 1.0795101 0.00036318923 81.145676 0.00036955278 80.852402 1.0007308 1.1038895
2900000000 1.0002888 1.1123437 0.00039678445 70.82103 0.00039359176 71.365898 1.0007602 1.1606536
3000000000 1.0002289 1.1591522 0.00042624242 63.480251 0.00042667764 62.160397 1.0008756 1.18353
3100000000 1.0004029 1.1910515 0.00041497883 54.479774 0.00041098421 54.123062 1.0008545 1.2330662
3200000000 1.0002836 1.2391573 0.00037538173 42.862465 0.00037910551 43.008259 1.0008218 1.2587229
3300000000 1.0003101 1.2706479 0.00031142362 45.6707 0.00031194565 46.124126 1.0008316 1.3149348
3400000000 1.0004258 1.3180257 0.00029510882 55.322762 0.00028848968 54.512489 1.0009245 1.345764
3500000000 1.0003488 1.3468596 0.00031431523 57.168232 0.00031022439 56.88969 1.001097 1.4002454
3600000000 1.0004934 1.3854386 0.00033540741 55.487499 0.00034241588 56.311935 1.0010942 1.4194739
3700000000 1.0004178 1.4107991 0.00034982321 51.008575 0.0003570735 51.856895 1.0011495 1.4645704
3800000000 1.0004777 1.4508055 0.0003171188 45.515568 0.00031622947 46.946011 1.0009888 1.488524
3900000000 1.0003668 1.4900199 0.00029593773 49.890644 0.00030173323 48.995552 1.001038 1.5324699
4000000000 1.0005065 1.5249698 0.00029488726 49.909992 0.00029467969 50.829342 1.001032 1.5659333
4100000000 1.0004134 1.567484 0.00028362579 55.502743 0.00028579473 55.818184 1.0011113 1.6114496
4200000000 1.0004722 1.6064265 0.0002897924 56.013817 0.0002900463 55.755398 1.0010408 1.645511
4300000000 1.0004249 1.6487641 0.00028414035 56.680611 0.00029124849 56.111931 1.0010096 1.6891754
4400000000 1.00037 1.6785257 0.00028647832 58.507175 0.00028667189 58.806789 1.0009506 1.7228779
4500000000 1.0003518 1.7190732 0.00027923455 61.914455 0.00028763208 61.583576 1.0009314 1.7595701
4600000000 1.0002402 1.7501851 0.00029479631 64.783165 0.00029401513 63.666695 1.0009518 1.7935907
4700000000 1.0003684 1.7885573 0.00029514526 63.330521 0.00030611991 63.933304 1.0008774 1.8303285
4800000000 1.0003157 1.8239831 0.00030175241 65.365608 0.0002973417 64.820282 1.0009855 1.8695583
4900000000 1.0003505 1.8591348 0.00030186475 66.451279 0.00030595294 67.578018 1.0009007 1.9103155
5000000000 1.0003058 1.9038066 0.00031323513 68.784767 0.00030620399 68.663895 1.0010276 1.9503076
5100000000 1.0004106 1.9408971 0.00031245596 69.330963 0.00032151878 69.931961 1.0008841 1.9936565
5200000000 1.0002871 1.989924 0.00032743331 72.222481 0.00032503807 71.457924 1.001054 2.0301044
5300000000 1.0002847 2.0192142 0.00033648111 72.15921 0.00033620297 73.247383 1.0008634 2.0744524
5400000000 1.0002697 2.0725663 0.00035113384 73.525528 0.0003476729 73.514061 1.0010282 2.1016643
5500000000 1.0001863 2.0925891 0.00035306753 72.921738 0.00034946314 73.870789 1.0007733 2.1450264
5600000000 1.0002785 2.1418262 0.00036501596 74.243637 0.00035474167 73.859833 1.0010734 2.1770623
5700000000 1.0000913 2.1652794 0.00036997136 75.090576 0.00036659569 74.42379 1.0008115 2.2267206
5800000000 1.0003346 2.2126918 0.00037491479 75.319405 0.00037232731 75.74456 1.0010808 2.2603574
5900000000 1.0001715 2.2411842 0.00039175543 75.970734 0.00037915574 76.940147 1.0008425 2.313812
6000000000 1.0004052 2.2939224 0.00039147111 77.430435 0.00038568449 76.351738 1.0010812 2.3388312
6100000000 1.0001271 2.3333001 0.0004095686 78.586906 0.000400964 77.692207 1.0008165 2.3917599
6200000000 1.0004331 2.3765805 0.00040723023 78.651581 0.00041420991 78.307823 1.0010153 2.4135485
6300000000 1.0000448 2.4246767 0.00042128935 78.806229 0.00042586503 79.701904 1.0008528 2.4708035
6400000000 1.0003142 2.4540596 0.00043395653 78.950447 0.0004311236 78.163811 1.0010526 2.4938884
6500000000 1.0000989 2.5007682 0.00044291923 79.77623 0.00043744684 79.366776 1.0009325 2.5544722
6600000000 1.000186 2.5190821 0.00044990599 79.041527 0.00044599044 79.473801 1.0010453 2.575701
6700000000 1.0001726 2.5698867 0.00045851627 81.128654 0.00045869948 80.686905 1.0010165 2.6368055
6800000000 1.0001957 2.5882673 0.000473922 81.184669 0.00047452637 81.042023 1.0009929 2.6558034
6900000000 1.0002103 2.6457794 0.00049172493 81.804024 0.00048710062 81.766792 1.0010508 2.7078943
7000000000 1.0001873 2.6733258 0.00050274184 81.636948 0.00049849204 81.228836 1.0010545 2.7304957
7100000000 1.0003293 2.73207 0.00051672873 81.395523 0.00051556417 81.599648 1.0011605 2.7849176
7200000000 1.0001416 2.7627974 0.00053689035 80.771133 0.00052958238 81.44503 1.0010519 2.8109839
7300000000 1.0003517 2.8111424 0.00054062501 80.714561 0.00054348772 81.446655 1.001164 2.8639083
7400000000 1.00008 2.844234 0.00055133674 81.066994 0.0005559416 80.864578 1.0010566 2.8963213
7500000000 1.0002731 2.8781815 0.00055496389 79.960564 0.00055566814 81.070206 1.001158 2.9406073
7600000000 1.0000587 2.9167306 0.00057147723 81.276489 0.00057151611 81.437141 1.0010527 2.977221
7700000000 1.0002456 2.9419179 0.00058220653 80.953125 0.00057979213 81.039368 1.0011848 3.0134993
7800000000 1.0002067 2.9870417 0.00060266536 80.792168 0.00060207507 80.929695 1.001174 3.0557885
7900000000 1.0003024 3.0110283 0.00061932934 80.472885 0.00061458343 80.288551 1.0012609 3.0907438
8000000000 1.0004038 3.0708654 0.00063188543 79.948151 0.00063276949 80.389336 1.00124 3.1416523
8100000000 1.0003288 3.1025772 0.00064150459 80.097778 0.00063855591 80.261131 1.00121 3.1706848
8200000000 1.0003995 3.1647654 0.00064838014 79.552406 0.00065819157 79.589409 1.0012555 3.2229679
8300000000 1.0001247 3.1922045 0.00067444105 79.005722 0.00067111175 78.63324 1.0011827 3.2397273
8400000000 1.0003484 3.2327442 0.00068274257 77.787842 0.00068279781 77.944695 1.0012782 3.2936292
8500000000 1.0000155 3.262749 0.000697991 77.427803 0.00069170521 77.316689 1.0012416 3.3143969
8600000000 1.000298 3.2912767 0.00070057024 76.53643 0.0007026369 76.408478 1.0014324 3.3752975
8700000000 1.0000643 3.3293583 0.00071562204 75.765152 0.00070745341 75.993996 1.0012858 3.3965659
8800000000 1.0003927 3.355041 0.00072145904 75.1689 0.00071995019 76.034523 1.0015614 3.4591825
8900000000 1.0002954 3.4132552 0.00071867858 75.100853 0.00072803115 74.549866 1.0012156 3.4811428
9000000000 1.0006174 3.4412053 0.0007271581 73.920486 0.0007246015 74.943932 1.0015947 3.5356164
9100000000 1.0005373 3.515362 0.00073692208 74.714523 0.00074780243 74.954193 1.0012041 3.5537386
9200000000 1.00051 3.533323 0.00074869947 73.919052 0.0007507425 74.298485 1.0017555 3.6049619
9300000000 1.0005057 3.6038618 0.00075919682 73.510857 0.00075751683 72.837074 1.0014414 3.6303036
9400000000 1.0003582 3.6067033 0.00076909759 72.221649 0.00076555018 73.037872 1.0019339 3.6878498
9500000000 1.0005782 3.6560812 0.00076877134 71.692726 0.00076612231 72.136505 1.0015163 3.7148237
9600000000 1.0003532 3.6648533 0.00077371375 72.191811 0.00077264354 72.825218 1.0020306 3.7624111
9700000000 1.0007339 3.7073643 0.00077180594 71.758522 0.00078670651 72.077644 1.0015271 3.7993302
9800000000 1.0004785 3.731566 0.00080533588 71.786926 0.00080322614 71.785843 1.002015 3.8290241
9900000000 1.0010089 3.782773 0.00082218862 71.256622 0.00081630459 71.434799 1.0015243 3.8701162
10000000000 1.0005268 3.822057 0.00082818739 69.968437 0.00082919223 70.218025 1.0020753 3.8935971
10100000000 1.0009882 3.8720863 0.00084066857 68.593285 0.00083662721 67.323677 1.0017005 3.9436262
10200000000 1.0005976 3.9228768 0.0008288988 65.947914 0.00083816552 66.006996 1.002148 3.9720802
10300000000 1.0008566 3.9437294 0.00082259177 64.399254 0.00082839373 64.638344 1.001776 4.0331101
10400000000 1.0004828 3.9975176 0.00081064604 63.749107 0.00081189955 63.653828 1.0020521 4.0620308
10500000000 1.0005834 4.001029 0.00078782317 63.255146 0.00079555903 62.97274 1.0017868 4.1167049
10600000000 1.0005823 4.0563655 0.00078639295 64.019783 0.00077304163 62.918201 1.0019168 4.1330624
10700000000 1.0006562 4.0633154 0.00076088996 63.978985 0.00076573121 64.121323 1.0017922 4.1817346
10800000000 1.000743 4.1226501 0.00074650708 64.140724 0.0007602094 64.221909 1.0018562 4.1934767
10900000000 1.0006968 4.147615 0.00075388711 64.873772 0.00075437874 64.346992 1.0020351 4.2494912
11000000000 1.0009407 4.1997404 0.00075583998 66.134399 0.00075337582 66.170929 1.0018861 4.2691302
11100000000 1.0006304 4.2298155 0.00076067267 66.202324 0.00075891014 66.045052 1.0022063 4.3294187
11200000000 1.0009356 4.2797666 0.00075334439 66.102684 0.00075127062 65.522568 1.0018564 4.3592443
11300000000 1.0005141 4.3235879 0.00076125236 66.17411 0.00076636189 65.78627 1.00219 4.4050579
11400000000 1.0008477 4.3548021 0.00074623665 65.382713 0.0007423457 65.236076 1.0017104 4.430716
11500000000 1.0005351 4.3928432 0.00073714933 66.712852 0.00074181036 66.411942 1.0021008 4.4648581
11600000000 1.0008349 4.39923 0.00072721456 67.019371 0.00072441943 67.023087 1.0016037 4.4976187
11700000000 1.0005606 4.4588337 0.00072664255 69.678909 0.00072960707 68.912292 1.0021441 4.517323
11800000000 1.0007412 4.4667301 0.00073692913 71.261345 0.00073484622 70.875084 1.001726 4.5686593
11900000000 1.0007914 4.5339413 0.00075112761 72.053856 0.00074706093 71.373375 1.0022688 4.5935855
12000000000 1.0006306 4.5408401 0.00075683952 72.992203 0.00075687584 72.573807 1.0018239 4.6586685
12100000000 1.0008481 4.6152697 0.00077597698 73.844505 0.00077879528 73.280792 1.0021877 4.670712
12200000000 1.000535 4.6241107 0.00079667667 73.913177 0.00078456267 73.559486 1.0016643 4.7458148
12300000000 1.0009869 4.6928926 0.0008040648 74.244644 0.00080190488 73.995888 1.0019437 4.7370114
12400000000 1.0003656 4.702353 0.00082508638 74.385277 0.00082107272 74.287132 1.0015814 4.811749
12500000000 1.0009805 4.7548542 0.00082930352 74.611397 0.00084783509 74.599945 1.0017618 4.7923408
12600000000 1.00027 4.7860317 0.00086745346 74.187332 0.00086107093 73.898224 1.001725 4.8708134
12700000000 1.0009813 4.8195915 0.00088192604 72.687187 0.00088603416 73.231125 1.0019096 4.8657532
12800000000 1.0002776 4.8639064 0.00088910578 71.163589 0.000884988 71.365448 1.0019584 4.9617395
12900000000 1.0008725 4.8817658 0.00087244535 69.886848 0.00087005069 70.238297 1.0017796 4.9590759
13000000000 1.0002286 4.9528089 0.00084613019 70.262535 0.00083883916 70.337265 1.0018785 5.0501299
13100000000 1.0008937 4.9615889 0.00084451307 71.921951 0.00083742727 71.597694 1.0015234 5.040596
13200000000 1.0005223 5.047348 0.00083853473 72.930992 0.00083803153 72.066551 1.0017986 5.1126733
13300000000 1.0007744 5.0515537 0.00084722426 73.274086 0.00084451347 73.770462 1.0014282 5.1082139
13400000000 1.000756 5.1570678 0.00085259741 75.32225 0.00086015579 75.22818 1.0019754 5.1835804
13500000000 1.0004679 5.1285219 0.00087677327 75.082146 0.00087167963 75.485779 1.0016463 5.1850286
13600000000 1.0007403 5.2234869 0.00089856511 76.053886 0.00089317223 75.762375 1.0021913 5.2554636
13700000000 1.0000868 5.2232885 0.00091699598 76.134071 0.00091692485 76.389297 1.0017111 5.2855425
13800000000 1.0007499 5.2734241 0.00094051758 75.000206 0.00094222545 75.222466 1.0023531 5.3476267
13900000000 1.0000728 5.2931762 0.00095055782 74.651077 0.00095316902 74.86132 1.0014884 5.3835983
14000000000 1.0009308 5.3395443 0.00096351508 73.787918 0.00095820334 73.736053 1.0021019 5.4090624
14100000000 1.0004163 5.3828139 0.0009518236 73.078705 0.00095549301 73.123894 1.0013963 5.4542904
14200000000 1.0011505 5.4176445 0.00094991637 73.039711 0.00094212202 73.295822 1.0019864 5.4662852
14300000000 1.0005206 5.5076027 0.00093962753 73.748329 0.00093304354 74.123833 1.0016574 5.5305276
14400000000 1.0008895 5.5246539 0.00093399565 74.961479 0.00093628321 74.758034 1.0021636 5.5416598
14500000000 1.0004935 5.6038232 0.00095162058 76.371429 0.00094911101 77.199242 1.0018989 5.6231079
14600000000 1.0002009 5.5860639 0.00097545434 76.848007 0.00098030013 76.616829 1.0021555 5.6262007
14700000000 1.0004864 5.6517267 0.0010029553 76.688698 0.0009994196 76.908615 1.0019763 5.7217016
14800000000 0.99997824 5.6307039 0.0010215652 75.971611 0.0010253609 76.187088 1.0017591 5.7049489
14900000000 1.0009152 5.6920557 0.0010393859 75.812309 0.0010396498 75.828293 1.0019851 5.7927661
15000000000 1.0003172 5.70503 0.0010553298 75.451637 0.0010591209 74.988953 1.0016741 5.780838
15100000000 1.0015303 5.7634349 0.0010638698 74.262405 0.0010628664 74.255814 1.0022469 5.8597393
15200000000 1.0005759 5.8285432 0.0010623654 73.085007 0.0010612861 72.978516 1.0016502 5.8550434
15300000000 1.0014447 5.8639588 0.0010571227 72.782524 0.0010513443 72.982056 1.0025347 5.9347162
15400000000 1.0002973 5.9512224 0.001039282 73.349045 0.0010371493 73.296623 1.0016609 5.9440498
15500000000 1.0008824 5.919929 0.0010325561 73.310814 0.0010254758 73.621147 1.0026741 6.0101471
15600000000 1.0002506 5.9966359 0.0010234924 75.442345 0.0010273887 75.303833 1.0015987 6.0232944
15700000000 1.0005039 5.9469576 0.0010397823 76.175133 0.0010363297 76.277885 1.0027595 6.0767846
15800000000 1.000684 6.027 0.0010544132 77.717903 0.0010575327 77.805267 1.0015887 6.1190505
15900000000 1.0008258 5.997623 0.0011012596 78.463524 0.001096088 78.37059 1.0027318 6.1530924
16000000000 1.0013274 6.1027312 0.0011274625 78.647644 0.0011358655 78.900772 1.0015662 6.2059221
16100000000 1.0010481 6.1074886 0.0011638013 78.240128 0.0011725946 77.961655 1.0026982 6.2163262
16200000000 1.0017279 6.2127004 0.0011863855 77.316437 0.0011815829 77.195541 1.0017693 6.2759089
16300000000 1.000592 6.2207479 0.0012082647 76.883514 0.0012168296 76.259628 1.0027407 6.2721624
16400000000 1.0012392 6.2820735 0.0012288898 76.022232 0.001227206 76.311722 1.0020914 6.3494473
16500000000 1.0001665 6.3034239 0.0012467296 75.18631 0.0012503284 75.317055 1.0028419 6.3502555
16600000000 1.0010906 6.3110685 0.0012453252 74.201492 0.0012451785 74.562973 1.0024853 6.4467373
16700000000 1.0004809 6.3445683 0.0012708859 74.19326 0.0012572184 74.375397 1.0026767 6.4475055
16800000000 1.0015017 6.3547306 0.0012716189 73.524071 0.0012584713 73.553314 1.0024829 6.5372567
16900000000 1.0012867 6.4330912 0.0012763269 73.530937 0.0012857269 73.732002 1.0024261 6.5151539
17000000000 1.0018398 6.4441776 0.0013091988 73.319893 0.0013121204 73.351402 1.0025179 6.5944896
17100000000 1.0016308 6.5494018 0.001327298 71.835762 0.001330276 72.607323 1.0024313 6.578145
17200000000 1.001466 6.5553837 0.00134298 71.152481 0.0013418981 70.663315 1.0030246 6.6573243
17300000000 1.001458 6.6498017 0.0013328036 70.397659 0.0013568763 70.478088 1.0026704 6.6594667
17400000000 1.0007439 6.644856 0.0013685856 69.786903 0.0013608607 69.897835 1.0033593 6.7328401
17500000000 1.0015014 6.6748724 0.0013554185 68.499008 0.0013656375 68.501656 1.002737 6.7702785
17600000000 1.000836 6.6868896 0.0013817933 67.720345 0.0013629806 67.556808 1.0033429 6.8156724
17700000000 1.0017292 6.7138 0.0013632152 66.458031 0.00137449 65.730057 1.0023401 6.8508363
17800000000 1.0012312 6.7601223 0.0013526899 64.469597 0.0013559876 64.166733 1.0031501 6.8664002
17900000000 1.0020326 6.7850227 0.0013337397 63.361916 0.0013394264 63.216816 1.0022566 6.9195237
18000000000 1.0014267 6.8832736 0.0013057526 62.029667 0.0013102739 61.674923 1.0031303 6.9070868
18100000000 1.0018811 6.8819294 0.0012494398 60.895844 0.0012674523 61.338139 1.0025402 6.9899478
18200000000 1.0015005 6.9781909 0.0012117799 61.820629 0.0012154526 61.380001 1.003253 6.9811721
18300000000 1.0013883 6.9488277 0.0011487151 63.237957 0.001158028 63.721409 1.0029058 7.0866332
18400000000 1.0017109 7.0330467 0.0011624933 67.464447 0.0011626736 67.288025 1.0031105 7.062716
18500000000 1.0009303 6.9932647 0.0012056513 69.453789 0.0012172455 68.80513 1.0029383 7.1668444
18600000000 1.0016981 7.0786028 0.0012469202 69.286751 0.0012505971 68.801994 1.0028551 7.1206689
18700000000 1.0008754 7.0561199 0.0012800563 67.863792 0.001277815 68.608467 1.0029601 7.2361655
18800000000 1.0020533 7.1178885 0.0012863815 67.837219 0.0012873563 67.88176 1.002695 7.1865201
18900000000 1.001042 7.1487417 0.0012857044 67.900749 0.0012765776 68.151207 1.0031554 7.2973299
19000000000 1.0022361 7.1965222 0.0013126911 67.044945 0.0012980737 67.050873 1.0023863 7.2652578
19100000000 1.0010419 7.2421613 0.0013071671 66.195518 0.0013043314 66.153763 1.0032012 7.3494964
19200000000 1.0019698 7.2669654 0.0012874436 65.515862 0.001282169 65.68454 1.0022529 7.3369174
19300000000 1.0008742 7.3479543 0.0012708521 65.097855 0.0012707101 65.201469 1.0034049 7.4057498
19400000000 1.0017231 7.3446913 0.0012619718 65.087372 0.001251692 65.16758 1.0023482 7.4158506
19500000000 1.0009456 7.4364395 0.0012192139 66.441177 0.0012255615 65.694008 1.0034254 7.4881253
19600000000 1.0013628 7.4036775 0.0012114004 67.781471 0.0012123615 67.510185 1.0024017 7.5016718
19700000000 1.0010712 7.4823885 0.0012342265 69.07811 0.0012356942 69.473068 1.003334 7.5531168
19800000000 1.0013858 7.4408288 0.0012661704 69.585823 0.0012556743 69.840073 1.0021032 7.5782356
19900000000 1.0016632 7.5406418 0.0012885192 69.687302 0.0012927201 70.310158 1.0032097 7.6004367
20000000000 1.001395 7.5328913 0.001303254 69.562042 0.0013005248 70.187241 1.002082 7.6320724
20100000000 1.0021138 7.6649971 0.0013032083 69.42205 0.0013165377 69.297058 1.0032543 7.6415935
20200000000 1.0012643 7.6806479 0.0013162091 69.019272 0.0013295003 68.318138 1.0025163 7.7052093
20300000000 1.0021491 7.7613311 0.0013169725 67.913567 0.001304366 68.530464 1.0034515 7.7294607
20400000000 1.0007335 7.7887993 0.001318833 68.904579 0.001320235 68.537331 1.0027671 7.8101106
