!Keysight Technologies,N5247B,MY61255062,A.15.50.07
!Date: Thursday, February 13, 2025 10:46:03
!Correction: S11(C  2-Port  ) 
!S21(C  2-Port  ) 
!S12(C  2-Port  ) 
!S22(C  2-Port  ) 
!S2P File: Measurements: S11, S21, S12, S22:
# Hz S  MA   R 50
500000000 1.000234 179.9789 0.00025055968 84.70195 0.00025176423 83.244881 1.0003191 179.9801
600000000 1.0002468 179.97194 0.00030267789 84.59256 0.00030118803 85.374275 1.0003688 179.97482
700000000 1.0002567 179.96584 0.00035071862 84.623016 0.00034393943 85.756096 1.0003167 179.96687
800000000 1.0002578 179.96101 0.00038948536 85.5606 0.00039326216 85.330963 1.0003742 179.95778
900000000 1.0002681 179.95558 0.00043614049 86.091713 0.00043553917 85.45591 1.000396 179.95123
1000000000 1.0002826 179.94899 0.00048196307 86.321449 0.00048508841 86.237503 1.0004083 179.94446
1100000000 1.000278 179.9431 0.0005291251 86.648369 0.00052583468 86.044792 1.0004444 179.93932
1200000000 1.0003494 179.93558 0.00057460769 86.608444 0.00057555141 85.976898 1.0004407 179.9313
1300000000 1.0003347 179.93217 0.00062273245 86.342155 0.00061899039 86.707626 1.0004772 179.92473
1400000000 1.0003755 179.92567 0.00065896229 86.489655 0.00066180539 86.624794 1.0004784 179.91783
1500000000 1.0003442 179.91942 0.00071238424 86.930656 0.00070729421 86.90033 1.000572 179.91042
1600000000 1.0004196 179.91176 0.00075320387 87.202721 0.00074819068 86.894669 1.0005689 179.90364
1700000000 1.000362 179.908 0.00079552393 87.459244 0.00079404714 87.578682 1.0005598 179.89322
1800000000 1.0003957 179.90169 0.00084360421 87.889091 0.0008423765 88.07975 1.0005245 179.88881
1900000000 1.0004092 179.89645 0.00089055346 88.728615 0.00088952959 88.850952 1.0005885 179.87894
2000000000 1.0003695 179.88951 0.00094555813 88.879189 0.00094752171 88.974792 1.0006313 179.87482
2100000000 1.0002993 179.88211 0.00099785312 89.053574 0.0010017782 89.059738 1.0006315 179.86595
2200000000 1.0003691 179.87515 0.0010664443 88.413528 0.0010621214 88.565666 1.0005836 179.86275
2300000000 1.000361 179.87029 0.0011020616 87.757103 0.0011066532 87.315384 1.0006397 179.85011
2400000000 1.0003868 179.8618 0.0011388481 87.572281 0.0011317434 87.521362 1.0006422 179.84592
2500000000 1.0003258 179.85927 0.0011672006 87.659874 0.0011719536 87.342323 1.0006597 179.83609
2600000000 1.0003996 179.85295 0.001209787 88.203949 0.0012061277 88.119202 1.0006489 179.83315
2700000000 1.0003473 179.85065 0.0012502349 87.897415 0.0012517809 88.292427 1.000681 179.82172
2800000000 1.0004321 179.84106 0.0013055438 88.992447 0.001295561 88.945412 1.0006807 179.81822
2900000000 1.0003247 179.84053 0.0013561355 89.271111 0.0013547672 89.038788 1.0006716 179.80745
3000000000 1.0003936 179.82925 0.0014102388 89.408012 0.0014080777 89.228096 1.0006129 179.80624
3100000000 1.0003197 179.82895 0.0014578684 88.998825 0.0014649095 88.947365 1.0006349 179.79349
3200000000 1.0003778 179.81674 0.0015184443 88.749046 0.001515125 88.830231 1.0006752 179.79301
3300000000 1.0004159 179.81689 0.0015563747 88.487434 0.0015567102 88.542793 1.0006757 179.78001
3400000000 1.000457 179.80519 0.0015957489 88.830231 0.0015967443 88.677116 1.0007133 179.77605
3500000000 1.0004461 179.80511 0.001642872 88.737267 0.001641445 88.793381 1.0006976 179.76332
3600000000 1.0004205 179.79657 0.0016924738 89.030167 0.001695185 88.865669 1.000795 179.76149
3700000000 1.0005472 179.79608 0.0017402669 88.630157 0.0017390223 88.789742 1.0007478 179.75107
3800000000 1.0005491 179.78513 0.0017893534 88.483223 0.001779868 88.773972 1.000823 179.74889
3900000000 1.0005814 179.77989 0.0018307782 88.756943 0.0018334991 88.608704 1.0007374 179.74088
4000000000 1.0004745 179.77158 0.0018773986 88.574722 0.0018736118 88.710358 1.0008055 179.73438
4100000000 1.0005493 179.76497 0.0019146361 88.872917 0.0019182599 88.672302 1.0007247 179.72462
4200000000 1.0004902 179.75784 0.0019577635 88.716949 0.0019617872 88.716911 1.0008066 179.716
4300000000 1.0005075 179.75136 0.002001822 88.797562 0.0020035151 88.678513 1.0007894 179.7079
4400000000 1.0005054 179.74651 0.002051733 88.637527 0.0020535188 88.804413 1.000861 179.70068
4500000000 1.0004705 179.74226 0.0020867013 88.84597 0.0020922038 88.749413 1.000841 179.69733
4600000000 1.0005393 179.73946 0.0021315608 88.975464 0.0021408109 88.925949 1.0009357 179.68835
4700000000 1.0005378 179.7328 0.0021769402 88.916779 0.0021864295 89.021111 1.0009044 179.68559
4800000000 1.0005515 179.72787 0.0022240542 89.029282 0.0022358038 88.977043 1.0008285 179.67645
4900000000 1.0004653 179.72055 0.0022664312 89.023964 0.0022671835 88.903198 1.0008793 179.67029
5000000000 1.0005172 179.71089 0.0023139745 89.063271 0.0023110001 89.132256 1.0007859 179.66095
5100000000 1.0004925 179.70758 0.0023558754 89.003609 0.0023630378 88.996277 1.0008724 179.653
5200000000 1.0005225 179.69556 0.0023956858 89.268166 0.0024003519 89.121788 1.0007669 179.64513
5300000000 1.0005229 179.69572 0.0024442279 89.124893 0.0024426708 89.475014 1.0008982 179.63838
5400000000 1.0005336 179.68102 0.0024908308 89.316566 0.0024892858 89.292633 1.0008143 179.63461
5500000000 1.0005909 179.68559 0.002535399 89.199913 0.002536806 89.359222 1.0009327 179.62695
5600000000 1.0005355 179.67149 0.0025777814 89.452362 0.002572407 89.377586 1.0008204 179.62219
5700000000 1.0006031 179.67744 0.0026284475 89.403191 0.0026247548 89.50782 1.000906 179.60989
5800000000 1.0004898 179.66208 0.0026636084 89.49469 0.0026609674 89.407181 1.0007212 179.60526
5900000000 1.0005819 179.66238 0.0027147206 89.537773 0.0027091065 89.485878 1.0008892 179.59245
6000000000 1.0004182 179.65193 0.0027490847 89.577293 0.0027496684 89.515419 1.0007536 179.5916
6100000000 1.0006098 179.64426 0.0027970327 89.522133 0.0027969382 89.662865 1.0009258 179.5778
6200000000 1.0003847 179.63527 0.0028336998 89.658951 0.0028405641 89.694641 1.0008403 179.58142
6300000000 1.0006036 179.62761 0.0028847214 89.706673 0.0028834164 89.832237 1.0009255 179.56616
6400000000 1.0004417 179.62459 0.0029153458 89.76992 0.0029249813 89.804718 1.0008562 179.56779
6500000000 1.0005884 179.61746 0.0029734869 89.997589 0.0029789468 89.817619 1.0009059 179.54933
6600000000 1.0005242 179.62173 0.0030148185 89.983047 0.0030157305 89.936829 1.0008296 179.5518
6700000000 1.0005947 179.60809 0.0030618443 90.098793 0.0030574265 90.031647 1.0008909 179.53288
6800000000 1.0004936 179.61151 0.0031013321 90.0466 0.0030968669 90.006134 1.0008507 179.53729
6900000000 1.0005528 179.59392 0.0031406442 90.1213 0.0031423673 90.07872 1.0008985 179.52005
7000000000 1.0005492 179.59346 0.0031834228 90.200508 0.0031871456 90.101357 1.0009203 179.52403
7100000000 1.0004807 179.57774 0.0032240064 90.240234 0.0032271831 90.061493 1.0008726 179.50587
7200000000 1.0005554 179.57588 0.0032705995 90.167992 0.0032695523 90.219841 1.0009302 179.50929
7300000000 1.0005131 179.56555 0.0032999718 90.332817 0.0033094529 90.268349 1.0008595 179.49297
7400000000 1.0006171 179.56238 0.0033524481 90.454376 0.0033547359 90.486336 1.0009733 179.49106
7500000000 1.0005125 179.56082 0.0033927928 90.504837 0.0033908919 90.386009 1.0008857 179.47804
7600000000 1.0006744 179.5574 0.0034371926 90.607491 0.0034387312 90.483582 1.00099 179.47641
7700000000 1.0005362 179.55832 0.0034752029 90.683517 0.0034718364 90.657104 1.0008346 179.47005
7800000000 1.0005039 179.54544 0.0035195169 90.752373 0.0035197425 90.644653 1.0008876 179.46207
7900000000 1.0005171 179.54794 0.0035569684 90.794121 0.0035566154 90.800972 1.0008191 179.45543
8000000000 1.0004208 179.52856 0.0035928865 90.993179 0.0035989569 90.80761 1.00088 179.44234
8100000000 1.0005555 179.52678 0.0036361767 91.070297 0.0036283319 91.03907 1.0008914 179.44043
8200000000 1.0004938 179.5107 0.0036753898 91.155388 0.0036771263 91.198875 1.0009295 179.42807
8300000000 1.000684 179.51041 0.0037178446 91.478073 0.0037154993 91.472878 1.0009691 179.43379
8400000000 1.0005414 179.50473 0.0037538838 91.719032 0.0037584046 91.663513 1.0009534 179.4187
8500000000 1.0007452 179.50468 0.0038005742 91.870354 0.0037989817 91.738121 1.0009819 179.41995
8600000000 1.0005106 179.50366 0.0038341524 92.20948 0.0038481688 92.089249 1.0008972 179.40059
8700000000 1.0006719 179.49992 0.0039011282 92.354408 0.003898975 92.159828 1.0009874 179.4035
8800000000 1.000515 179.50003 0.0039531831 92.507462 0.0039589284 92.474327 1.0008047 179.38469
8900000000 1.0007141 179.48225 0.0040137242 92.522552 0.0040023187 92.604576 1.0009558 179.38667
9000000000 1.0005203 179.48543 0.0040545263 92.628609 0.0040551615 92.600838 1.0008329 179.37035
9100000000 1.0006155 179.45859 0.00410497 92.773064 0.0041002315 92.699753 1.0010372 179.37808
9200000000 1.000594 179.4617 0.0041457103 92.869568 0.0041463431 92.862892 1.0007858 179.36189
9300000000 1.000646 179.44254 0.0042030336 93.010986 0.0041923216 93.100647 1.0009807 179.36044
9400000000 1.0007215 179.45293 0.0042448398 93.193596 0.0042447825 93.284904 1.0006956 179.34341
9500000000 1.0006429 179.43878 0.0043013459 93.422318 0.004300111 93.409775 1.0009546 179.34047
9600000000 1.0006721 179.45129 0.0043632924 93.556572 0.004364036 93.554878 1.0007399 179.32648
9700000000 1.0006121 179.43437 0.0044201906 93.610458 0.0044218143 93.507561 1.0010208 179.32034
9800000000 1.0006505 179.44016 0.0044676675 93.757797 0.0044667888 93.667213 1.0008345 179.31537
9900000000 1.0004829 179.41884 0.0045162048 93.818069 0.0045247963 93.830574 1.0010417 179.30957
10000000000 1.000627 179.41518 0.0045825057 93.916977 0.0045849378 94.025864 1.0008118 179.30634
10100000000 1.0004766 179.40092 0.0046415767 94.062172 0.0046460498 94.045273 1.0009928 179.29639
10200000000 1.0006869 179.39281 0.0047135279 94.358688 0.0047099958 94.34243 1.000795 179.29134
10300000000 1.0005763 179.39044 0.0047990885 94.292107 0.0047803088 94.377571 1.0009569 179.27307
10400000000 1.0007328 179.38275 0.0048677707 94.286728 0.0048646312 94.335342 1.0008856 179.27106
10500000000 1.0006164 179.38626 0.0049419724 94.021957 0.0049407915 93.983757 1.0010597 179.25827
10600000000 1.0006981 179.3797 0.0050090589 93.735825 0.0050043049 93.857559 1.0009727 179.26208
10700000000 1.0006361 179.37971 0.0050590788 93.483604 0.0050552776 93.529533 1.0010728 179.24686
10800000000 1.0005968 179.36375 0.0050967592 93.327438 0.0051064668 93.246696 1.0009958 179.25659
10900000000 1.0005786 179.36247 0.005142455 93.180519 0.0051494068 93.110115 1.0009433 179.23407
11000000000 1.0005162 179.34668 0.0051804595 93.0186 0.0051792273 92.980965 1.0009754 179.24083
11100000000 1.0006689 179.34294 0.0052239741 92.925308 0.0052227131 92.983063 1.0009068 179.21704
11200000000 1.0005779 179.3326 0.0052610575 92.983826 0.0052616592 93.049683 1.0010693 179.21971
11300000000 1.0007775 179.33066 0.0053218077 92.891716 0.0053244666 92.956306 1.0010155 179.19946
11400000000 1.0006548 179.32594 0.005363971 92.836403 0.0053644511 92.820129 1.001235 179.20807
11500000000 1.0007725 179.31761 0.0054100049 92.770363 0.0054164408 92.859909 1.0009953 179.19676
11600000000 1.0005479 179.32666 0.0054543433 92.73555 0.0054571275 92.796066 1.0012317 179.20065
11700000000 1.0007237 179.31131 0.0055042701 92.681725 0.0055058869 92.569214 1.0007987 179.19426
11800000000 1.0005122 179.32033 0.0055404515 92.494415 0.0055382606 92.550156 1.0010668 179.18529
11900000000 1.0006313 179.29425 0.0055688191 92.442429 0.0055769356 92.504219 1.0007958 179.17647
12000000000 1.0006173 179.31178 0.0056129945 92.520164 0.005616392 92.389633 1.0010991 179.15895
12100000000 1.0005916 179.27884 0.0056382278 92.493477 0.0056402204 92.408173 1.0008359 179.16202
12200000000 1.0005633 179.29729 0.0056794365 92.524612 0.0056725363 92.42717 1.0012944 179.14372
12300000000 1.0004532 179.26395 0.0057166093 92.707191 0.0057189954 92.747574 1.0009984 179.15808
12400000000 1.0006721 179.28564 0.0057592359 92.770607 0.0057561593 92.784409 1.0013989 179.13872
12500000000 1.0004202 179.25984 0.005797497 92.773376 0.0057874015 92.758423 1.0009476 179.16063
12600000000 1.0008316 179.26979 0.0058336784 93.018875 0.0058423239 92.905136 1.0011852 179.12584
12700000000 1.0002977 179.25932 0.005873675 92.927155 0.0058785826 93.049736 1.0009017 179.14413
12800000000 1.0007317 179.25899 0.0059354934 93.008057 0.005923342 93.113785 1.0010312 179.09953
12900000000 1.0002456 179.26498 0.0059699025 93.087257 0.0059724357 93.179832 1.0010399 179.12065
13000000000 1.0009196 179.25203 0.0060140267 93.127754 0.0060057892 93.079384 1.0010911 179.08327
13100000000 1.0005665 179.26047 0.0060467562 93.131142 0.0060490193 93.302658 1.0012306 179.10764
13200000000 1.0008186 179.22368 0.0060790679 93.330757 0.006080369 93.404419 1.0011511 179.07803
13300000000 1.0005893 179.23152 0.0061256294 93.509071 0.0061170496 93.519394 1.0012745 179.09944
13400000000 1.0007759 179.1944 0.0061628488 93.603569 0.0061651049 93.68364 1.0010213 179.06476
13500000000 1.000833 179.21548 0.0062017036 93.986229 0.0062094014 93.972641 1.0012221 179.08562
13600000000 1.0008138 179.17456 0.0062481705 94.158455 0.0062546642 94.132858 1.000805 179.0538
13700000000 1.0010358 179.19293 0.0062917289 94.396545 0.0062925112 94.315628 1.0011982 179.05267
13800000000 1.0007613 179.17819 0.0063339146 94.629662 0.0063495245 94.613594 1.0008366 179.02954
13900000000 1.0009768 179.18631 0.0063863518 94.827286 0.0063867224 94.921104 1.0013347 179.03076
14000000000 1.0005611 179.16814 0.0064537949 95.172173 0.006447203 95.232483 1.0009966 179.0226
14100000000 1.0008414 179.15837 0.0065164156 95.414154 0.0065186322 95.401123 1.001426 179.01999
14200000000 1.0004365 179.15334 0.0065938504 95.718086 0.0065948674 95.710831 1.0009872 179.02568
14300000000 1.000737 179.13042 0.0066667949 95.879997 0.0066673085 95.872536 1.001315 179.00078
14400000000 1.0005817 179.13559 0.0067422162 96.102325 0.0067430106 96.071434 1.0008885 179.00752
14500000000 1.0009065 179.1152 0.006815067 96.278427 0.0068184487 96.196854 1.0011392 178.97559
14600000000 1.0009314 179.1387 0.0068991538 96.451431 0.0069005382 96.345634 1.0009882 178.98843
14700000000 1.0009077 179.11461 0.0069713588 96.521194 0.0069683907 96.542595 1.0012167 178.95256
14800000000 1.0009907 179.14546 0.0070579527 96.693588 0.0070553143 96.751228 1.0011334 178.97815
14900000000 1.0006226 179.11264 0.0071332566 96.860718 0.0071236258 96.797829 1.0011498 178.94418
15000000000 1.0009171 179.12607 0.0072174934 97.0849 0.0072178352 97.067825 1.0012751 178.96886
15100000000 1.0003147 179.09802 0.0073145805 97.353096 0.007315449 97.308632 1.0011079 178.93182
15200000000 1.0009587 179.092 0.0074464926 97.580505 0.0074343504 97.510841 1.0013117 178.95328
15300000000 1.0005215 179.07765 0.0075574131 97.659409 0.0075489762 97.564186 1.0009487 178.91447
15400000000 1.0012494 179.06676 0.0077081118 97.772263 0.0077072312 97.667671 1.0013475 178.93188
15500000000 1.0007509 179.08446 0.0078421235 97.551682 0.0078301067 97.602989 1.0008945 178.90076
15600000000 1.0013568 179.07112 0.0079938974 97.341896 0.008001185 97.438774 1.0013924 178.91678
15700000000 1.0007272 179.11118 0.0081381658 96.979401 0.0081422757 96.966774 1.0007761 178.89192
15800000000 1.0010427 179.07297 0.0082723675 96.577705 0.0082743475 96.521347 1.0014169 178.89197
15900000000 1.0006533 179.10428 0.0084031476 95.949821 0.0083974907 95.975883 1.0007792 178.8791
16000000000 1.0006448 179.04955 0.0085127251 95.262596 0.0085142292 95.289581 1.0014486 178.87396
16100000000 1.0007112 179.06606 0.0085901823 94.676521 0.0085803401 94.658356 1.0007378 178.87292
16200000000 1.0006369 179.01794 0.0086513581 94.171524 0.008644023 94.177071 1.0013353 178.8624
16300000000 1.0010983 179.0354 0.0087273251 93.831734 0.0087231658 93.810181 1.0007325 178.8746
16400000000 1.0008873 179.0135 0.0088016326 93.53476 0.0087972078 93.600769 1.0013292 178.85027
16500000000 1.0013953 179.02887 0.0089240624 93.169716 0.0089186449 93.130257 1.0007812 178.85551
16600000000 1.0008664 179.02492 0.0090323389 92.433502 0.0090262005 92.454071 1.0010585 178.81929
16700000000 1.0013283 179.03136 0.0091216583 91.73912 0.0091194799 91.652679 1.0009323 178.83199
16800000000 1.0007291 179.02676 0.0091958158 90.965408 0.0091876928 90.917404 1.0011817 178.80219
16900000000 1.0009879 178.99736 0.0092425952 90.095901 0.0092453184 90.033752 1.0010653 178.82797
17000000000 1.0007424 178.99445 0.0092588793 89.097076 0.009255575 89.086044 1.0011386 178.79793
17100000000 1.0008566 178.95016 0.0092033232 88.410049 0.0092036091 88.261673 1.0010478 178.82649
17200000000 1.0009385 178.95554 0.009141678 88.01104 0.0091461334 88.012939 1.0008808 178.78949
17300000000 1.0009115 178.92769 0.0090991706 87.641731 0.0091043394 87.649261 1.00102 178.80299
17400000000 1.0011578 178.94278 0.0090821655 87.732986 0.009057832 87.687408 1.0008148 178.77303
17500000000 1.0007652 178.93541 0.0090577779 87.785126 0.0090666087 87.765373 1.0011297 178.7699
17600000000 1.0010729 178.94412 0.0091145253 87.832443 0.0090881577 87.740547 1.0008731 178.75182
17700000000 1.0005568 178.94733 0.0091324309 87.81263 0.0091241645 87.817162 1.0013585 178.75661
17800000000 1.0008806 178.92584 0.009185194 87.651367 0.0091761826 87.609276 1.0009094 178.75124
17900000000 1.0003742 178.92621 0.0092493445 87.500084 0.0092318356 87.468056 1.0013837 178.74706
18000000000 1.0008619 178.88901 0.0092847245 87.327087 0.0092871031 87.402519 1.0007681 178.75368
18100000000 1.0005423 178.90633 0.0093108015 87.046013 0.0093234098 87.076393 1.0012398 178.73033
18200000000 1.0008814 178.86766 0.0093710087 86.860039 0.0093686199 86.786079 1.0006793 178.7373
18300000000 1.0008142 178.89906 0.0094168307 86.596237 0.0094055487 86.611359 1.0011569 178.70609
18400000000 1.0008632 178.85995 0.0094600702 85.984871 0.0094395773 86.021896 1.0008596 178.72383
18500000000 1.0008947 178.90738 0.0094764046 85.638367 0.0094947228 85.647469 1.0012585 178.68622
18600000000 1.0006337 178.86467 0.0094497558 85.076073 0.0094500333 85.04377 1.0009804 178.72623
18700000000 1.0009378 178.90479 0.0093944995 85.008377 0.0093926415 85.082939 1.001327 178.67743
18800000000 1.0003549 178.86484 0.0094020003 85.326485 0.0093844598 85.422653 1.0009705 178.72198
18900000000 1.0009497 178.88347 0.0094343321 85.494164 0.0094406586 85.481621 1.0011691 178.66577
19000000000 1.0002261 178.84915 0.0094913971 85.459763 0.0094921831 85.314537 1.001194 178.70882
19100000000 1.0009749 178.84485 0.0095686093 85.358734 0.0095826127 85.370499 1.001037 178.6577
19200000000 1.0003633 178.83858 0.0096727563 85.018097 0.0096553918 85.059387 1.0012846 178.69835
19300000000 1.0010377 178.82066 0.009736428 84.493019 0.0097217001 84.544136 1.0008055 178.65074
19400000000 1.0004678 178.82832 0.0097420402 84.229454 0.0097390311 84.25692 1.001245 178.68146
19500000000 1.0010929 178.80644 0.0097882627 83.876038 0.0097992364 83.848137 1.0008136 178.63257
19600000000 1.0006171 178.8313 0.0098560518 83.20108 0.0098520666 83.220284 1.0013032 178.66737
19700000000 1.0009954 178.80597 0.0098643256 82.467789 0.0098640248 82.507607 1.0008643 178.62856
19800000000 1.0006106 178.83728 0.0098529933 81.91391 0.0098517071 81.905838 1.0015051 178.6595
19900000000 1.000518 178.79053 0.009816899 81.233009 0.0098279342 81.20134 1.0008783 178.63297
20000000000 1.0004933 178.80981 0.0097176135 80.555969 0.0097116111 80.656761 1.0015782 178.66113
20100000000 1.0003165 178.76076 0.0095895911 80.281685 0.0095873363 80.37101 1.000645 178.64101
20200000000 1.000587 178.76439 0.0094918851 80.622635 0.0095071159 80.564362 1.0013292 178.63734
20300000000 1.0002952 178.73915 0.0094475253 80.72908 0.0094601456 80.808113 1.0005853 178.6167
20400000000 1.000857 178.75198 0.0094427476 81.085426 0.0094655333 81.060921 1.0012484 178.59369
20500000000 1.0004448 178.75569 0.0095141344 80.952309 0.0095068347 81.002014 1.0006744 178.59277
20600000000 1.0008618 178.76299 0.0095325429 80.674408 0.0095370673 80.679306 1.0015036 178.57085
20700000000 1.000308 178.78291 0.009527348 80.558121 0.0095361853 80.57222 1.001146 178.61993
