!Keysight Technologies,N5247B,MY61255062,A.15.50.07
!Date: Thursday, February 13, 2025 10:38:38
!Correction: S11(C  2-Port  ) 
!S21(C  2-Port  ) 
!S12(C  2-Port  ) 
!S22(C  2-Port  ) 
!S2P File: Measurements: S11, S21, S12, S22:
# Hz S  MA   R 50
500000000 0.0025445181 -151.97424 1.0000038 -0.11658413 1.0000451 -0.11660323 0.0025271641 -27.431366
600000000 0.0027343913 -147.72737 1.0000333 -0.13977019 1.0000899 -0.14057158 0.0026174858 -31.825792
700000000 0.0028409078 -143.29076 1.0000744 -0.16343449 1.0001429 -0.16298793 0.002799538 -36.159004
800000000 0.0030629486 -141.13156 1.0001243 -0.18658473 1.0001029 -0.18689436 0.0029208416 -39.645802
900000000 0.0032127579 -136.92972 1.0001627 -0.2130165 1.0000756 -0.21123928 0.00306695 -42.642128
1000000000 0.003352575 -133.8396 1.0001081 -0.23530255 1.0001227 -0.23761261 0.0032007124 -46.280602
1100000000 0.0035502492 -130.27469 1.0000851 -0.2597872 1.000122 -0.26192379 0.0033673204 -49.195324
1200000000 0.0037876528 -128.94771 1.000119 -0.28489888 1.0001509 -0.28547195 0.0035881717 -51.217827
1300000000 0.0039692074 -127.27863 1.0001149 -0.30924377 1.0001999 -0.31092814 0.0037844577 -53.715256
1400000000 0.004186321 -125.76823 1.0000513 -0.33493805 1.0001611 -0.33555096 0.0039649685 -57.175709
1500000000 0.0044338526 -123.75066 1.0000684 -0.3610898 1.0001385 -0.36040032 0.004143679 -58.539593
1600000000 0.0046866792 -121.93621 1.0000426 -0.38935333 1.0001047 -0.38925061 0.0043935119 -61.439846
1700000000 0.0049783229 -120.75721 0.99999583 -0.41574705 1.0000238 -0.41600522 0.0045709703 -63.581646
1800000000 0.0052689733 -120.87473 0.99990529 -0.442009 0.99996901 -0.4422797 0.004836699 -65.516129
1900000000 0.0056163357 -120.90196 0.99972588 -0.47002807 0.9997735 -0.47107491 0.0049879416 -69.363922
2000000000 0.0057921181 -123.09982 0.99955112 -0.48822501 0.99960101 -0.48952329 0.005090334 -70.559128
2100000000 0.0059311236 -122.67361 0.9994126 -0.50852609 0.99944156 -0.50797147 0.0051884763 -72.759224
2200000000 0.006086729 -124.01886 0.99918079 -0.5202961 0.99924707 -0.51928246 0.0050729825 -76.294609
2300000000 0.0058184708 -124.50818 0.99925011 -0.52255851 0.99934185 -0.52263016 0.0048989318 -74.224037
2400000000 0.0058197109 -121.79395 0.99942654 -0.53996921 0.99955887 -0.54022056 0.0050618807 -71.611626
2500000000 0.0058846814 -119.39515 0.99967295 -0.56467354 0.99971861 -0.56431466 0.0053399173 -70.291496
2600000000 0.0060851723 -117.00554 0.99967963 -0.59081477 0.99981242 -0.59359193 0.0056715407 -70.338425
2700000000 0.0063150208 -115.68406 0.99961632 -0.61454284 0.99975491 -0.61871415 0.0059527694 -70.446693
2800000000 0.006580831 -114.56603 0.9995991 -0.63630563 0.99979413 -0.63929522 0.0062549179 -72.105103
2900000000 0.00685712 -113.7482 0.9996565 -0.66194057 0.99976712 -0.66369152 0.0064627579 -72.675323
3000000000 0.0070305467 -113.40838 0.99959928 -0.68291426 0.99971008 -0.68374223 0.0066055623 -73.966599
3100000000 0.0071999095 -112.36219 0.99967659 -0.71018213 0.99977821 -0.71127713 0.0068709496 -73.259529
3200000000 0.0074719694 -111.79382 0.99966377 -0.73451585 0.99971926 -0.7371347 0.0070526479 -75.075584
3300000000 0.0076859407 -111.50386 0.99962401 -0.75870091 0.99964374 -0.76192147 0.0072602946 -75.218376
3400000000 0.0078870161 -111.35245 0.99947518 -0.78250706 0.99960113 -0.78460711 0.0074554868 -76.77327
3500000000 0.0080934204 -111.66675 0.99945396 -0.80094451 0.9994626 -0.80276924 0.0075788675 -77.300896
3600000000 0.0081996592 -111.61974 0.99938035 -0.81388474 0.99945951 -0.81705475 0.0076607666 -77.740532
3700000000 0.0082655242 -110.76707 0.99956214 -0.83197337 0.99956805 -0.83551264 0.007760108 -77.387672
3800000000 0.0084563475 -109.67593 0.99961168 -0.8594501 0.99965966 -0.8628819 0.0080187349 -77.623192
3900000000 0.0086740805 -109.01259 0.99959779 -0.88486814 0.99964064 -0.88847584 0.0082075391 -77.34639
4000000000 0.008830742 -108.50994 0.99961412 -0.90926182 0.99966347 -0.91310334 0.0084389662 -77.429588
4100000000 0.0090128127 -107.98903 0.99958462 -0.93210363 0.9996646 -0.93556195 0.0086012185 -77.603424
4200000000 0.0092339041 -107.44387 0.99964827 -0.95628071 0.99963939 -0.9600724 0.0088182995 -78.027985
4300000000 0.0093976976 -107.29034 0.99959427 -0.98115188 0.99960923 -0.98449272 0.0090276487 -78.023865
4400000000 0.0096283108 -106.99997 0.99957567 -1.0039176 0.99955612 -1.0075712 0.009221388 -78.415985
4500000000 0.0097874887 -106.5377 0.99955446 -1.025812 0.99955165 -1.0298898 0.0094174976 -78.466721
4600000000 0.010000152 -106.11349 0.99957204 -1.0500845 0.99956709 -1.0540041 0.0096570915 -78.803337
4700000000 0.010223803 -105.77888 0.99958575 -1.0731852 0.99956685 -1.0781825 0.0098566106 -78.839622
4800000000 0.010385701 -105.0567 0.99956065 -1.0978751 0.99951196 -1.1024262 0.010052223 -78.64061
4900000000 0.010574115 -104.6304 0.99956584 -1.1208979 0.99953955 -1.1279389 0.010275761 -78.95565
5000000000 0.010751614 -104.41733 0.99951786 -1.1450742 0.99947047 -1.1529258 0.010480675 -79.033524
5100000000 0.010941231 -103.86147 0.99954593 -1.1686115 0.99949455 -1.1773846 0.010680532 -79.237
5200000000 0.011086983 -103.61138 0.99950874 -1.1914805 0.99947011 -1.2010891 0.010842293 -79.540779
5300000000 0.011315512 -103.21133 0.9994818 -1.2153651 0.99945664 -1.223681 0.011053873 -79.701614
5400000000 0.011500061 -102.8602 0.99946386 -1.2407025 0.99942338 -1.2481444 0.011287137 -79.778412
5500000000 0.011761214 -102.61794 0.99944288 -1.2658882 0.99936259 -1.2724372 0.011513043 -79.956741
5600000000 0.011890594 -102.20295 0.99941313 -1.289526 0.99934101 -1.2973527 0.01170769 -79.762306
5700000000 0.012138053 -102.16202 0.99933368 -1.3155662 0.99933499 -1.321449 0.011929545 -80.249313
5800000000 0.012254459 -101.36157 0.99928921 -1.3403777 0.999264 -1.346329 0.012123689 -79.889542
5900000000 0.012493572 -101.38571 0.99923831 -1.365768 0.99922162 -1.370683 0.012303711 -80.346138
6000000000 0.012651974 -100.57767 0.99922287 -1.3896687 0.99916846 -1.3965589 0.012537823 -80.050102
6100000000 0.012863507 -100.94458 0.9991501 -1.4146923 0.99909323 -1.4195589 0.012688712 -80.517273
6200000000 0.013049175 -100.30461 0.99907905 -1.4391032 0.9990713 -1.4434092 0.012962122 -80.200966
6300000000 0.013238838 -100.51606 0.99898559 -1.4637587 0.99896026 -1.4679234 0.013066019 -80.542992
6400000000 0.013423071 -99.745667 0.99895966 -1.4886875 0.99893987 -1.4917197 0.013376261 -80.219345
6500000000 0.013595113 -99.685402 0.99886608 -1.5111076 0.99885035 -1.5147328 0.013488423 -80.474556
6600000000 0.013883809 -98.969254 0.99879044 -1.5368661 0.99874884 -1.5430554 0.01380692 -80.302299
6700000000 0.014013277 -98.75666 0.99872786 -1.5613509 0.99866217 -1.5671667 0.013917858 -80.282639
6800000000 0.014317621 -98.288742 0.99859351 -1.5865324 0.99854517 -1.5924529 0.014220307 -80.35582
6900000000 0.014445202 -97.918785 0.99850327 -1.6089175 0.99841732 -1.618088 0.014340716 -80.274437
7000000000 0.014703095 -97.587036 0.99838483 -1.6314249 0.99827707 -1.6413293 0.014641082 -80.429337
7100000000 0.01482488 -96.976524 0.99825925 -1.6547676 0.99818009 -1.6634328 0.014775252 -80.083481
7200000000 0.015151241 -96.866013 0.99806672 -1.6763637 0.99806792 -1.6866956 0.01507244 -80.190659
7300000000 0.015365612 -96.443489 0.99798065 -1.6999626 0.9979642 -1.7089587 0.015282635 -79.769867
7400000000 0.015623339 -96.481964 0.99778867 -1.7181966 0.9977988 -1.7294344 0.015588417 -79.837967
7500000000 0.015879842 -95.88826 0.99765348 -1.7407413 0.9976548 -1.749972 0.015899118 -79.510757
7600000000 0.016152641 -95.770996 0.99750358 -1.7598454 0.99749118 -1.7697338 0.016169084 -79.586617
7700000000 0.01650488 -95.213097 0.99732953 -1.7814571 0.99733037 -1.7887931 0.016495489 -79.550957
7800000000 0.016736213 -94.778397 0.99719059 -1.8012261 0.99711323 -1.8060256 0.016732058 -79.528831
7900000000 0.017109727 -94.467155 0.99701339 -1.8179073 0.99695808 -1.8234044 0.01713055 -79.589073
8000000000 0.017280616 -94.158096 0.99688071 -1.8319777 0.99683821 -1.8386987 0.017366137 -79.568512
8100000000 0.017708747 -94.146576 0.99673504 -1.8493481 0.99667454 -1.8555149 0.017755879 -79.847801
8200000000 0.01791553 -93.778168 0.99659431 -1.8594168 0.99653834 -1.8659998 0.017973691 -79.935799
8300000000 0.01842322 -93.983307 0.99645847 -1.8735105 0.99637532 -1.8799579 0.018462639 -80.340729
8400000000 0.018734846 -93.752739 0.9963724 -1.886463 0.99635792 -1.8915114 0.018749176 -80.339828
8500000000 0.01916844 -94.115166 0.99624711 -1.8991132 0.9962756 -1.9052017 0.019193741 -80.801582
8600000000 0.01951362 -93.795128 0.99618679 -1.910592 0.99621087 -1.9181056 0.019471986 -80.775314
8700000000 0.019922419 -94.110695 0.99610204 -1.9237866 0.99615061 -1.9292104 0.019915383 -81.52121
8800000000 0.020333957 -93.743851 0.99607384 -1.9366009 0.99612552 -1.9424915 0.020211324 -81.703102
8900000000 0.020779163 -94.429779 0.99606544 -1.9474592 0.99607468 -1.9553982 0.02054769 -82.779518
9000000000 0.021096401 -94.791748 0.99610585 -1.9591486 0.99611348 -1.9640632 0.020765543 -83.041344
9100000000 0.021258539 -95.749733 0.99614358 -1.9678441 0.99610776 -1.9775614 0.02098332 -83.916817
9200000000 0.021499006 -95.997131 0.99616754 -1.9835365 0.99621284 -1.9915346 0.021191668 -84.013588
9300000000 0.021583274 -96.519386 0.99621505 -1.9971969 0.99623919 -2.0034564 0.021353917 -84.829819
9400000000 0.021819076 -96.664368 0.99632132 -2.0134552 0.99630374 -2.0166464 0.021524008 -84.71093
9500000000 0.021940229 -96.92804 0.99638563 -2.0281537 0.99634445 -2.0343087 0.021717615 -85.432526
9600000000 0.022214867 -97.120422 0.99644911 -2.045213 0.99638867 -2.0508342 0.021857934 -85.362976
9700000000 0.022287155 -97.165085 0.99653441 -2.0632067 0.99650031 -2.0698977 0.021970456 -86.072701
9800000000 0.022505932 -97.244339 0.99654144 -2.0811334 0.99656999 -2.088042 0.022133334 -85.969055
9900000000 0.022607921 -97.055305 0.99661875 -2.0997679 0.99663013 -2.1031454 0.02224463 -86.361778
10000000000 0.022762697 -97.145119 0.9966343 -2.1176393 0.99666929 -2.1246817 0.022467833 -86.066017
10100000000 0.02287877 -97.003914 0.9966749 -2.1348515 0.99671006 -2.1420367 0.022596981 -86.479904
10200000000 0.023030652 -97.204605 0.99677348 -2.1551962 0.99675137 -2.1620252 0.022751449 -86.241272
10300000000 0.023224471 -97.155655 0.9968456 -2.1765394 0.99681956 -2.1831603 0.022934042 -86.576477
10400000000 0.02338193 -97.383873 0.99686366 -2.1949837 0.99688828 -2.2023125 0.023110328 -86.540413
10500000000 0.023653897 -97.235107 0.9968695 -2.2171714 0.99697822 -2.2239518 0.023299333 -86.955933
10600000000 0.023793489 -97.421616 0.99687767 -2.2365336 0.99697208 -2.2437007 0.023532381 -86.960251
10700000000 0.024004953 -97.313766 0.99694151 -2.2568603 0.99694371 -2.2650898 0.023679331 -87.263649
10800000000 0.024134062 -97.22998 0.99694991 -2.2786791 0.99692416 -2.2849343 0.023834616 -87.26091
10900000000 0.024249788 -97.194435 0.99699718 -2.3012395 0.99696684 -2.3051236 0.023932077 -87.199226
11000000000 0.024379931 -97.061363 0.99703056 -2.3218591 0.99696714 -2.3262665 0.024090189 -87.229309
11100000000 0.024516543 -97.002808 0.99706864 -2.3432863 0.99702746 -2.3465815 0.02419381 -87.120575
11200000000 0.024656333 -96.806091 0.99706453 -2.3642087 0.99707317 -2.3690801 0.024380181 -87.152451
11300000000 0.024879826 -96.862526 0.99708462 -2.3867304 0.99709839 -2.391259 0.024471898 -87.027473
11400000000 0.025055677 -96.558769 0.99710792 -2.4103792 0.99711138 -2.4147568 0.024737254 -87.106056
11500000000 0.025226293 -96.428589 0.99712384 -2.4324486 0.99709362 -2.4377418 0.024936384 -86.851212
11600000000 0.025502495 -96.088387 0.99706155 -2.4544456 0.99705487 -2.4599133 0.025214255 -86.873077
11700000000 0.025689231 -95.891708 0.99697709 -2.4771731 0.99701595 -2.4821744 0.025415601 -86.563126
11800000000 0.025922218 -95.617493 0.99695462 -2.4993417 0.99694771 -2.5060332 0.025650406 -86.596016
11900000000 0.025999283 -95.402794 0.99693102 -2.522716 0.99695069 -2.5291581 0.025838068 -86.256271
12000000000 0.026302723 -95.172432 0.99689341 -2.5460672 0.99685079 -2.5517271 0.026033303 -86.408783
12100000000 0.026447941 -94.801384 0.99684972 -2.5669408 0.99678475 -2.5734251 0.026295492 -85.982475
12200000000 0.026759626 -94.747551 0.99666798 -2.5870681 0.99668914 -2.5925574 0.026547357 -86.1409
12300000000 0.026970048 -94.322464 0.99662364 -2.6087246 0.99661249 -2.6141274 0.026868029 -85.802765
12400000000 0.027332369 -94.417641 0.9964909 -2.6288385 0.99650061 -2.6343415 0.027117938 -85.894165
12500000000 0.027633306 -93.874336 0.99636495 -2.6508977 0.99636114 -2.656352 0.027562374 -85.47419
12600000000 0.027914338 -93.959007 0.99629909 -2.6663823 0.99629551 -2.6747491 0.027719421 -85.549797
12700000000 0.028208967 -93.290451 0.99617541 -2.6850471 0.99616408 -2.6950614 0.028242148 -85.132599
12800000000 0.028402094 -93.414131 0.99611008 -2.7006905 0.9960742 -2.7104998 0.028390113 -85.187546
12900000000 0.028831279 -92.827408 0.99597764 -2.7193325 0.99594599 -2.7288799 0.028993214 -85.317497
13000000000 0.02906193 -92.970772 0.995902 -2.7362177 0.9958809 -2.7451591 0.028993903 -85.520981
13100000000 0.029608533 -92.380157 0.99573272 -2.7546315 0.99563968 -2.7629738 0.029441312 -85.643532
13200000000 0.029798241 -92.502869 0.9955408 -2.7691276 0.99553174 -2.7770512 0.029574933 -85.270065
13300000000 0.030375812 -92.210045 0.99538153 -2.7820075 0.99537456 -2.7919266 0.030128006 -85.326607
13400000000 0.03047983 -92.127747 0.99528354 -2.7917991 0.99529797 -2.8019187 0.030320834 -84.908691
13500000000 0.031236088 -92.172096 0.99513513 -2.8039751 0.99516165 -2.8134227 0.030929577 -85.028267
13600000000 0.031366825 -92.003235 0.99503487 -2.8142178 0.99504983 -2.820683 0.031185592 -84.712334
13700000000 0.03200379 -92.28212 0.99493271 -2.8209596 0.99496174 -2.828939 0.031670444 -84.97171
13800000000 0.032347929 -91.970901 0.99484015 -2.8272429 0.99493456 -2.8349535 0.032119405 -84.834892
13900000000 0.032919187 -92.33754 0.99478513 -2.8322895 0.99484801 -2.8394845 0.032584835 -85.276543
14000000000 0.033362336 -92.075302 0.99477839 -2.8392847 0.9948402 -2.8481028 0.033112396 -85.194626
14100000000 0.033781074 -92.521629 0.99476755 -2.8451419 0.9947927 -2.8498957 0.033537604 -85.692886
14200000000 0.034297477 -92.366219 0.99480122 -2.8510003 0.99483711 -2.8590965 0.034199182 -85.625336
14300000000 0.0345539 -92.880653 0.99485165 -2.8540802 0.99485219 -2.8633161 0.034433071 -86.020241
14400000000 0.035180233 -92.826447 0.99482781 -2.8624496 0.99486548 -2.8706098 0.035126038 -86.227707
14500000000 0.035426088 -93.305031 0.99490017 -2.8636391 0.99498308 -2.8682599 0.03536322 -86.559601
14600000000 0.036218993 -93.666451 0.99501741 -2.868695 0.99500459 -2.8753903 0.036155947 -86.911003
14700000000 0.036416851 -94.068779 0.99511808 -2.8682446 0.99516749 -2.8738816 0.036322411 -87.353096
14800000000 0.037268061 -94.605324 0.9952209 -2.8726168 0.99525255 -2.8754308 0.037125651 -87.977798
14900000000 0.037377093 -94.748154 0.99548155 -2.8747945 0.99553013 -2.8798399 0.037308838 -88.344772
15000000000 0.038015142 -95.478149 0.99565077 -2.8796082 0.99574685 -2.8831892 0.037987195 -89.150322
15100000000 0.038059633 -95.497681 0.99603355 -2.8849428 0.99608237 -2.891789 0.038196318 -89.469124
15200000000 0.03854543 -96.477448 0.9962917 -2.892092 0.99633884 -2.8989704 0.038713746 -90.424103
15300000000 0.03868432 -96.520401 0.99664265 -2.9074144 0.99667788 -2.9095349 0.038809668 -90.722069
15400000000 0.03900215 -97.608887 0.99690199 -2.9133224 0.99691546 -2.9183142 0.039219901 -91.730331
15500000000 0.039307468 -97.64637 0.99724054 -2.9285719 0.9972558 -2.9346368 0.039444886 -91.922836
15600000000 0.039548364 -98.570389 0.99754244 -2.9393046 0.997527 -2.9457226 0.039769534 -92.958923
15700000000 0.03998027 -98.660866 0.99779874 -2.9567933 0.99782747 -2.9632604 0.039935496 -93.0849
15800000000 0.039888088 -99.458977 0.99815649 -2.9764512 0.99817032 -2.9798307 0.040055212 -94.195427
15900000000 0.040197205 -99.523209 0.99841696 -2.9944437 0.99846059 -3.0001099 0.040201765 -94.342873
16000000000 0.039993968 -99.974892 0.99876612 -3.0135624 0.99877596 -3.0183334 0.04018921 -95.330238
16100000000 0.040273517 -100.26852 0.99907219 -3.0337079 0.9990465 -3.0400045 0.040354803 -95.428162
16200000000 0.040056992 -100.59869 0.99940073 -3.0512717 0.99938387 -3.0587301 0.040269341 -96.265366
16300000000 0.040340241 -101.14597 0.999713 -3.0732148 0.99967426 -3.0805459 0.040444754 -96.347595
16400000000 0.040206105 -101.33691 1.0000739 -3.095845 1.0000467 -3.1042604 0.040317714 -97.076019
16500000000 0.040473573 -101.93069 1.000383 -3.1219132 1.000324 -3.1289217 0.040387277 -97.088707
16600000000 0.040367894 -101.79671 1.0006237 -3.1530123 1.0005995 -3.1571057 0.04022935 -97.633591
16700000000 0.040523984 -102.24563 1.0008039 -3.1722894 1.0008039 -3.1843827 0.040235944 -97.757065
16800000000 0.040456712 -102.02567 1.001086 -3.2030623 1.0010741 -3.214638 0.040081188 -98.135307
16900000000 0.040389918 -102.35468 1.0012459 -3.2301319 1.0012254 -3.2431343 0.040124755 -98.197441
17000000000 0.040442888 -102.15861 1.0014396 -3.2590418 1.0013822 -3.272419 0.040018171 -98.369949
17100000000 0.040397752 -102.46095 1.0015504 -3.2849569 1.0015475 -3.2967653 0.04004544 -98.215248
17200000000 0.040513176 -102.46148 1.0016726 -3.3104692 1.0016828 -3.3226306 0.040014375 -98.279259
17300000000 0.040465776 -102.82375 1.0018843 -3.3351595 1.0019029 -3.3454542 0.040024243 -98.243538
17400000000 0.040582076 -103.04792 1.0020633 -3.3596101 1.0020329 -3.3699462 0.04007753 -98.308929
17500000000 0.040492445 -102.98119 1.0022602 -3.3829067 1.0021813 -3.3954678 0.04015886 -98.343185
17600000000 0.04057049 -103.02896 1.0024428 -3.4096603 1.0024337 -3.4235597 0.040263843 -98.479385
17700000000 0.040605061 -102.77402 1.00266 -3.4371219 1.0026063 -3.447001 0.040376842 -98.725739
17800000000 0.040681891 -102.78655 1.0028627 -3.4696858 1.0027319 -3.4803696 0.040453598 -98.648697
17900000000 0.040746514 -102.62859 1.0029657 -3.4958282 1.0028776 -3.5034738 0.040527999 -98.804695
18000000000 0.040693071 -102.75137 1.0030572 -3.5289752 1.0029899 -3.5375199 0.040574875 -98.601166
18100000000 0.040844999 -102.70227 1.0031899 -3.5593677 1.0031403 -3.5635757 0.040634207 -98.706696
18200000000 0.04080046 -102.7117 1.0032345 -3.5865517 1.0032449 -3.5946181 0.040751994 -98.490906
18300000000 0.041023668 -102.69716 1.0033722 -3.6145673 1.0033344 -3.6220634 0.040821839 -98.678421
18400000000 0.040981807 -102.59221 1.0034322 -3.641593 1.0034519 -3.6543503 0.041010551 -98.542915
18500000000 0.041269608 -102.6749 1.0034727 -3.6630135 1.0034622 -3.6767912 0.041134931 -98.703934
18600000000 0.041354876 -102.43529 1.0035572 -3.6910701 1.0035133 -3.7024412 0.041465715 -98.548248
18700000000 0.041541781 -102.44968 1.0035886 -3.7112885 1.0035795 -3.720367 0.041483983 -98.792007
18800000000 0.041766688 -102.02156 1.0036411 -3.739336 1.003668 -3.7462862 0.041907344 -98.605751
18900000000 0.041870058 -102.34994 1.0038499 -3.7592909 1.0038446 -3.7683883 0.041816402 -98.878433
19000000000 0.042105671 -102.03799 1.0039726 -3.7907627 1.0039502 -3.79561 0.042240497 -98.883911
19100000000 0.042120565 -102.30804 1.0040815 -3.8182106 1.0040594 -3.8190525 0.042101923 -99.012466
19200000000 0.042465806 -102.23589 1.0041676 -3.8470819 1.0041188 -3.8498273 0.042564459 -99.135872
19300000000 0.04233785 -102.42356 1.0043281 -3.8760316 1.004253 -3.879437 0.042407662 -99.082382
19400000000 0.042732678 -102.31953 1.0043672 -3.8970954 1.0043727 -3.9050202 0.042872503 -99.335228
19500000000 0.042549029 -102.46555 1.0045371 -3.9259164 1.0045412 -3.9282706 0.042586241 -99.268738
19600000000 0.043054931 -102.49568 1.0045922 -3.9518266 1.0046233 -3.9557185 0.04307685 -99.507309
19700000000 0.042989757 -102.41811 1.0046947 -3.9816678 1.0047172 -3.9843769 0.042861618 -99.475906
19800000000 0.043323755 -102.52122 1.0047241 -4.0024729 1.0047835 -4.0077147 0.043325588 -99.804138
19900000000 0.043140501 -102.30241 1.0048822 -4.0294499 1.0049313 -4.0386553 0.043197855 -99.504265
