! D:\calibration_data\load_pull_templates\Focus_LPWAVE_Project\default\CONA.S2P
# GHZ S MA R 50
 0.050000000  0.2645831 -51.931  1.0194785   1.941  1.0194785   1.941  0.2590146 124.512 
 0.100000000  0.1660113 -65.113  1.0138318   0.551  1.0138318   0.551  0.1628258 111.907 
 0.150000000  0.1200001 -72.705  1.0075234   0.220  1.0075234   0.220  0.1197214 105.885 
 0.200000000  0.0960566 -77.207  1.0051621   0.118  1.0051621   0.118  0.0968143 101.646 
 0.250000000  0.0810328 -80.552  1.0044746   0.076  1.0044746   0.076  0.0824135  97.642 
 0.300000000  0.0720549 -86.650  1.0024222  -0.007  1.0024222  -0.007  0.0724723  93.766 
 0.350000000  0.0649010 -91.496  1.0010042  -0.058  1.0010042  -0.058  0.0643821  90.629 
 0.400000000  0.0589272 -93.824  1.0014101 179.944  1.0014101 179.944  0.0589893  86.987 
 0.450000000  0.0554589 -96.790  1.0014164 179.924  1.0014164 179.924  0.0553035  83.546 
 0.500000000  0.0522757 -100.468  1.0007400 179.898  1.0007400 179.898  0.0514912  80.720 
 0.550000000  0.0494712 -102.254  1.0010056 179.883  1.0010056 179.883  0.0486107  77.966 
 0.600000000  0.0473043 -104.868  1.0009524 179.865  1.0009524 179.865  0.0461469  74.938 
 0.650000000  0.0457093 -107.534  1.0007826 179.861  1.0007826 179.861  0.0446265  72.377 
 0.700000000  0.0437709 -109.815  1.0007662 179.860  1.0007662 179.860  0.0429716  69.921 
 0.750000000  0.0417028 -111.601  1.0009556 179.858  1.0009556 179.858  0.0412425  67.459 
 0.800000000  0.0403848 -113.777  1.0008557 179.850  1.0008557 179.850  0.0399170  65.251 
 0.850000000  0.0391600 -116.059  1.0007564  -0.148  1.0007564  -0.148  0.0389412  63.125 
 0.900000000  0.0382838 -118.271  1.0005903  -0.158  1.0005903  -0.158  0.0378577  61.002 
 0.950000000  0.0373235 -120.270  1.0005776 179.843  1.0005776 179.843  0.0371364  59.046 
 1.000000000  0.0368950 -122.389  1.0003551 179.834  1.0003551 179.834  0.0364543  57.206 
 1.050000000  0.0364722 -124.334  1.0002362 179.826  1.0002362 179.826  0.0358417  55.378 
 1.100000000  0.0362959 -125.742  1.0001045 179.803  1.0001045 179.803  0.0351162  53.587 
 1.150000000  0.0358124 -126.878  1.0001071 179.797  1.0001071 179.797  0.0346214  52.319 
 1.200000000  0.0355734 -128.378  1.0000533 179.787  1.0000533 179.787  0.0342171  50.762 
 1.250000000  0.0353671 -129.756  0.9999494 179.775  0.9999494 179.775  0.0337750  49.120 
 1.300000000  0.0348665 -130.901  1.0000589 179.771  1.0000589 179.771  0.0335203  47.611 
 1.350000000  0.0345272 -132.239  1.0001135 179.762  1.0001135 179.762  0.0332456  45.895 
 1.400000000  0.0340409 -133.674  1.0001689 179.759  1.0001689 179.759  0.0329284  44.317 
 1.450000000  0.0339949 -134.996  1.0000447 179.751  1.0000447 179.751  0.0327794  42.988 
 1.500000000  0.0338096 -136.407  0.9999661 179.741  0.9999661 179.741  0.0324507  41.391 
 1.550000000  0.0336398 -138.132  0.9998700 179.738  0.9998700 179.738  0.0322946  39.884 
 1.600000000  0.0335161 -140.250  0.9996896 179.729  0.9996896 179.729  0.0318729  37.842 
 1.650000000  0.0329874 -141.828  0.9995945  -0.270  0.9995945  -0.270  0.0313198  36.507 
 1.700000000  0.0324408 -143.376  0.9995255  -0.282  0.9995255  -0.282  0.0306457  34.465 
 1.750000000  0.0314561 -145.347  0.9995369 179.719  0.9995369 179.719  0.0298826  32.491 
 1.800000000  0.0304946 -146.899  0.9994649  -0.280  0.9994649  -0.280  0.0289000  31.223 
 1.850000000  0.0288996 -148.333  0.9995088  -0.282  0.9995088  -0.282  0.0273683  29.597 
 1.900000000  0.0267896 -146.305  0.9995118  -0.287  0.9995118  -0.287  0.0251340  31.536 
 1.950000000  0.0267772 -143.329  0.9995623  -0.292  0.9995623  -0.292  0.0251676  34.799 
 2.000000000  0.0267962 -142.343  0.9996494  -0.297  0.9996494  -0.297  0.0253251  35.729 
 2.050000000  0.0268858 -140.210  0.9996109  -0.306  0.9996109  -0.306  0.0251634  38.036 
 2.100000000  0.0274287 -139.729  0.9995173  -0.316  0.9995173  -0.316  0.0255768  38.615 
 2.150000000  0.0276965 -138.109  0.9995677  -0.320  0.9995677  -0.320  0.0259559  40.537 
 2.200000000  0.0285740 -137.038  0.9996961  -0.329  0.9996961  -0.329  0.0268582  41.503 
 2.250000000  0.0297809 -136.796  0.9996231  -0.332  0.9996231  -0.332  0.0280944  42.041 
 2.300000000  0.0309839 -137.873  0.9996096  -0.344  0.9996096  -0.344  0.0292935  40.854 
 2.350000000  0.0316215 -139.840  0.9996614  -0.347  0.9996614  -0.347  0.0302299  38.721 
 2.400000000  0.0319051 -141.816  0.9996379  -0.350  0.9996379  -0.350  0.0306059  36.724 
 2.450000000  0.0319295 -143.378  0.9995746  -0.356  0.9995746  -0.356  0.0306670  35.143 
 2.500000000  0.0318900 -144.435  0.9995040  -0.368  0.9995040  -0.368  0.0304134  33.876 
 2.550000000  0.0316723 -145.208  0.9995842  -0.372  0.9995842  -0.372  0.0304089  32.920 
 2.600000000  0.0316454 -145.921  0.9995814  -0.380  0.9995814  -0.380  0.0304048  31.939 
 2.650000000  0.0316289 -146.289  0.9994965  -0.392  0.9994965  -0.392  0.0302325  31.231 
 2.700000000  0.0316362 -146.573  0.9993935  -0.404  0.9993935  -0.404  0.0300814  30.528 
 2.750000000  0.0313879 -147.109  0.9994834  -0.408  0.9994834  -0.408  0.0299366  29.910 
 2.800000000  0.0312459 -147.687  0.9995354 179.593  0.9995354 179.593  0.0298951  29.347 
 2.850000000  0.0312177 -148.108  0.9994514 179.588  0.9994514 179.588  0.0296754  29.002 
 2.900000000  0.0311404 -148.276  0.9994158 179.578  0.9994158 179.578  0.0294311  28.556 
 2.950000000  0.0308779 -148.385  0.9994766 179.574  0.9994766 179.574  0.0293004  28.586 
 3.000000000  0.0309423 -148.586  0.9995252 179.569  0.9995252 179.569  0.0294486  28.534 
 3.050000000  0.0311108 -148.843  0.9994607 179.567  0.9994607 179.567  0.0295113  28.488 
 3.100000000  0.0313678 -148.869  0.9993498 179.552  0.9993498 179.552  0.0295406  28.159 
 3.150000000  0.0313470 -149.166  0.9994120 179.545  0.9994120 179.545  0.0296698  27.680 
 3.200000000  0.0314088 -149.663  0.9994708 179.539  0.9994708 179.539  0.0298156  27.273 
 3.250000000  0.0314766 -150.206  0.9993642 179.535  0.9993642 179.535  0.0297760  26.807 
 3.300000000  0.0315212 -150.369  0.9992369 179.524  0.9992369 179.524  0.0295927  26.499 
 3.350000000  0.0314194 -150.639  0.9992623 179.518  0.9992623 179.518  0.0296527  26.078 
 3.400000000  0.0312553 -151.032  0.9993028  -0.481  0.9993028  -0.481  0.0295892  26.007 
 3.450000000  0.0312897 -151.139  0.9992715  -0.485  0.9992715  -0.485  0.0295438  25.924 
 3.500000000  0.0312602 -151.297  0.9992215  -0.488  0.9992215  -0.488  0.0294912  25.981 
 3.550000000  0.0313232 -151.212  0.9992779  -0.497  0.9992779  -0.497  0.0296497  25.740 
 3.600000000  0.0313314 -151.287  0.9993602  -0.503  0.9993602  -0.503  0.0298139  25.690 
 3.650000000  0.0313782 -151.464  0.9994173  -0.504  0.9994173  -0.504  0.0300030  25.802 
 3.700000000  0.0315973 -151.730  0.9993880  -0.514  0.9993880  -0.514  0.0301345  25.146 
 3.750000000  0.0316064 -151.826  0.9994019  -0.525  0.9994019  -0.525  0.0301409  24.853 
 3.800000000  0.0317499 -152.163  0.9994339  -0.534  0.9994339  -0.534  0.0303234  24.288 
 3.850000000  0.0316006 -152.420  0.9994829  -0.538  0.9994829  -0.538  0.0303107  24.206 
 3.900000000  0.0317480 -152.758  0.9994236  -0.545  0.9994236  -0.545  0.0304196  23.734 
 3.950000000  0.0317621 -152.863  0.9993978  -0.554  0.9993978  -0.554  0.0303688  23.495 
 4.000000000  0.0318521 -153.025  0.9994074  -0.565  0.9994074  -0.565  0.0305012  23.124 
 4.050000000  0.0317907 -153.230  0.9994130  -0.570  0.9994130  -0.570  0.0304134  22.836 
 4.100000000  0.0318182 -153.434  0.9993738  -0.575  0.9993738  -0.575  0.0304298  22.721 
 4.150000000  0.0319474 -153.717  0.9993292  -0.584  0.9993292  -0.584  0.0304916  22.275 
 4.200000000  0.0318742 -153.703  0.9993510  -0.592  0.9993510  -0.592  0.0304469  22.114 
 4.250000000  0.0319139 -153.956  0.9993566  -0.598  0.9993566  -0.598  0.0305153  21.750 
 4.300000000  0.0318549 -154.102  0.9993342  -0.604  0.9993342  -0.604  0.0304382  21.745 
 4.350000000  0.0319561 -154.334  0.9992829  -0.609  0.9992829  -0.609  0.0305846  21.540 
 4.400000000  0.0319799 -154.385  0.9992789  -0.618  0.9992789  -0.618  0.0304949  21.340 
 4.450000000  0.0319657 -154.443  0.9992982  -0.623  0.9992982  -0.623  0.0306453  21.178 
 4.500000000  0.0319487 -154.765  0.9993373  -0.629  0.9993373  -0.629  0.0306715  20.918 
 4.550000000  0.0319743 -154.756  0.9993432  -0.636  0.9993432  -0.636  0.0306629  20.903 
 4.600000000  0.0320170 -155.082  0.9993362  -0.641  0.9993362  -0.641  0.0307490  20.598 
 4.650000000  0.0320085 -155.025  0.9993213  -0.652  0.9993213  -0.652  0.0306500  20.463 
 4.700000000  0.0321019 -155.219  0.9993138  -0.659  0.9993138  -0.659  0.0308234  20.104 
 4.750000000  0.0319967 -155.218  0.9993404  -0.667  0.9993404  -0.667  0.0307533  20.053 
 4.800000000  0.0321228 -155.556  0.9992696  -0.669  0.9992696  -0.669  0.0309002  19.866 
 4.850000000  0.0321543 -155.606  0.9992264  -0.679  0.9992264  -0.679  0.0307613  19.602 
 4.900000000  0.0321919 -155.555  0.9992492  -0.689  0.9992492  -0.689  0.0309057  19.370 
 4.950000000  0.0321259 -155.730  0.9992943  -0.695  0.9992943  -0.695  0.0309246  19.294 
 5.000000000  0.0321547 -155.885  0.9992270  -0.699  0.9992270  -0.699  0.0308536  19.322 
 5.050000000  0.0322947 -156.098  0.9991889  -0.707  0.9991889  -0.707  0.0308893  18.924 
 5.100000000  0.0322184 -155.806  0.9992241  -0.721  0.9992241  -0.721  0.0308973  18.707 
 5.150000000  0.0321500 -156.061  0.9992472  -0.722  0.9992472  -0.722  0.0311075  18.749 
 5.200000000  0.0320707 -156.261  0.9992298  -0.726  0.9992298  -0.726  0.0309247  18.796 
 5.250000000  0.0322919 -156.470  0.9991474  -0.733  0.9991474  -0.733  0.0310150  18.403 
 5.300000000  0.0322769 -156.402  0.9991419  -0.745  0.9991419  -0.745  0.0310356  18.111 
 5.350000000  0.0322588 -156.410  0.9991760  -0.749  0.9991760  -0.749  0.0311635  18.196 
 5.400000000  0.0321929 -156.720  0.9991930  -0.753  0.9991930  -0.753  0.0311371  18.199 
 5.450000000  0.0323528 -156.667  0.9990984  -0.765  0.9990984  -0.765  0.0310511  17.881 
 5.500000000  0.0324194 -156.811  0.9991022  -0.771  0.9991022  -0.771  0.0311916  17.622 
 5.550000000  0.0323808 -156.524  0.9991545  -0.782  0.9991545  -0.782  0.0312390  17.543 
 5.600000000  0.0323357 -156.857  0.9991614  -0.782  0.9991614  -0.782  0.0312926  17.689 
 5.650000000  0.0323366 -156.873  0.9991067  -0.794  0.9991067  -0.794  0.0311131  17.407 
 5.700000000  0.0324919 -157.040  0.9990562  -0.798  0.9990562  -0.798  0.0312603  17.085 
 5.750000000  0.0324510 -156.910  0.9990924  -0.810  0.9990924  -0.810  0.0313673  17.015 
 5.800000000  0.0324129 -156.955  0.9990584  -0.812  0.9990584  -0.812  0.0314088  17.206 
 5.850000000  0.0323443 -157.281  0.9990592  -0.817  0.9990592  -0.817  0.0312881  17.106 
 5.900000000  0.0325373 -157.281  0.9990054  -0.827  0.9990054  -0.827  0.0313665  16.645 
 5.950000000  0.0325743 -157.321  0.9990198  -0.833  0.9990198  -0.833  0.0315466  16.638 
 6.000000000  0.0324919 -157.066  0.9989854  -0.842  0.9989854  -0.842  0.0315278  16.734 
 6.050000000  0.0324657 -157.496  0.9989997  -0.842  0.9989997  -0.842  0.0315077  16.683 
 6.100000000  0.0325702 -157.469  0.9989390  -0.855  0.9989390  -0.855  0.0315097  16.258 
 6.150000000  0.0327722 -157.473  0.9988971  -0.860  0.9988971  -0.860  0.0317395  16.139 
 6.200000000  0.0325903 -157.184  0.9989316  -0.872  0.9989316  -0.872  0.0317063  16.288 
 6.250000000  0.0326075 -157.500  0.9989001  -0.874  0.9989001  -0.874  0.0317003  16.120 
 6.300000000  0.0326255 -157.735  0.9988883  -0.881  0.9988883  -0.881  0.0316800  15.900 
 6.350000000  0.0328826 -157.523  0.9988420  -0.892  0.9988420  -0.892  0.0318828  15.593 
 6.400000000  0.0327068 -157.480  0.9989293  -0.898  0.9989293  -0.898  0.0319562  15.792 
 6.450000000  0.0327111 -157.447  0.9988513  -0.906  0.9988513  -0.906  0.0318842  15.667 
 6.500000000  0.0327393 -157.849  0.9988144  -0.908  0.9988144  -0.908  0.0318954  15.474 
 6.550000000  0.0328962 -157.650  0.9987807  -0.922  0.9987807  -0.922  0.0320495  15.165 
 6.600000000  0.0329206 -157.685  0.9987708  -0.924  0.9987708  -0.924  0.0321725  15.303 
 6.650000000  0.0327711 -157.590  0.9988038  -0.932  0.9988038  -0.932  0.0321419  15.330 
 6.700000000  0.0329188 -157.886  0.9987024  -0.936  0.9987024  -0.936  0.0321661  14.958 
 6.750000000  0.0329297 -157.859  0.9987018  -0.945  0.9987018  -0.945  0.0322296  14.928 
 6.800000000  0.0331443 -157.753  0.9986464  -0.952  0.9986464  -0.952  0.0324132  14.785 
 6.850000000  0.0329995 -157.799  0.9986653  -0.958  0.9986653  -0.958  0.0323399  14.862 
 6.900000000  0.0331005 -157.716  0.9986012  -0.969  0.9986012  -0.969  0.0323958  14.503 
 6.950000000  0.0331061 -158.048  0.9986085  -0.970  0.9986085  -0.970  0.0324884  14.530 
 7.000000000  0.0332491 -157.809  0.9985579  -0.981  0.9985579  -0.981  0.0326283  14.349 
 7.050000000  0.0332780 -157.927  0.9985165  -0.984  0.9985165  -0.984  0.0326206  14.295 
 7.100000000  0.0331859 -157.705  0.9985230  -0.997  0.9985230  -0.997  0.0326856  14.121 
 7.150000000  0.0333008 -158.086  0.9985014  -0.997  0.9985014  -0.997  0.0328350  13.922 
 7.200000000  0.0333520 -157.979  0.9984790  -1.006  0.9984790  -1.006  0.0328833  13.917 
 7.250000000  0.0335477 -157.981  0.9983722  -1.012  0.9983722  -1.012  0.0329770  13.657 
 7.300000000  0.0333740 -157.946  0.9983960  -1.020  0.9983960  -1.020  0.0329441  13.590 
 7.350000000  0.0334985 -158.037  0.9983496  -1.025  0.9983496  -1.025  0.0331301  13.376 
 7.400000000  0.0335460 -158.278  0.9983424  -1.028  0.9983424  -1.028  0.0331722  13.327 
 7.450000000  0.0337274 -158.007  0.9982569  -1.038  0.9982569  -1.038  0.0332343  13.063 
 7.500000000  0.0336787 -158.201  0.9982516  -1.041  0.9982516  -1.041  0.0332403  12.887 
 7.550000000  0.0336657 -158.045  0.9982340  -1.051  0.9982340  -1.051  0.0333180  12.656 
 7.600000000  0.0338274 -158.453  0.9982010  -1.051  0.9982010  -1.051  0.0334417  12.497 
 7.650000000  0.0338207 -158.241  0.9981818  -1.061  0.9981818  -1.061  0.0334040  12.374 
 7.700000000  0.0340019 -158.335  0.9980911  -1.064  0.9980911  -1.064  0.0335305  12.063 
 7.750000000  0.0338344 -158.272  0.9980926  -1.074  0.9980926  -1.074  0.0335281  11.936 
 7.800000000  0.0340269 -158.353  0.9980375  -1.078  0.9980375  -1.078  0.0336496  11.658 
 7.850000000  0.0339879 -158.626  0.9980449  -1.081  0.9980449  -1.081  0.0336362  11.526 
 7.900000000  0.0341777 -158.434  0.9979588  -1.087  0.9979588  -1.087  0.0337206  11.156 
 7.950000000  0.0341499 -158.636  0.9979258  -1.091  0.9979258  -1.091  0.0337298  11.045 
 8.000000000  0.0341089 -158.421  0.9979326  -1.102  0.9979326  -1.102  0.0337085  10.811 
 8.050000000  0.0341935 -158.991  0.9979325 178.903  0.9979325 178.903  0.0338263  10.629 
 8.100000000  0.0342708 -158.752  0.9978628 178.892  0.9978628 178.892  0.0337397  10.344 
 8.150000000  0.0344563 -158.851  0.9977595 178.891  0.9977595 178.891  0.0338504  10.176 
 8.200000000  0.0342206 -158.717  0.9978145 178.878  0.9978145 178.878  0.0337684   9.969 
 8.250000000  0.0344041 -159.054  0.9977821  -1.122  0.9977821  -1.122  0.0338635   9.713 
 8.300000000  0.0343948 -159.177  0.9977858  -1.125  0.9977858  -1.125  0.0337986   9.655 
 8.350000000  0.0346180 -158.853  0.9976590  -1.133  0.9976590  -1.133  0.0337641   9.344 
 8.400000000  0.0344042 -159.004  0.9977417  -1.139  0.9977417  -1.139  0.0337466   9.259 
 8.450000000  0.0344519 -158.989  0.9977268  -1.147  0.9977268  -1.147  0.0337476   8.924 
 8.500000000  0.0345771 -159.450  0.9977122 178.858  0.9977122 178.858  0.0337923   9.052 
 8.550000000  0.0346572 -158.999  0.9976443 178.844  0.9976443 178.844  0.0336843   8.763 
 8.600000000  0.0346773 -159.189  0.9976046 178.842  0.9976046 178.842  0.0335985   8.655 
 8.650000000  0.0345505 -159.214  0.9976566 178.833  0.9976566 178.833  0.0336162   8.476 
 8.700000000  0.0348956 -159.520  0.9975673  -1.164  0.9975673  -1.164  0.0336885   8.384 
 8.750000000  0.0349260 -159.545  0.9974993  -1.169  0.9974993  -1.169  0.0336457   8.443 
 8.800000000  0.0351286 -159.455  0.9973687  -1.174  0.9973687  -1.174  0.0335778   8.153 
 8.850000000  0.0348883 -160.006  0.9974874  -1.175  0.9974874  -1.175  0.0336658   8.119 
 8.900000000  0.0350264 -160.187  0.9974597  -1.177  0.9974597  -1.177  0.0337501   7.748 
 8.950000000  0.0349481 -160.628  0.9974764 178.829  0.9974764 178.829  0.0336862   7.948 
 9.000000000  0.0349276 -160.190  0.9974409 178.814  0.9974409 178.814  0.0336101   7.494 
 9.050000000  0.0347523 -160.550  0.9975569  -1.185  0.9975569  -1.185  0.0335634   7.433 
 9.100000000  0.0345999 -160.484  0.9976787  -1.193  0.9976787  -1.193  0.0336423   7.317 
 9.150000000  0.0348023 -160.755  0.9976162 178.811  0.9976162 178.811  0.0335727   7.402 
 9.200000000  0.0346661 -160.494  0.9976511 178.798  0.9976511 178.798  0.0334528   7.289 
 9.250000000  0.0347496 -160.349  0.9976141 178.790  0.9976141 178.790  0.0334357   6.871 
 9.300000000  0.0344603 -160.642  0.9978092 178.788  0.9978092 178.788  0.0334779   7.131 
 9.350000000  0.0347192 -160.623  0.9977438 178.783  0.9977438 178.783  0.0335359   6.896 
 9.400000000  0.0346682 -160.761  0.9977247 178.780  0.9977247 178.780  0.0333648   7.108 
 9.450000000  0.0346897 -160.282  0.9977475 178.763  0.9977475 178.763  0.0334253   6.622 
 9.500000000  0.0345732 -160.773  0.9978412  -1.235  0.9978412  -1.235  0.0334521   6.757 
 9.550000000  0.0345452 -160.674  0.9978777  -1.243  0.9978777  -1.243  0.0335429   6.846 
 9.600000000  0.0348217 -160.881  0.9977513  -1.244  0.9977513  -1.244  0.0334136   6.794 
 9.650000000  0.0346149 -160.487  0.9978380  -1.260  0.9978380  -1.260  0.0334019   6.664 
 9.700000000  0.0346999 -160.613  0.9978594  -1.265  0.9978594  -1.265  0.0334890   6.300 
 9.750000000  0.0345160 -160.918  0.9979238 178.735  0.9979238 178.735  0.0335410   6.712 
 9.800000000  0.0348774 -160.745  0.9977979 178.725  0.9977979 178.725  0.0335355   6.399 
 9.850000000  0.0346483 -160.758  0.9978338 178.718  0.9978338 178.718  0.0333764   6.463 
 9.900000000  0.0346805 -160.509  0.9978652 178.706  0.9978652 178.706  0.0335816   6.002 
 9.950000000  0.0346068 -161.055  0.9978937  -1.289  0.9978937  -1.289  0.0335696   6.338 
10.000000000  0.0347258 -160.811  0.9978589  -1.301  0.9978589  -1.301  0.0336738   6.205 
10.050000000  0.0348243 -160.942  0.9978114  -1.305  0.9978114  -1.305  0.0335570   5.996 
10.100000000  0.0346243 -160.714  0.9978816  -1.317  0.9978816  -1.317  0.0335997   5.872 
10.150000000  0.0347716 -161.014  0.9978700  -1.318  0.9978700  -1.318  0.0337296   5.647 
10.200000000  0.0346770 -161.071  0.9978877  -1.322  0.9978877  -1.322  0.0336763   5.942 
10.250000000  0.0349254 -160.909  0.9978280  -1.332  0.9978280  -1.332  0.0336960   5.517 
10.300000000  0.0347143 -161.012  0.9978873  -1.338  0.9978873  -1.338  0.0335748   5.599 
10.350000000  0.0348023 -160.833  0.9979099  -1.348  0.9979099  -1.348  0.0337742   5.317 
10.400000000  0.0347560 -161.275  0.9978948 178.652  0.9978948 178.652  0.0336980   5.540 
10.450000000  0.0348349 -160.919  0.9978776 178.640  0.9978776 178.640  0.0338020   5.399 
10.500000000  0.0349243 -161.189  0.9978534 178.635  0.9978534 178.635  0.0337287   5.179 
10.550000000  0.0347685 -160.917  0.9979395 178.625  0.9979395 178.625  0.0338241   5.164 
10.600000000  0.0349061 -161.308  0.9979044  -1.374  0.9979044  -1.374  0.0338972   5.098 
10.650000000  0.0348072 -161.224  0.9979334  -1.381  0.9979334  -1.381  0.0337920   5.272 
10.700000000  0.0350718 -161.242  0.9978210  -1.390  0.9978210  -1.390  0.0338550   4.896 
10.750000000  0.0348099 -161.239  0.9979243  -1.397  0.9979243  -1.397  0.0338134   5.029 
10.800000000  0.0349560 -161.317  0.9978837  -1.403  0.9978837  -1.403  0.0340689   4.882 
10.850000000  0.0349187 -161.644  0.9978422  -1.404  0.9978422  -1.404  0.0339488   5.026 
10.900000000  0.0350187 -161.343  0.9978358  -1.416  0.9978358  -1.416  0.0340505   4.816 
