! D:\calibration_data\load_pull_templates\Focus_LPWAVE_Project\default\CONB.S2P
# GHZ S MA R 50
 0.050000000  0.2604486 127.815  1.0028881   1.651  1.0029464   1.655  0.2550330 -55.727 
 0.100000000  0.1645843 114.935  1.0045573   0.521  1.0047697   0.525  0.1616184 -68.038 
 0.150000000  0.1197009 107.387  1.0044137   0.181  1.0047092   0.188  0.1196652 -74.040 
 0.200000000  0.0958898 102.914  1.0032369   0.042  1.0034353   0.046  0.0969672 -78.334 
 0.250000000  0.0807728  99.545  1.0018639  -0.039  1.0020158  -0.036  0.0826255 -82.335 
 0.300000000  0.0719459  93.564  1.0027521  -0.047  1.0029387  -0.042  0.0729875 -86.109 
 0.350000000  0.0648436  88.768  1.0031134  -0.051  1.0033833  -0.046  0.0650316 -89.167 
 0.400000000  0.0587075  86.456  1.0019540 179.911  1.0022281 179.917  0.0595870 -92.779 
 0.450000000  0.0551246  83.457  1.0015141 179.900  1.0016983 179.904  0.0559173 -96.149 
 0.500000000  0.0519578  79.820  1.0017594 179.897  1.0018743 179.902  0.0521876 -98.903 
 0.550000000  0.0491221  78.086  1.0012063 179.893  1.0011930 179.897  0.0492935 -101.606 
 0.600000000  0.0468598  75.476  1.0008919 179.891  1.0009545 179.891  0.0468864 -104.532 
 0.650000000  0.0452236  72.740  1.0008711 179.876  1.0011250 179.879  0.0454506 -107.007 
 0.700000000  0.0432641  70.431  1.0007032 179.859  1.0009365 179.865  0.0438093 -109.385 
 0.750000000  0.0411576  68.678  1.0003698 179.845  1.0005404 179.851  0.0421109 -111.768 
 0.800000000  0.0398207  66.518  1.0001965 179.837  1.0004497 179.841  0.0407884 -113.927 
 0.850000000  0.0385632  64.093  1.0001737  -0.182  1.0003863  -0.180  0.0398976 -115.924 
 0.900000000  0.0376530  61.814  1.0001996  -0.188  1.0003512  -0.185  0.0388232 -117.942 
 0.950000000  0.0366714  59.790  1.0001085 179.798  1.0002368 179.800  0.0381340 -119.772 
 1.000000000  0.0361642  57.595  1.0002242 179.793  1.0002633 179.793  0.0374506 -121.559 
 1.050000000  0.0356780  55.482  1.0002752 179.783  1.0002854 179.784  0.0369360 -123.180 
 1.100000000  0.0355050  54.106  1.0003142 179.791  1.0002926 179.791  0.0362349 -124.809 
 1.150000000  0.0350172  52.986  1.0003016 179.785  1.0002165 179.784  0.0357874 -125.964 
 1.200000000  0.0347270  51.373  1.0002536 179.778  1.0002565 179.775  0.0354182 -127.441 
 1.250000000  0.0344892  49.982  1.0002792 179.777  1.0002568 179.774  0.0350097 -128.863 
 1.300000000  0.0340200  48.816  1.0000588 179.765  1.0001636 179.761  0.0348059 -130.223 
 1.350000000  0.0336584  47.462  0.9998958 179.759  1.0000642 179.755  0.0345316 -131.854 
 1.400000000  0.0331142  45.943  0.9998141 179.747  0.9999156 179.742  0.0342518 -133.280 
 1.450000000  0.0330642  44.484  0.9998543 179.738  0.9999825 179.735  0.0341016 -134.480 
 1.500000000  0.0328648  42.978  0.9998644 179.732  0.9999679 179.728  0.0338243 -135.926 
 1.550000000  0.0326617  41.149  0.9999075 179.719  0.9999918 179.715  0.0336679 -137.329 
 1.600000000  0.0324602  38.925  0.9999938 179.712  1.0001174 179.708  0.0333005 -139.111 
 1.650000000  0.0319436  37.207  1.0000016  -0.303  1.0001590  -0.306  0.0327959 -140.253 
 1.700000000  0.0313363  35.521  0.9999540  -0.305  1.0001278  -0.310  0.0321601 -142.042 
 1.750000000  0.0303208  33.425  0.9998948 179.682  1.0000391 179.677  0.0313820 -143.738 
 1.800000000  0.0292809  31.707  0.9999325  -0.333  1.0000755  -0.336  0.0304336 -144.676 
 1.850000000  0.0276226  30.054  0.9998912  -0.345  0.9999710  -0.346  0.0289764 -145.895 
 1.900000000  0.0253392  32.142  0.9998511  -0.353  0.9999741  -0.354  0.0270142 -143.604 
 1.950000000  0.0252237  35.528  0.9997092  -0.363  0.9999236  -0.364  0.0273142 -140.644 
 2.000000000  0.0252244  36.571  0.9995932  -0.374  0.9997831  -0.373  0.0275983 -139.910 
 2.050000000  0.0251552  38.930  0.9995936  -0.379  0.9997151  -0.379  0.0276236 -138.045 
 2.100000000  0.0257040  39.960  0.9996579  -0.383  0.9997621  -0.381  0.0280291 -137.522 
 2.150000000  0.0259641  42.098  0.9994424  -0.393  0.9995893  -0.393  0.0287452 -136.110 
 2.200000000  0.0269165  43.122  0.9992374  -0.397  0.9994565  -0.396  0.0298178 -135.992 
 2.250000000  0.0280954  43.680  0.9991540  -0.400  0.9994747  -0.399  0.0308947 -136.057 
 2.300000000  0.0294478  42.868  0.9991618  -0.392  0.9994717  -0.391  0.0317798 -137.616 
 2.350000000  0.0302446  40.836  0.9991945  -0.394  0.9995265  -0.392  0.0323153 -139.620 
 2.400000000  0.0306066  38.601  0.9993441  -0.404  0.9996903  -0.402  0.0325000 -141.106 
 2.450000000  0.0307921  36.938  0.9995580  -0.415  0.9998357  -0.412  0.0323591 -142.221 
 2.500000000  0.0308053  35.717  0.9996287  -0.421  0.9999846  -0.417  0.0321052 -143.217 
 2.550000000  0.0306614  34.779  0.9995746  -0.431  0.9999219  -0.427  0.0320823 -143.923 
 2.600000000  0.0306210  33.813  0.9995988  -0.441  0.9999346  -0.439  0.0320942 -144.512 
 2.650000000  0.0306806  33.219  0.9996442  -0.448  0.9999871  -0.446  0.0318837 -144.921 
 2.700000000  0.0306755  32.887  0.9996997  -0.452  1.0000236  -0.450  0.0317030 -145.336 
 2.750000000  0.0303950  32.249  0.9996270  -0.460  0.9998989  -0.458  0.0316625 -145.864 
 2.800000000  0.0301907  31.511  0.9996056 179.526  0.9998782 179.528  0.0317137 -146.184 
 2.850000000  0.0301345  30.897  0.9996574 179.514  0.9999860 179.517  0.0315698 -146.279 
 2.900000000  0.0299717  30.927  0.9997220 179.512  0.9999855 179.512  0.0313603 -146.645 
 2.950000000  0.0296804  30.837  0.9996173 179.502  0.9999435 179.503  0.0313477 -146.710 
 3.000000000  0.0297610  30.546  0.9995740 179.492  0.9998776 179.492  0.0315799 -146.924 
 3.050000000  0.0299079  30.163  0.9996698 179.480  0.9999536 179.479  0.0316000 -146.866 
 3.100000000  0.0301659  30.263  0.9997807 179.479  1.0000284 179.478  0.0315250 -147.152 
 3.150000000  0.0301659  29.965  0.9996972 179.470  0.9999917 179.471  0.0316608 -147.586 
 3.200000000  0.0302310  29.223  0.9996320 179.457  0.9999340 179.454  0.0318778 -147.808 
 3.250000000  0.0302682  28.714  0.9997197 179.443  0.9999055 179.442  0.0318081 -147.999 
 3.300000000  0.0303094  28.567  0.9997973 179.439  0.9999748 179.436  0.0316936 -148.133 
 3.350000000  0.0302164  28.210  0.9996640 179.431  0.9998759 179.428  0.0317429 -148.574 
 3.400000000  0.0300219  27.799  0.9996160  -0.584  0.9997822  -0.586  0.0318523 -148.599 
 3.450000000  0.0299855  27.715  0.9995264  -0.594  0.9997668  -0.594  0.0318732 -148.567 
 3.500000000  0.0299270  27.739  0.9995260  -0.603  0.9998010  -0.604  0.0318145 -148.619 
 3.550000000  0.0300288  27.834  0.9994663  -0.604  0.9996989  -0.604  0.0319696 -148.966 
 3.600000000  0.0300642  27.849  0.9993569  -0.610  0.9995974  -0.610  0.0321452 -149.162 
 3.650000000  0.0301620  27.770  0.9993392  -0.619  0.9995949  -0.621  0.0323256 -149.064 
 3.700000000  0.0304102  27.549  0.9994114  -0.622  0.9997132  -0.624  0.0322676 -149.612 
 3.750000000  0.0304667  27.432  0.9994600  -0.626  0.9997543  -0.629  0.0322715 -149.871 
 3.800000000  0.0306492  26.861  0.9994094  -0.634  0.9997680  -0.637  0.0324600 -150.279 
 3.850000000  0.0305682  26.699  0.9993766  -0.648  0.9997179  -0.650  0.0324463 -150.215 
 3.900000000  0.0306900  26.231  0.9994604  -0.658  0.9997444  -0.660  0.0324710 -150.537 
 3.950000000  0.0307008  26.195  0.9994786  -0.663  0.9997396  -0.666  0.0324197 -150.756 
 4.000000000  0.0308739  25.847  0.9994428  -0.669  0.9997177  -0.673  0.0325656 -151.009 
 4.050000000  0.0307895  25.742  0.9994378  -0.677  0.9996942  -0.682  0.0324841 -151.122 
 4.100000000  0.0308569  25.468  0.9995279  -0.689  0.9996738  -0.693  0.0324827 -151.140 
 4.150000000  0.0309186  25.115  0.9995023  -0.695  0.9997211  -0.699  0.0325163 -151.562 
 4.200000000  0.0309311  25.058  0.9994722  -0.701  0.9997038  -0.705  0.0325228 -151.608 
 4.250000000  0.0309270  24.747  0.9994555  -0.712  0.9996829  -0.715  0.0326241 -151.765 
 4.300000000  0.0308620  24.798  0.9994247  -0.721  0.9997180  -0.725  0.0325103 -151.755 
 4.350000000  0.0309374  24.306  0.9994501  -0.731  0.9997018  -0.736  0.0326513 -151.991 
 4.400000000  0.0309932  24.372  0.9994171  -0.737  0.9997184  -0.741  0.0326183 -152.133 
 4.450000000  0.0310366  24.240  0.9993761  -0.744  0.9996613  -0.751  0.0327386 -152.166 
 4.500000000  0.0309913  24.005  0.9994113  -0.756  0.9996095  -0.760  0.0327297 -152.366 
 4.550000000  0.0310651  23.919  0.9994540  -0.764  0.9996365  -0.768  0.0327350 -152.378 
 4.600000000  0.0311116  23.515  0.9994515  -0.775  0.9996034  -0.777  0.0328451 -152.573 
 4.650000000  0.0311681  23.685  0.9994337  -0.781  0.9996685  -0.781  0.0327537 -152.616 
 4.700000000  0.0312112  23.322  0.9993593  -0.791  0.9996381  -0.792  0.0329168 -152.821 
 4.750000000  0.0311532  23.452  0.9993684  -0.795  0.9996880  -0.801  0.0327993 -152.880 
 4.800000000  0.0312732  22.905  0.9994352  -0.809  0.9996752  -0.812  0.0329287 -152.949 
 4.850000000  0.0313451  22.915  0.9994336  -0.812  0.9997315  -0.817  0.0328466 -153.166 
 4.900000000  0.0313502  22.942  0.9994126  -0.821  0.9996769  -0.824  0.0329320 -153.206 
 4.950000000  0.0312787  22.748  0.9993758  -0.829  0.9995976  -0.834  0.0329667 -153.379 
 5.000000000  0.0313950  22.557  0.9994047  -0.840  0.9996831  -0.845  0.0329232 -153.264 
 5.050000000  0.0314865  22.330  0.9994210  -0.849  0.9996650  -0.850  0.0329920 -153.496 
 5.100000000  0.0314717  22.653  0.9994414  -0.851  0.9996210  -0.853  0.0329221 -153.583 
 5.150000000  0.0314065  22.226  0.9993753  -0.866  0.9995130  -0.868  0.0331075 -153.571 
 5.200000000  0.0314244  22.105  0.9994315  -0.877  0.9995351  -0.878  0.0329926 -153.549 
 5.250000000  0.0316294  21.855  0.9994294  -0.885  0.9995725  -0.888  0.0330705 -153.645 
 5.300000000  0.0315824  21.883  0.9994171  -0.889  0.9995131  -0.892  0.0330555 -153.907 
 5.350000000  0.0316438  21.702  0.9993412  -0.901  0.9995003  -0.906  0.0331938 -153.730 
 5.400000000  0.0316015  21.359  0.9993215  -0.911  0.9994936  -0.916  0.0332049 -153.763 
 5.450000000  0.0317866  21.574  0.9994229  -0.917  0.9995017  -0.921  0.0330694 -153.900 
 5.500000000  0.0317744  21.269  0.9993372  -0.926  0.9994345  -0.931  0.0332698 -154.070 
 5.550000000  0.0318232  21.514  0.9993050  -0.930  0.9994563  -0.936  0.0332400 -154.065 
 5.600000000  0.0318069  21.082  0.9992606  -0.943  0.9993817  -0.951  0.0333195 -153.889 
 5.650000000  0.0317923  21.354  0.9993010  -0.947  0.9993910  -0.954  0.0331508 -154.154 
 5.700000000  0.0319308  20.921  0.9992751  -0.961  0.9993784  -0.966  0.0333251 -154.272 
 5.750000000  0.0319407  20.954  0.9992073  -0.964  0.9993075  -0.972  0.0334001 -154.323 
 5.800000000  0.0320021  20.932  0.9992362  -0.979  0.9992948  -0.985  0.0333695 -154.051 
 5.850000000  0.0318868  20.717  0.9991787  -0.986  0.9992375  -0.995  0.0333377 -154.199 
 5.900000000  0.0320547  20.636  0.9992195  -0.995  0.9992559  -1.002  0.0333715 -154.443 
 5.950000000  0.0320860  20.351  0.9991904  -1.005  0.9991640  -1.012  0.0335614 -154.342 
 6.000000000  0.0321581  20.633  0.9991718  -1.010  0.9992059  -1.020  0.0334868 -154.266 
 6.050000000  0.0320702  20.328  0.9991263  -1.025  0.9991631  -1.031  0.0335055 -154.249 
 6.100000000  0.0321400  20.264  0.9991384  -1.028  0.9991742  -1.036  0.0334990 -154.548 
 6.150000000  0.0323561  20.013  0.9990909  -1.039  0.9992016  -1.048  0.0336816 -154.492 
 6.200000000  0.0322964  20.259  0.9990996  -1.046  0.9990698  -1.051  0.0336605 -154.341 
 6.250000000  0.0322958  20.126  0.9990911  -1.059  0.9990669  -1.065  0.0336118 -154.367 
 6.300000000  0.0322768  19.805  0.9990840  -1.066  0.9990054  -1.072  0.0336527 -154.547 
 6.350000000  0.0325390  19.857  0.9990442  -1.072  0.9990654  -1.079  0.0337894 -154.661 
 6.400000000  0.0324479  19.802  0.9989303  -1.082  0.9989125  -1.088  0.0338636 -154.473 
 6.450000000  0.0324811  19.966  0.9990002  -1.088  0.9989022  -1.095  0.0337870 -154.508 
 6.500000000  0.0324712  19.526  0.9989722  -1.101  0.9989001  -1.106  0.0338279 -154.574 
 6.550000000  0.0326287  19.498  0.9989615  -1.103  0.9988430  -1.111  0.0339308 -154.753 
 6.600000000  0.0327115  19.385  0.9988942  -1.117  0.9988466  -1.124  0.0340421 -154.532 
 6.650000000  0.0325987  19.554  0.9988570  -1.124  0.9987651  -1.129  0.0339805 -154.452 
 6.700000000  0.0327154  19.253  0.9988952  -1.134  0.9987894  -1.140  0.0339970 -154.634 
 6.750000000  0.0327478  19.127  0.9988387  -1.142  0.9987422  -1.147  0.0340930 -154.676 
 6.800000000  0.0330035  19.153  0.9988303  -1.151  0.9987727  -1.157  0.0342261 -154.625 
 6.850000000  0.0328836  19.139  0.9987684  -1.159  0.9987586  -1.164  0.0341827 -154.475 
 6.900000000  0.0330070  19.175  0.9987348  -1.163  0.9987504  -1.169  0.0341914 -154.701 
 6.950000000  0.0330278  18.764  0.9986679  -1.176  0.9986620  -1.182  0.0343213 -154.689 
 7.000000000  0.0332062  18.888  0.9986529  -1.180  0.9986377  -1.186  0.0344219 -154.723 
 7.050000000  0.0332361  18.826  0.9986157  -1.190  0.9986615  -1.197  0.0344361 -154.595 
 7.100000000  0.0331762  18.915  0.9985326  -1.192  0.9985682  -1.199  0.0344088 -154.698 
 7.150000000  0.0333320  18.406  0.9985002  -1.208  0.9984923  -1.213  0.0345663 -154.823 
 7.200000000  0.0334006  18.441  0.9985208  -1.216  0.9984027  -1.219  0.0346358 -154.753 
 7.250000000  0.0335604  18.395  0.9984878  -1.223  0.9984196  -1.228  0.0347375 -154.741 
 7.300000000  0.0334237  18.380  0.9984247  -1.228  0.9983627  -1.232  0.0346711 -154.742 
 7.350000000  0.0335709  18.097  0.9983858  -1.238  0.9983390  -1.241  0.0348017 -154.863 
 7.400000000  0.0336146  17.901  0.9983173  -1.247  0.9982829  -1.251  0.0348936 -154.877 
 7.450000000  0.0337838  18.098  0.9983156  -1.249  0.9982935  -1.254  0.0349520 -154.880 
 7.500000000  0.0337353  17.829  0.9982773  -1.259  0.9982098  -1.264  0.0349785 -154.865 
 7.550000000  0.0338199  17.820  0.9982453  -1.261  0.9981966  -1.269  0.0349706 -155.008 
 7.600000000  0.0339395  17.411  0.9982133  -1.272  0.9981398  -1.281  0.0351605 -155.095 
 7.650000000  0.0339088  17.593  0.9981552  -1.274  0.9981599  -1.285  0.0351503 -155.069 
 7.700000000  0.0341041  17.261  0.9981355  -1.283  0.9980882  -1.293  0.0352615 -155.067 
 7.750000000  0.0340368  17.253  0.9980794  -1.287  0.9980209  -1.297  0.0351976 -155.179 
 7.800000000  0.0342671  17.094  0.9980516  -1.296  0.9980183  -1.304  0.0353322 -155.273 
 7.850000000  0.0341352  16.842  0.9979509  -1.301  0.9980146  -1.311  0.0353982 -155.324 
 7.900000000  0.0343189  16.748  0.9980173  -1.307  0.9979819  -1.318  0.0354403 -155.317 
 7.950000000  0.0343125  16.438  0.9979596  -1.314  0.9978890  -1.324  0.0354663 -155.326 
 8.000000000  0.0343260  16.707  0.9979448  -1.315  0.9979018  -1.326  0.0354316 -155.522 
 8.050000000  0.0342910  16.114  0.9978622 178.673  0.9978795 178.662  0.0356390 -155.527 
 8.100000000  0.0343799  16.177  0.9978972 178.672  0.9978839 178.661  0.0355842 -155.545 
 8.150000000  0.0345846  15.844  0.9979482 178.662  0.9979172 178.650  0.0356344 -155.526 
 8.200000000  0.0344139  16.119  0.9978910 178.663  0.9978227 178.653  0.0355620 -155.752 
 8.250000000  0.0345131  15.769  0.9978745  -1.348  0.9977876  -1.358  0.0357340 -155.797 
 8.300000000  0.0344548  15.463  0.9978702  -1.354  0.9977449  -1.363  0.0357908 -155.740 
 8.350000000  0.0347209  15.581  0.9979822  -1.360  0.9978586  -1.367  0.0356853 -155.724 
 8.400000000  0.0345461  15.454  0.9978876  -1.363  0.9977615  -1.372  0.0357201 -155.845 
 8.450000000  0.0345095  15.551  0.9978566  -1.366  0.9977721  -1.376  0.0357562 -156.048 
 8.500000000  0.0345535  14.831  0.9978316 178.619  0.9977326 178.609  0.0359140 -155.783 
 8.550000000  0.0347081  15.170  0.9978864 178.619  0.9978068 178.610  0.0357883 -155.865 
 8.600000000  0.0347508  14.995  0.9979683 178.607  0.9977899 178.602  0.0357968 -155.892 
 8.650000000  0.0345409  15.040  0.9978792 178.608  0.9977048 178.600  0.0358925 -156.076 
 8.700000000  0.0348116  14.577  0.9979235  -1.406  0.9977820  -1.412  0.0360321 -155.910 
 8.750000000  0.0349260  14.399  0.9979734  -1.412  0.9978182  -1.420  0.0360171 -155.816 
 8.800000000  0.0351503  14.517  0.9981430  -1.419  0.9979162  -1.425  0.0359667 -155.987 
 8.850000000  0.0348462  14.006  0.9980496  -1.426  0.9978079  -1.434  0.0361549 -156.138 
 8.900000000  0.0349237  13.733  0.9980046  -1.434  0.9978513  -1.443  0.0362501 -156.299 
 8.950000000  0.0349036  13.073  0.9979768 178.547  0.9978374 178.542  0.0362567 -156.082 
 9.000000000  0.0348460  13.582  0.9980456 178.552  0.9979228 178.546  0.0361066 -156.442 
 9.050000000  0.0346062  13.237  0.9979243  -1.459  0.9978208  -1.464  0.0361601 -156.529 
 9.100000000  0.0344091  13.146  0.9978037  -1.462  0.9977033  -1.466  0.0362865 -156.598 
 9.150000000  0.0346112  12.838  0.9978831 178.522  0.9977459 178.516  0.0362632 -156.433 
 9.200000000  0.0344431  13.132  0.9979214 178.522  0.9977954 178.517  0.0361510 -156.514 
 9.250000000  0.0344385  13.404  0.9979511 178.519  0.9978554 178.515  0.0361284 -156.812 
 9.300000000  0.0341367  13.017  0.9977842 178.510  0.9976680 178.507  0.0362957 -156.674 
 9.350000000  0.0343762  13.101  0.9979057 178.501  0.9977067 178.497  0.0362950 -156.751 
 9.400000000  0.0343637  13.041  0.9979158 178.494  0.9977566 178.488  0.0361797 -156.609 
 9.450000000  0.0343263  13.547  0.9979007 178.498  0.9977808 178.493  0.0362061 -156.956 
 9.500000000  0.0342142  13.061  0.9978393  -1.514  0.9977615  -1.521  0.0362919 -156.886 
 9.550000000  0.0342412  13.027  0.9978411  -1.523  0.9977288  -1.529  0.0363348 -156.796 
 9.600000000  0.0345264  13.037  0.9979820  -1.535  0.9978786  -1.541  0.0362464 -156.776 
 9.650000000  0.0343151  13.416  0.9979312  -1.533  0.9978052  -1.538  0.0362343 -156.923 
 9.700000000  0.0343640  13.289  0.9979136  -1.538  0.9977883  -1.545  0.0363337 -157.186 
 9.750000000  0.0343011  12.839  0.9978624 178.446  0.9977737 178.440  0.0363694 -156.843 
 9.800000000  0.0346075  13.199  0.9979889 178.441  0.9979257 178.436  0.0363388 -157.024 
 9.850000000  0.0344230  13.249  0.9979910 178.436  0.9978829 178.432  0.0362066 -156.975 
 9.900000000  0.0344487  13.354  0.9979075 178.437  0.9978731 178.432  0.0363555 -157.303 
 9.950000000  0.0344485  12.874  0.9979223  -1.581  0.9977912  -1.586  0.0363833 -157.023 
10.000000000  0.0346011  13.080  0.9979373  -1.587  0.9978751  -1.589  0.0363884 -156.996 
10.050000000  0.0346586  13.060  0.9980085  -1.592  0.9979497  -1.596  0.0362824 -157.154 
10.100000000  0.0345681  13.037  0.9978734  -1.596  0.9979752  -1.597  0.0364032 -157.223 
10.150000000  0.0347258  12.808  0.9979256  -1.607  0.9979409  -1.607  0.0364836 -157.268 
10.200000000  0.0347044  12.741  0.9979032  -1.616  0.9979433  -1.620  0.0364067 -156.988 
10.250000000  0.0348852  12.894  0.9979705  -1.619  0.9980303  -1.623  0.0364120 -157.294 
10.300000000  0.0347344  12.700  0.9979798  -1.626  0.9980000  -1.629  0.0364029 -157.251 
10.350000000  0.0348223  12.762  0.9979456  -1.633  0.9979539  -1.636  0.0365948 -157.360 
10.400000000  0.0347451  12.555  0.9979807 178.353  0.9979898 178.352  0.0364748 -157.201 
10.450000000  0.0348439  12.732  0.9980016 178.348  0.9979991 178.350  0.0365208 -157.278 
10.500000000  0.0349157  12.528  0.9980278 178.341  0.9979872 178.342  0.0365402 -157.470 
10.550000000  0.0348097  12.649  0.9979514 178.336  0.9979148 178.335  0.0366419 -157.346 
10.600000000  0.0349006  12.452  0.9979535  -1.674  0.9979700  -1.676  0.0366692 -157.460 
10.650000000  0.0348565  12.519  0.9979711  -1.682  0.9980150  -1.685  0.0365548 -157.293 
10.700000000  0.0351181  12.436  0.9980099  -1.687  0.9980956  -1.687  0.0366976 -157.638 
10.750000000  0.0349314  12.484  0.9979489  -1.695  0.9980148  -1.695  0.0366486 -157.489 
10.800000000  0.0350928  12.339  0.9979260  -1.703  0.9979335  -1.707  0.0368089 -157.533 
10.850000000  0.0350739  12.216  0.9979746  -1.714  0.9979585  -1.718  0.0366681 -157.497 
10.900000000  0.0352928  12.267  0.9979844  -1.715  0.9979613  -1.722  0.0367186 -157.592 
