# Hz S MA R 50.0 
!freq magS11 angS11 magS21 angS21 magS12 angS12 magS22 angS22
50000000.0 0.2604485515188717 127.81533526328195 1.0028880527942534 1.6511765557588758 1.002946395271236 1.6550133032588752 0.2550330395772849 -55.72732695149488
100000000.0 0.16458434102270358 114.93463664924172 1.0045573100045562 0.5214926219900693 1.0047697173694614 0.525230430990069 0.16161839824783888 -68.03808056077716
150000000.0 0.11970085356993505 107.38708556181683 1.0044137379026608 0.1812059016674 1.004709218515973 0.18774689666740008 0.11966520926318323 -74.04007383353854
200000000.0 0.09588979388746043 102.91372600518046 1.0032369420517622 0.04229590483969765 1.0034352588134035 0.04602943883969766 0.09696716991602686 -78.33408707920154
250000000.0 0.0807728165571079 99.54467141813126 1.0018638595269838 -0.03892438758479171 1.002015844493454 -0.03593382858479168 0.08262552053973088 -82.33511242883658
300000000.0 0.07194592421772536 93.56409066523351 1.002752052599591 -0.046562638587222614 1.002938663039764 -0.0424909635872226 0.0729874761763718 -86.10853402979377
350000000.0 0.06484358670050211 88.76848579209675 1.0031134097312027 -0.0507272068741351 1.0033833419504614 -0.04599108687413504 0.06503162425549039 -89.16706164105923
400000000.0 0.05870754795931923 86.45608285926647 1.0019539581404755 -0.08875126637473404 1.0022281429354307 -0.083329586374734 0.0595869992051514 -92.77941625148198
450000000.0 0.05512462310109674 83.45671300878494 1.0015140509594367 -0.1003606232164454 1.0016982664445437 -0.09637109321644552 0.05591732883051372 -96.14918865263861
500000000.0 0.05195777621367194 79.82001783952049 1.0017593784544068 -0.1025019401144681 1.0018743128628895 -0.09780436011446812 0.05218763877626184 -98.9031226411678
550000000.0 0.049122148510201205 78.0856079448186 1.001206283145076 -0.10676065452685354 1.0011929675049747 -0.10311390452685344 0.04929348821602071 -101.60552745070015
600000000.0 0.04685981282155888 75.47644735852101 1.0008918528044173 -0.10897494168894634 1.000954450830665 -0.10900111168894636 0.04688643985465817 -104.5315175112363
650000000.0 0.04522364063749484 72.73985934050039 1.0008710965207162 -0.12447358751685271 1.0011249679440106 -0.12057919751685282 0.045450617823178406 -107.00729742810036
700000000.0 0.04326414794246582 70.43064181203681 1.0007032292586813 -0.14080388832097307 1.0009364843877027 -0.135114068320973 0.0438093020167124 -109.38492201985589
750000000.0 0.04115759540696403 68.67763738326042 1.000369803423046 -0.1545631424589964 1.0005404492592163 -0.14850488245899623 0.042110866273463485 -111.76840300608615
800000000.0 0.03982068314398457 66.51751972423814 1.0001965121504186 -0.16298223273980283 1.0004496536804528 -0.15913896273980274 0.04078838167492642 -113.92677855513766
850000000.0 0.038563175066045126 64.09319255364375 1.0001737489251998 -0.1824656965085815 1.0003862813411588 -0.1796496765085816 0.03989763075319055 -115.923993021844
900000000.0 0.037652950593146474 61.81368441594377 1.0001995681597726 -0.18756867738485658 1.0003511958669598 -0.1846831873848566 0.03882318937175715 -117.94202069708585
950000000.0 0.03667140765738671 59.790074206249464 1.0001085139434633 -0.20246082168580595 1.00023682419613 -0.20031749168580584 0.03813402395195995 -119.77231765816971
1000000000.0 0.03616419569443697 57.594909453085954 1.0002242149746243 -0.20739543207103486 1.0002633227363598 -0.20667323207103488 0.037450552304632276 -121.55939527427394
1050000000.0 0.035677971627397165 55.482477681363136 1.000275176242209 -0.2170859983246361 1.0002853784838024 -0.21613679832463628 0.0369359943521209 -123.17977999319366
1100000000.0 0.03550504389073506 54.105507611616645 1.0003142406724927 -0.2087630600052779 1.0002926347296859 -0.20886597000527782 0.03623486957158819 -124.80902920015617
1150000000.0 0.035017202462587556 52.98571244329207 1.0003016329542833 -0.21525776484071396 1.0002165147757178 -0.21564286484071396 0.0357874186760132 -125.96416239661829
1200000000.0 0.03472696333160667 51.3725522156609 1.0002536280360808 -0.22225137339503456 1.00025652860772 -0.2248695633950347 0.035418150405221886 -127.44116647880008
1250000000.0 0.03448921289259801 49.98183053816385 1.00027917250432 -0.2233004105360103 1.0002567672277267 -0.22633986053601016 0.03500971689671658 -128.8631748229674
1300000000.0 0.0340199637667686 48.81603742005767 1.0000587546825395 -0.23501761760889614 1.0001636319631844 -0.2389694376088961 0.034805942745181034 -130.22264864155036
1350000000.0 0.033658391263136286 47.462332967551525 0.999895830647956 -0.2408100857246231 1.0000641826825012 -0.24468012572462303 0.03453158198134712 -131.85404837873162
1400000000.0 0.03311418578567963 45.94322318465567 0.9998140853873434 -0.25270824684632825 0.9999155588111543 -0.2576103968463283 0.03425183201209803 -133.2799173238149
1450000000.0 0.03306424832588002 44.48436497588519 0.9998542640259352 -0.26227108575556507 0.9999825322420157 -0.26534876575556504 0.034101592113466715 -134.4804903979906
1500000000.0 0.03286475330371068 42.97757330092743 0.9998643846376947 -0.26764924454337874 0.9999678673695966 -0.27197737454337895 0.03382426419272893 -135.92643372677898
1550000000.0 0.03266166806563261 41.14941401947905 0.9999075174136276 -0.2812094079195444 0.9999917645630654 -0.2847989479195441 0.03366794041436205 -137.32866533375247
1600000000.0 0.032460179542211615 38.92497496677023 0.999993760720181 -0.2883061302614979 1.0001174198847074 -0.2922158402614983 0.03330054291488848 -139.11131344355252
1650000000.0 0.03194363649337963 37.20707392580743 1.000001596921672 -0.30272304069843736 1.0001589766660182 -0.30620354069843747 0.032795874515027086 -140.2525661321692
1700000000.0 0.03133627450895258 35.52055868537371 0.9999540212539605 -0.30517838573226314 1.0001277866668001 -0.3097148357322632 0.032160113291162494 -142.0417014619096
1750000000.0 0.030320799015340592 33.425338115206785 0.9998948340315721 -0.3183221390414422 1.000039087554458 -0.32252712904144215 0.03138199967839746 -143.73836645857025
1800000000.0 0.029280874350040523 31.707477617935858 0.9999324754904833 -0.3330265225828452 1.00007554699923 -0.33568250258284527 0.030433644700237166 -144.67612908626953
1850000000.0 0.027622569506662933 30.05429439223584 0.9998911776710417 -0.34475010534588424 0.9999709964079672 -0.3456338653458842 0.028976382676715436 -145.89474556812894
1900000000.0 0.025339240940441196 32.14170575474395 0.9998510549616806 -0.35300680783429844 0.9999740502957226 -0.3541926478342984 0.027014172234971698 -143.60435183330503
1950000000.0 0.02522369688445153 35.52844457022712 0.9997092395101994 -0.3631635323252425 0.9999235575527365 -0.36411083232524255 0.027314168729737107 -140.64362902684516
2000000000.0 0.0252243594647583 36.570798063452905 0.9995931898997967 -0.37390958560514587 0.9997831196491807 -0.37318849560514605 0.027598263558276038 -139.90967689129783
2050000000.0 0.025155169575981073 38.930102897836846 0.9995935711369034 -0.37904793137300236 0.9997151311040279 -0.3786280113730022 0.027623593637295014 -138.04524202909528
2100000000.0 0.025703970488856368 39.95970095585808 0.9996579061173168 -0.3829291379824952 0.9997621328861029 -0.3807327579824952 0.02802908277522499 -137.52160018450672
2150000000.0 0.02596410738861207 42.09779138436257 0.9994423801822989 -0.3928613872645418 0.999589301043836 -0.3925708172645417 0.028745245117082697 -136.1097369104793
2200000000.0 0.02691654296904601 43.12163842305323 0.9992374370645513 -0.39676725697548487 0.999456468858427 -0.39633357697548494 0.02981781483384271 -135.99196093179782
2250000000.0 0.028095381469251918 43.6799203097793 0.9991539937258701 -0.39979878094636206 0.999474655806413 -0.39883146094636207 0.030894671635793146 -136.05651327502412
2300000000.0 0.029447834401270554 42.86813663227819 0.9991617535257502 -0.3918444386815725 0.9994716754058209 -0.3909035186815729 0.031779845589804206 -137.6159471459164
2350000000.0 0.030244600081057137 40.83560245405329 0.9991945328731365 -0.3940270783993093 0.999526530395835 -0.39213027839930914 0.032315299556064374 -139.6198678815148
2400000000.0 0.030606566320702567 38.6014707604763 0.9993441486709508 -0.40380399049239357 0.9996902520137507 -0.40195840049239356 0.03250000341540247 -141.10638586917656
2450000000.0 0.03079209109013658 36.93827846601449 0.9995579803346608 -0.41456336584723336 0.9998357179153727 -0.4119005258472331 0.03235914330116318 -142.221242459789
2500000000.0 0.03080533204698737 35.71703455712757 0.999628710783707 -0.42067609004311846 0.9999846111955981 -0.41712121004311864 0.03210523311355669 -143.21714747789773
2550000000.0 0.030661398223186576 34.77906714662856 0.9995745543224639 -0.4308482895601654 0.9999218859893134 -0.4274980295601658 0.03208225998516473 -143.9230088089097
2600000000.0 0.03062096529794723 33.813195490522254 0.9995987856294863 -0.44135828015289325 0.9999345579188572 -0.43885929015289304 0.032094218847150205 -144.51170476028872
2650000000.0 0.030680562311013394 33.21931031087832 0.9996442445501811 -0.4477670631873594 0.9999870601452352 -0.4460943831873591 0.03188369296297815 -144.92127927451995
2700000000.0 0.030675463340188468 32.886512067001945 0.9996996920327444 -0.4518112198306208 1.0000235848648091 -0.44987126983062103 0.03170300735349391 -145.33633619021185
2750000000.0 0.030394986543284513 32.24876776614767 0.9996270468507368 -0.45985363008814406 0.9998988718589534 -0.45845858008814416 0.03166249436712693 -145.86375419010184
2800000000.0 0.030190673405916614 31.51105068021451 0.9996056248559866 -0.4736625650554939 0.9998781517876777 -0.47195394505549393 0.03171374678016538 -146.18395123414004
2850000000.0 0.03013454070380387 30.89692927135488 0.9996574051805922 -0.4855003252587103 0.999986038181782 -0.4829912052587098 0.031569803516512146 -146.27943778405324
2900000000.0 0.029971714934434814 30.927167103793188 0.9997219891882323 -0.4882286790770916 0.9999855351984144 -0.48760395907709136 0.03136033421314835 -146.6453145624932
2950000000.0 0.029680357091339742 30.837295044538852 0.9996173396010204 -0.49838488113014756 0.9999435161291931 -0.4974720911301476 0.03134771259242576 -146.70975931349045
3000000000.0 0.029761036733491397 30.545851811533616 0.9995739578110366 -0.507775985400347 0.9998775953286039 -0.5075639054003471 0.03157994884478361 -146.92350190543235
3050000000.0 0.029907867755041437 30.163067893483007 0.9996697606310544 -0.5203593124343459 0.9999536234727038 -0.5207345224343451 0.031600043319107 -146.86610056140864
3100000000.0 0.030165878856532873 30.262742175519378 0.9997807227503919 -0.5208762673838457 1.0000283683006013 -0.5218623673838462 0.031525043904922403 -147.15205137868634
3150000000.0 0.030165948025791697 29.96513342996273 0.9996972080150013 -0.5302061374357243 0.9999916902169613 -0.5293885374357247 0.031660840496712334 -147.58620463558
3200000000.0 0.03023097852372072 29.222780315181694 0.999631984834456 -0.5432870445470349 0.9999340144832741 -0.5459761045470354 0.031877818924104864 -147.808391721514
3250000000.0 0.03026818990645215 28.713627925751393 0.9997196558233106 -0.556546671598021 0.99990552922498 -0.5583717115980205 0.03180807771492103 -147.99884613825733
3300000000.0 0.03030937334534458 28.567111318560674 0.9997973461776224 -0.561300693202133 0.9999747705189507 -0.5643441632021327 0.031693567659755596 -148.1331794078108
3350000000.0 0.03021635693677208 28.210268088885037 0.9996639754500198 -0.5689989188480752 0.9998758610134064 -0.5718020188480747 0.03174292719216878 -148.57393910602232
3400000000.0 0.030021885298360872 27.79856947089419 0.9996159701635641 -0.5838446177607592 0.9997822389158494 -0.585692017760759 0.03185232606652569 -148.59937627534018
3450000000.0 0.029985470840026025 27.71463038461324 0.9995264042408358 -0.5939925790347795 0.9997667831845534 -0.5940794790347795 0.03187317889362374 -148.56730143857368
3500000000.0 0.029927039210577083 27.738987108274742 0.9995259828586388 -0.6030406020815916 0.9998010034494194 -0.6038844020815912 0.03181447578835113 -148.61892007405484
3550000000.0 0.030028827215522268 27.834251467826903 0.9994662834819051 -0.6042986068998887 0.9996989085662562 -0.6042415068998883 0.031969632161270835 -148.9662073804114
3600000000.0 0.030064183315631723 27.849085107827367 0.9993569240570852 -0.6095675827116862 0.9995974499071616 -0.6099522827116867 0.032145237667748176 -149.16233233518088
3650000000.0 0.030162031770547222 27.76990128234949 0.9993391661407768 -0.6190230575102122 0.9995949378106894 -0.6207897575102127 0.032325646443992016 -149.06442447414574
3700000000.0 0.030410208648749236 27.549316878002127 0.9994113732712376 -0.6217407839370461 0.9997132304549947 -0.6240516839370462 0.03226764128034171 -149.61161520031163
3750000000.0 0.030466722392318436 27.4321770796219 0.9994599618704536 -0.6258400550334428 0.9997543026438088 -0.6290006550334427 0.03227153171529801 -149.87148715503523
3800000000.0 0.030649168297120423 26.86075870434188 0.9994094022841924 -0.6338288251994444 0.9997680363245806 -0.6365746251994437 0.032459988194014466 -150.2792502567646
3850000000.0 0.030568194909075846 26.699419627293313 0.9993765897126764 -0.6482316050508412 0.9997179268697084 -0.650164105050841 0.032446282989864975 -150.21495697588864
3900000000.0 0.03069002058956962 26.230531546355365 0.9994603998977516 -0.6580677313786811 0.9997444131231916 -0.659965031378681 0.03247100988442026 -150.53686584322236
3950000000.0 0.030700786315476385 26.19530387068547 0.9994786122567216 -0.6632666312291512 0.9997396220640633 -0.6659850312291509 0.0324196791212437 -150.75614884930314
4000000000.0 0.03087394569546524 25.84679823343865 0.9994428379453955 -0.6688166847716536 0.9997176609851819 -0.6726194847716537 0.03256557739216225 -151.00941947269197
4050000000.0 0.030789514901143334 25.74215070811021 0.9994377877985217 -0.6771810684704598 0.9996942495172819 -0.6817915684704603 0.032484113381459484 -151.12184346691103
4100000000.0 0.030856852236959414 25.4679241117847 0.9995278893922376 -0.6889672706970745 0.9996738094651436 -0.692989870697075 0.03248267865221971 -151.13958850689696
4150000000.0 0.030918582108405524 25.115267246161824 0.9995023389918182 -0.6951038646609674 0.9997210961616505 -0.6994541646609682 0.032516332264217 -151.5621496148773
4200000000.0 0.030931069928364096 25.05820703070185 0.9994722410830115 -0.7010919521395141 0.9997038031776889 -0.7054553521395149 0.03252280181802394 -151.6078177020526
4250000000.0 0.030927040637586733 24.747344569303724 0.9994555408331387 -0.7115846802341984 0.9996828694708882 -0.7153720802341985 0.032624060599695005 -151.76460512263372
4300000000.0 0.03086197575527016 24.798168679556742 0.9994246540561906 -0.7206810518778068 0.999717969903597 -0.7250542518778065 0.03251028082723559 -151.75470356288463
4350000000.0 0.03093738272748564 24.30639307294082 0.9994500982769087 -0.7310453711067619 0.9997017629440071 -0.7363829711067612 0.032651312969918564 -151.9914355546717
4400000000.0 0.030993245119998538 24.372478399605185 0.9994170823289372 -0.736754107652724 0.9997183508413285 -0.7412986076527237 0.03261829768873097 -152.13317791558342
4450000000.0 0.031036611829404034 24.240339779703405 0.9993761137385105 -0.7441057176666677 0.9996612735666128 -0.750547517666668 0.032738642169905616 -152.16631982738556
4500000000.0 0.030991337541925432 24.00530183961772 0.9994112771082456 -0.7555616033213132 0.9996094551088606 -0.7597476033213134 0.03272966557827945 -152.36640118622444
4550000000.0 0.031065084324307674 23.918934834562247 0.9994539756100996 -0.7644678855583612 0.9996364822055174 -0.7680910855583607 0.03273497985145124 -152.37764170585615
4600000000.0 0.031111640920798933 23.51453296069996 0.9994514753638335 -0.7747589358048383 0.9996034018866615 -0.7772800358048381 0.032845082124012326 -152.5730975405069
4650000000.0 0.031168116405032552 23.684932499323583 0.9994336735111918 -0.7807255421154642 0.9996684619803283 -0.7814349421154633 0.03275371585226382 -152.61577925045003
4700000000.0 0.031211228704601534 23.322195011086475 0.9993592795114611 -0.7906625007647652 0.9996381060935092 -0.7918528007647644 0.03291679404467601 -152.8208103467008
4750000000.0 0.031153180695022924 23.452297337966144 0.9993684288679746 -0.7950033194615131 0.9996880176589463 -0.8005926194615136 0.03279933878362434 -152.8804452899494
4800000000.0 0.03127318182935469 22.904877505433223 0.9994352343250476 -0.8087949744951343 0.9996752094164326 -0.8123740744951342 0.03292868221508319 -152.94895847663415
4850000000.0 0.03134512954091663 22.915363154059563 0.9994336095934057 -0.8123447896764066 0.9997315284175202 -0.8170604896764061 0.032846626913029954 -153.16617558883922
4900000000.0 0.03135018397066425 22.941628922225497 0.9994126420962278 -0.820518400593078 0.9996768712312638 -0.8239150005930787 0.032932036500294914 -153.20639812687492
4950000000.0 0.03127866824162989 22.747747016422128 0.9993757889540239 -0.828815235686451 0.999597636181189 -0.8338253356864512 0.03296666340787093 -153.37922791314756
5000000000.0 0.031395039278097496 22.55676368344467 0.9994047421195796 -0.8400902333038492 0.9996831166014796 -0.84533993330385 0.03292321491762971 -153.26417148065764
5050000000.0 0.03148653929416138 22.32951762142688 0.9994209808725978 -0.8486614932556285 0.9996650204292623 -0.8498396932556285 0.032991989613745276 -153.49649376038107
5100000000.0 0.03147168142373123 22.652991207054427 0.9994413636700179 -0.8512695194631696 0.9996209619889314 -0.8533107194631695 0.0329220792074391 -153.58274112218356
5150000000.0 0.03140646609834768 22.22635473371622 0.9993752793324423 -0.8664671290002189 0.9995130214507706 -0.868375929000219 0.03310746073933613 -153.57063695130117
5200000000.0 0.03142439310195456 22.105492554366972 0.9994315322058304 -0.8773625774001153 0.9995351259230415 -0.8783433774001154 0.032992620941543635 -153.5485601369769
5250000000.0 0.03162936350246311 21.85451913793829 0.9994293777126909 -0.8851261922597652 0.9995725026373593 -0.8880118922597654 0.033070458114793526 -153.64493033064252
5300000000.0 0.031582398787091445 21.88341157358009 0.999417082832024 -0.8894932915974963 0.9995130531416778 -0.8919343915974965 0.03305549735424221 -153.9070833129272
5350000000.0 0.03164383335890284 21.70241378949686 0.9993411749463584 -0.9012365747746063 0.9995002657135477 -0.9055926747746057 0.033193779435454686 -153.729760410308
5400000000.0 0.031601526057585004 21.358932369106583 0.9993215280938561 -0.9114781659294795 0.9994935564477324 -0.9156501659294795 0.03320493530566346 -153.76346250872388
5450000000.0 0.0317865611636902 21.573523187832105 0.9994229326719081 -0.9165495596767608 0.9995016836784111 -0.9208094596767613 0.033069417878624725 -153.9002148324761
5500000000.0 0.03177444067299507 21.268629880165175 0.9993371664180141 -0.9256068148702635 0.9994345087523003 -0.9309754148702637 0.03326977545990412 -154.0701758056602
5550000000.0 0.03182319778689786 21.514389944965902 0.9993050480647544 -0.9300349640926159 0.9994563392238878 -0.9360216640926159 0.03323997195172692 -154.06463364404382
5600000000.0 0.031806896172829474 21.08170375425431 0.9992606123776616 -0.9433343704001171 0.999381739986756 -0.9511821704001164 0.033319519772612084 -153.88850626300683
5650000000.0 0.031792252643841466 21.354133851773266 0.9993010353366859 -0.946574005397275 0.9993910463387999 -0.954258705397275 0.03315075902546048 -154.15372428679825
5700000000.0 0.03193082781394195 20.920768503832566 0.9992751453423692 -0.961244400698018 0.9993784016144802 -0.9657628006980171 0.03332514798257496 -154.27179300344886
5750000000.0 0.03194071972972858 20.953810798351483 0.9992073008984388 -0.9643942209053813 0.9993075127329059 -0.9719819209053808 0.03340007095351722 -154.32310152343155
5800000000.0 0.03200213973906702 20.932427387023772 0.9992361982235245 -0.9788563887788017 0.999294797093274 -0.9846847887788025 0.03336953406381282 -154.05134967828164
5850000000.0 0.03188679226672046 20.71701450522139 0.99917868029513 -0.9863222462296909 0.9992375193002044 -0.9947864462296915 0.03333772943085251 -154.1985808370443
