# Hz S MA R 50.0 
!freq magS11 angS11 magS21 angS21 magS12 angS12 magS22 angS22
50000000.0 0.2645830774098749 -51.93107110483025 1.0194784620943815 1.9413929277923085 1.019478462094382 1.9413929277923085 0.25901462511596707 124.5123620847294
100000000.0 0.16601131503813862 -65.1128574760821 1.0138318009220135 0.551497797715872 1.0138318009220135 0.5514977977158722 0.16282584314225187 111.90678880415346
150000000.0 0.1200000708033142 -72.70483179233331 1.0075233770917689 0.21976107422093474 1.0075233770917686 0.21976107422093463 0.11972142131727107 105.88452081636004
200000000.0 0.09605662926001209 -77.20728703987034 1.00516214740519 0.11783790968356224 1.0051621474051895 0.11783790968356227 0.09681434166725882 101.64649044083555
250000000.0 0.0810328297956914 -80.55218746569065 1.004474554116868 0.07640793444034112 1.0044745541168683 0.07640793444034111 0.08241353326709684 97.64214573381297
300000000.0 0.07205489940928256 -86.65028781860586 1.0024222224376773 -0.007108222482406019 1.0024222224376773 -0.007108222482406025 0.0724723332732338 93.76633193717316
350000000.0 0.06490104518418849 -91.49600615075067 1.0010041937245713 -0.05792707651208037 1.001004193724571 -0.05792707651208042 0.06438205399815539 90.629211170374
400000000.0 0.058927210730305234 -93.82438058604257 1.0014101454298887 -0.05556488346961381 1.001410145429889 -0.05556488346961382 0.05898933375170582 86.9865759353939
450000000.0 0.05545885587797656 -96.78991439117658 1.0014163769724267 -0.07567661862447723 1.001416376972427 -0.07567661862447722 0.05530352132498836 83.54581865206963
500000000.0 0.05227568450038437 -100.46830995147246 1.000739970810995 -0.10187009369964665 1.0007399708109948 -0.10187009369964664 0.05149123894575712 80.72018560229239
550000000.0 0.04947118330447006 -102.25437316201668 1.0010056277122086 -0.1168131794064789 1.0010056277122086 -0.1168131794064789 0.04861066016492401 77.9657884517347
600000000.0 0.0473042558148467 -104.86796578264072 1.000952350473658 -0.1348134098406573 1.0009523504736577 -0.1348134098406573 0.046146865056360585 74.93784847641825
650000000.0 0.04570928478288691 -107.53381377218274 1.0007825866957414 -0.13859416949695513 1.0007825866957416 -0.1385941694969551 0.04462650348709623 72.37724691278683
700000000.0 0.043770862443149074 -109.81548291112868 1.0007661659181077 -0.1396357108036741 1.000766165918108 -0.1396357108036741 0.042971616264951745 69.92068620089302
750000000.0 0.04170279948808337 -111.60096053817415 1.0009556037893559 -0.1415482145488257 1.0009556037893554 -0.14154821454882574 0.04124253725576074 67.45893113916308
800000000.0 0.040384809285880695 -113.77669821131833 1.0008557355515924 -0.14955072166615152 1.0008557355515921 -0.1495507216661515 0.039916961376690784 65.25077987538747
850000000.0 0.039160042174137225 -116.05933477287326 1.0007563538912385 -0.1475729701619489 1.0007563538912387 -0.14757297016194887 0.038941224710534385 63.12480717205331
900000000.0 0.03828376725384812 -118.27083859705151 1.0005903431101355 -0.1575522385941633 1.0005903431101357 -0.15755223859416326 0.0378577233122644 61.00154210407128
950000000.0 0.03732350813276416 -120.26980183866988 1.0005775732260747 -0.15733280259147361 1.0005775732260742 -0.15733280259147367 0.03713636225210541 59.045805237825995
1000000000.0 0.036895038996830186 -122.3889157288932 1.0003551437171292 -0.1663955629904709 1.0003551437171296 -0.16639556299047084 0.03645432054986036 57.20640372540547
1050000000.0 0.03647224646739496 -124.33357436464783 1.0002362498187336 -0.17362255355828565 1.0002362498187338 -0.1736225535582856 0.03584166384619989 55.37775169886706
1100000000.0 0.0362958785333881 -125.74166498469668 1.0001044685976643 -0.19680525865562518 1.0001044685976646 -0.19680525865562526 0.03511615988692962 53.587420601241305
1150000000.0 0.0358124175345299 -126.87809888646787 1.0001070500689442 -0.2034148351915241 1.0001070500689446 -0.20341483519152403 0.03462141537533247 52.31910988927984
1200000000.0 0.035573433592379106 -128.37808035739377 1.0000533198456136 -0.2130348647795173 1.0000533198456134 -0.21303486477951733 0.03421709180823846 50.76158463282541
1250000000.0 0.03536706472829646 -129.75579095762313 0.9999493875854464 -0.22520435628425067 0.9999493875854463 -0.22520435628425062 0.03377499151279521 49.12028609995341
1300000000.0 0.034866478835997576 -130.9005777818389 1.000058857461026 -0.22906326273459912 1.0000588574610259 -0.22906326273459923 0.03352028489253749 47.6107798206698
1350000000.0 0.03452718586281982 -132.23898342550342 1.0001134659643558 -0.23785929445235632 1.0001134659643558 -0.23785929445235626 0.033245581563336776 45.89464650400925
1400000000.0 0.03404085329245854 -133.67377760948028 1.0001689056893948 -0.24062977134247523 1.0001689056893948 -0.24062977134247523 0.03292840668497924 44.317159504784875
1450000000.0 0.03399486055400204 -134.99626889818376 1.0000446585476883 -0.2490363287304655 1.0000446585476879 -0.24903632873046563 0.032779420903137034 42.98828639269083
1500000000.0 0.033809563491727694 -136.40727120196163 0.9999661406299833 -0.2589816652580854 0.999966140629983 -0.25898166525808547 0.032450719534318516 41.391141570487406
1550000000.0 0.03363980974403594 -138.13216348410214 0.9998699750738863 -0.26167498979981263 0.9998699750738863 -0.2616749897998128 0.0322946219181687 39.88405038280331
1600000000.0 0.033516145382248855 -140.25010969250638 0.999689577475264 -0.27067484274958015 0.9996895774752642 -0.2706748427495801 0.031872944058706866 37.84180446643954
1650000000.0 0.03298743964944664 -141.82788521525418 0.9995944699983818 -0.27045406423870455 0.9995944699983822 -0.27045406423870444 0.03131977251114171 36.506544159501615
1700000000.0 0.03244078421407931 -143.37586800920042 0.9995255235636853 -0.2815598330573736 0.9995255235636855 -0.28155983305737353 0.030645676949506512 34.464554903689425
1750000000.0 0.03145613956726666 -145.34672541697418 0.9995368975980903 -0.28143617032974366 0.9995368975980903 -0.2814361703297436 0.02988263785267493 32.49119885958356
1800000000.0 0.030494638041505352 -146.89908116517876 0.999464923337117 -0.2799880150943243 0.9994649233371172 -0.2799880150943244 0.028900013258131064 31.223494135220605
1850000000.0 0.028899624995036004 -148.33343966786123 0.9995088243585091 -0.2819303314521081 0.9995088243585093 -0.28193033145210816 0.0273682666228461 29.596798785560647
1900000000.0 0.026789607397688823 -146.30492575900334 0.9995118378897375 -0.2867349959835091 0.999511837889738 -0.28673499598350916 0.025133975418932017 31.53558906215144
1950000000.0 0.026777212865589317 -143.32872009315423 0.9995623488059288 -0.29198789716911755 0.9995623488059286 -0.2919878971691175 0.025167618509781674 34.79857471014464
2000000000.0 0.026796194808140553 -142.34301769821204 0.999649359220028 -0.296574147241806 0.9996493592200282 -0.2965741472418059 0.02532508429585911 35.72885345717804
2050000000.0 0.02688582667272479 -140.2099430519264 0.9996109452841261 -0.30641376185830055 0.9996109452841261 -0.30641376185830055 0.025163399523572508 38.03579846751061
2100000000.0 0.02742870929854102 -139.72881252869493 0.9995172525847473 -0.31616343774486805 0.999517252584747 -0.3161634377448681 0.025576776651445338 38.61546536885965
2150000000.0 0.02769650666123713 -138.10946111420603 0.9995676815128733 -0.3198388309204391 0.9995676815128729 -0.31983883092043913 0.02595586732575388 40.53732159503667
2200000000.0 0.028574004664682042 -137.0384870823316 0.9996960876642567 -0.3286845882210945 0.9996960876642564 -0.3286845882210946 0.026858199536468657 41.50333985038497
2250000000.0 0.029780852162785417 -136.79609736954254 0.9996230903560812 -0.33242667586418545 0.9996230903560814 -0.3324266758641854 0.028094435202078605 42.04100392849392
2300000000.0 0.03098391300847969 -137.8727880035324 0.9996096088851579 -0.34358383159498534 0.9996096088851577 -0.3435838315949853 0.029293484238384696 40.85428124093027
2350000000.0 0.031621469718102695 -139.84029386000816 0.9996614356129456 -0.347047123431261 0.9996614356129455 -0.3470471234312608 0.03022994234587206 38.72058524904635
2400000000.0 0.03190505867817892 -141.8161763960556 0.999637904927108 -0.3502884098273658 0.9996379049271079 -0.35028840982736575 0.030605865408771863 36.72386683916086
2450000000.0 0.031929548201534035 -143.37809745181295 0.9995746098741177 -0.355646986871862 0.999574609874118 -0.355646986871862 0.030667001154815608 35.14349652459515
2500000000.0 0.031890017642893405 -144.4350805480848 0.9995040142277553 -0.3675966966182138 0.9995040142277555 -0.3675966966182138 0.03041342127428931 33.87595733903599
2550000000.0 0.03167227854557324 -145.2080182566672 0.9995842019942174 -0.37245880454789715 0.9995842019942174 -0.37245880454789715 0.030408908685711302 32.9199901549226
2600000000.0 0.0316453816771863 -145.92078980997442 0.99958142330354 -0.38027025735435654 0.9995814233035403 -0.3802702573543565 0.030404843515080607 31.939435528042708
2650000000.0 0.03162892135275136 -146.28912219986788 0.9994965193354484 -0.39173488945889556 0.9994965193354484 -0.39173488945889556 0.03023250710476924 31.231385776382435
2700000000.0 0.03163624230247187 -146.57337368501956 0.9993934701999848 -0.4038058962837077 0.9993934701999847 -0.4038058962837077 0.03008136845177611 30.528345294816496
2750000000.0 0.03138788459213233 -147.1092952694627 0.9994834087524106 -0.4076971073161841 0.9994834087524103 -0.407697107316184 0.029936599315366172 29.910132782111035
2800000000.0 0.031245899092191054 -147.68728694445457 0.9995353701989735 -0.40744148427571325 0.999535370198974 -0.4074414842757133 0.029895086298262184 29.347268584881945
2850000000.0 0.03121767388331635 -148.10828085760465 0.9994514359884337 -0.41156656249002077 0.9994514359884337 -0.4115665624900208 0.029675447922503602 29.00234034740423
2900000000.0 0.03114043865827708 -148.2756060792096 0.9994157913626686 -0.4221565303861004 0.9994157913626688 -0.42215653038610057 0.029431140885601937 28.556171109791723
2950000000.0 0.03087786494141917 -148.38524018097533 0.9994766006932829 -0.4262417048455873 0.9994766006932831 -0.42624170484558743 0.029300431973625092 28.585782216775506
3000000000.0 0.03094227510755806 -148.58615852290845 0.9995251997391366 -0.4305445051399016 0.9995251997391363 -0.430544505139902 0.02944856980747084 28.53448806625415
3050000000.0 0.03111083711671982 -148.84262360982652 0.9994606715667834 -0.43301255254436793 0.9994606715667834 -0.4330125525443681 0.02951126714320731 28.48792514219511
3100000000.0 0.03136782275730468 -148.8690680141147 0.999349798454554 -0.4480952715207174 0.9993497984545537 -0.4480952715207174 0.029540643367030783 28.159260242828225
3150000000.0 0.03134697894960064 -149.16614696689354 0.9994120076125383 -0.4552734250315554 0.9994120076125383 -0.4552734250315554 0.02966979747923323 27.679955178923677
3200000000.0 0.031408764468662226 -149.66291448434717 0.9994708111247073 -0.46129506964247036 0.999470811124707 -0.4612950696424701 0.029815614171206675 27.273447010435778
3250000000.0 0.031476642421211565 -150.20632801531175 0.9993642217644932 -0.46546144636906117 0.9993642217644929 -0.4654614463690613 0.029775988186635502 26.806798329092935
3300000000.0 0.03152117645867447 -150.36882713791965 0.9992368742260643 -0.47606534457078886 0.999236874226064 -0.47606534457078886 0.029592744403556692 26.499497807160804
3350000000.0 0.03141938348282369 -150.63909741610217 0.9992623442338775 -0.4817170659976198 0.9992623442338775 -0.48171706599762004 0.029652670127822352 26.078325072213612
3400000000.0 0.03125526445709085 -151.03227140191976 0.9993028408172859 -0.4813855404486983 0.9993028408172864 -0.4813855404486984 0.029589162028659168 26.00685589785737
3450000000.0 0.03128965619555695 -151.13893153085596 0.9992715359408231 -0.48534880483447906 0.9992715359408233 -0.48534880483447895 0.029543818508643377 25.924427183655933
3500000000.0 0.031260246702291876 -151.29731614690263 0.9992214597148885 -0.4876954326216186 0.9992214597148885 -0.4876954326216186 0.029491207334712825 25.98104234012145
3550000000.0 0.031323187983351 -151.21170665811746 0.9992778846551155 -0.4974062603552866 0.9992778846551157 -0.4974062603552864 0.029649691285448074 25.740178006100063
3600000000.0 0.031331439219360616 -151.28661574935836 0.9993601823382391 -0.5027956468080902 0.9993601823382388 -0.5027956468080899 0.02981393033634617 25.690401644496095
3650000000.0 0.031378236499715155 -151.46423339200481 0.9994172915608399 -0.5042938972030597 0.9994172915608401 -0.5042938972030596 0.030002972851345743 25.802004629044113
3700000000.0 0.031597310513761516 -151.72998716557774 0.9993879918728156 -0.5142487552980456 0.9993879918728156 -0.5142487552980455 0.030134458181900265 25.146444544524584
3750000000.0 0.03160641574037682 -151.82642407684295 0.999401930506653 -0.5252697342058106 0.9994019305066528 -0.5252697342058105 0.030140897420754688 24.852793013960977
3800000000.0 0.031749935320549934 -152.1632584423544 0.9994338582427532 -0.5344698615637574 0.9994338582427531 -0.5344698615637573 0.03032342699171432 24.287509113517775
3850000000.0 0.03160060146749299 -152.41956988789048 0.9994828602373372 -0.5375208034999984 0.9994828602373372 -0.5375208034999985 0.03031070376565998 24.205933655309067
3900000000.0 0.03174803755842486 -152.75836437498833 0.9994235646953982 -0.5453207709399209 0.9994235646953981 -0.5453207709399204 0.0304196189070441 23.73446981470363
3950000000.0 0.031762144335051555 -152.8625276981996 0.999397844296515 -0.5536146472514764 0.999397844296515 -0.5536146472514767 0.030368801968976608 23.4954813378561
4000000000.0 0.03185209750214569 -153.02457783535408 0.9994073941576918 -0.5647605364082657 0.9994073941576916 -0.5647605364082658 0.03050115210477183 23.12384912221942
4050000000.0 0.03179071626203798 -153.23018858146483 0.9994129868804497 -0.5700997715335017 0.9994129868804499 -0.5700997715335011 0.030413442001917496 22.836007359630763
4100000000.0 0.031818164730906824 -153.43383062660212 0.9993737555353828 -0.5752380292781619 0.9993737555353828 -0.5752380292781618 0.030429824250416057 22.720848881450053
4150000000.0 0.03194737714963854 -153.7172926961086 0.9993292427503587 -0.5835008914796158 0.999329242750359 -0.5835008914796155 0.03049158669462848 22.27528489302206
4200000000.0 0.03187422639541814 -153.70305215615033 0.9993509956091128 -0.5923821523421384 0.999350995609113 -0.5923821523421382 0.030446916743701494 22.11398691816104
4250000000.0 0.03191391687063808 -153.95601574591564 0.9993565631517712 -0.5980553530654439 0.9993565631517706 -0.598055353065444 0.030515253736813325 21.750343549045688
4300000000.0 0.031854870952602185 -154.10199029261963 0.999334188819646 -0.6037209041061096 0.9993341888196455 -0.6037209041061096 0.030438216713248697 21.744511952041652
4350000000.0 0.03195607351403696 -154.33380802130424 0.9992828814887437 -0.6085636461949138 0.9992828814887436 -0.6085636461949137 0.030584584473995827 21.540492569868633
4400000000.0 0.03197990841281904 -154.3849319755774 0.9992788765354527 -0.618233402024631 0.9992788765354526 -0.6182334020246308 0.030494894127532833 21.340425340931223
4450000000.0 0.03196571232545399 -154.44345655929143 0.9992981640909873 -0.6234435779735021 0.999298164090987 -0.623443577973502 0.03064534512383589 21.177755785360244
4500000000.0 0.0319487175275575 -154.76498857907512 0.9993372706733601 -0.6285569098017023 0.9993372706733601 -0.6285569098017021 0.030671451294334514 20.91818771400933
4550000000.0 0.03197432686010486 -154.75590791266944 0.9993432214281509 -0.63571570745404 0.9993432214281505 -0.6357157074540402 0.030662949491601182 20.902694831410056
4600000000.0 0.0320169954595179 -155.0823916910068 0.9993362458074605 -0.6410814769609605 0.9993362458074609 -0.6410814769609602 0.030749045901607923 20.598404245061516
4650000000.0 0.032008499214630996 -155.02487988466592 0.9993212712336217 -0.6519216729931361 0.9993212712336219 -0.6519216729931363 0.030650003341944156 20.463491553269048
4700000000.0 0.0321018951332888 -155.2193445653067 0.9993137855847025 -0.6585361971417891 0.9993137855847025 -0.658536197141789 0.030823387451933474 20.10447985986637
4750000000.0 0.03199672556953736 -155.21798067293213 0.9993403717614902 -0.6672254224453966 0.9993403717614904 -0.6672254224453965 0.030753315947469047 20.052913045658876
4800000000.0 0.032122817614651224 -155.55648945621425 0.9992696423997665 -0.6691120069886795 0.9992696423997667 -0.6691120069886792 0.03090016073440427 19.86591337963494
4850000000.0 0.03215432609055529 -155.6063289092039 0.9992263695578547 -0.6793788388126996 0.9992263695578549 -0.6793788388126999 0.030761286436488892 19.601571491128116
4900000000.0 0.032191863381346934 -155.55538211589638 0.9992491721807664 -0.6887059930357741 0.9992491721807664 -0.6887059930357738 0.030905658130241678 19.370153101695166
4950000000.0 0.032125867928476284 -155.73030223499006 0.9992943437629072 -0.6946397272119776 0.9992943437629068 -0.6946397272119772 0.030924619575643245 19.294173962609683
5000000000.0 0.03215468494569342 -155.8848421314133 0.9992270060729265 -0.6989946256607824 0.9992270060729265 -0.6989946256607825 0.030853621602959957 19.322002271676308
5050000000.0 0.032294661016332146 -156.0981602742493 0.9991889290496256 -0.706826571805619 0.9991889290496259 -0.7068265718056193 0.030889265644715565 18.923912597934287
5100000000.0 0.03221844966061538 -155.8058926294653 0.9992240700844164 -0.7210322657523688 0.9992240700844162 -0.7210322657523691 0.03089728499331259 18.706843500063368
5150000000.0 0.03214996420021968 -156.06080213096516 0.9992472254620505 -0.7217866914605875 0.99924722546205 -0.7217866914605875 0.031107473416161067 18.748672693832276
5200000000.0 0.03207071567635478 -156.2608453905554 0.9992298330972568 -0.7263935407493389 0.9992298330972572 -0.7263935407493387 0.030924717462028635 18.796125973607555
5250000000.0 0.03229190467594492 -156.46968440909035 0.9991473712198966 -0.733373270626877 0.9991473712198968 -0.7333732706268768 0.031014973846224973 18.40343958930994
5300000000.0 0.032276869523614166 -156.40232492861008 0.9991419322076024 -0.7450918965945883 0.9991419322076028 -0.7450918965945884 0.031035608695418004 18.111048441210194
5350000000.0 0.032258760105867465 -156.40954030092203 0.9991760269460604 -0.7485950130794151 0.9991760269460603 -0.7485950130794157 0.031163504767500117 18.195935326307083
5400000000.0 0.03219290067824798 -156.7202007237089 0.9991930426459107 -0.7531650625628393 0.9991930426459106 -0.7531650625628393 0.031137115036696004 18.1990509610449
5450000000.0 0.03235276634295334 -156.6669445107266 0.9990984410008218 -0.7648564976664022 0.9990984410008213 -0.7648564976664018 0.031051138309207832 17.880945172136922
5500000000.0 0.03241936606533505 -156.8109411189772 0.9991021604197277 -0.7710580169675477 0.9991021604197277 -0.7710580169675479 0.031191624738213224 17.62155254865368
5550000000.0 0.03238080423428717 -156.52373683036285 0.9991545355466828 -0.7818066760752713 0.9991545355466828 -0.7818066760752713 0.031239038393639562 17.542602410951478
5600000000.0 0.0323356797364405 -156.8567838896182 0.9991614126107643 -0.7821548121994693 0.9991614126107642 -0.7821548121994698 0.03129255353961477 17.688723538779065
5650000000.0 0.03233656207300453 -156.8727681995747 0.999106746924651 -0.7944561629140616 0.999106746924651 -0.7944561629140621 0.031113085812553648 17.406807016782327
5700000000.0 0.03249192031593461 -157.04024848391197 0.9990562194479944 -0.7978112106288252 0.9990562194479948 -0.7978112106288254 0.03126028372483164 17.085030755423
5750000000.0 0.03245102495772892 -156.909952265392 0.999092354418291 -0.8096019468572382 0.999092354418291 -0.8096019468572381 0.031367276540581426 17.0153691246713
5800000000.0 0.032412865825116335 -156.95524809773934 0.9990583796792615 -0.812122752322031 0.9990583796792619 -0.812122752322031 0.03140880436135339 17.206168765615175
5850000000.0 0.03234431412058507 -157.28136425814427 0.9990591871572735 -0.817380853454003 0.9990591871572733 -0.8173808534540028 0.03128812077191551 17.10597269838419
