!Keysight Technologies,N5247B,MY61255062,A.15.50.07
!Date: Thursday, February 13, 2025 12:44:19
!Correction: S11(C  2-Port  ) 
!S21(C  2-Port  ) 
!S12(C  2-Port  ) 
!S22(C  2-Port  ) 
!S2P File: Measurements: S11, S21, S12, S22:
# Hz S  MA   R 50
50000000 0.0025402503 11.038505 0.99733037 -0.25767463 0.99718916 -0.25001824 0.0029557229 3.7618313
100000000 0.0028109229 7.1230659 0.99711853 -0.5062539 0.9972024 -0.49866304 0.0032657667 0.8017686
150000000 0.0028866248 3.5427535 0.99689037 -0.7519697 0.99719787 -0.74240988 0.0034425722 -1.6948761
200000000 0.0029755421 0.081317909 0.99665618 -0.99272019 0.99689502 -0.98456943 0.00354901 -4.8844752
250000000 0.0031435825 -2.6320357 0.99655348 -1.2319355 0.99675435 -1.2264473 0.0037649674 -8.5557823
300000000 0.0033309893 -9.1342611 0.99640423 -1.4721355 0.99665159 -1.4650398 0.0039536301 -12.196526
350000000 0.0035204622 -14.117689 0.99623817 -1.7086813 0.99653 -1.7029918 0.0040784092 -14.804034
400000000 0.0036158883 -16.871477 0.99606937 -1.9451113 0.99636585 -1.9414715 0.0042900448 -18.415407
450000000 0.0038924578 -20.355391 0.99599105 -2.1817145 0.99619323 -2.1790853 0.004533954 -21.709585
500000000 0.0040681856 -23.996035 0.9958455 -2.4183679 0.99606943 -2.4153807 0.0046899882 -24.53376
550000000 0.004202764 -25.183334 0.99581587 -2.6546259 0.99596745 -2.6542921 0.0048582754 -27.201262
600000000 0.0044076834 -28.517958 0.99571818 -2.8908763 0.99586314 -2.8905907 0.0050675897 -30.500875
650000000 0.0046671145 -31.333281 0.99568343 -3.1250646 0.99597788 -3.1221328 0.0053461408 -33.260635
700000000 0.0048237196 -33.499805 0.99566501 -3.3620672 0.99594533 -3.3581929 0.0055663292 -35.500813
750000000 0.004892908 -35.397736 0.99562269 -3.5989971 0.9958427 -3.5941241 0.0057498529 -38.214874
800000000 0.0050443695 -37.63533 0.99547809 -3.8343337 0.99573863 -3.8334577 0.0059220851 -40.2477
850000000 0.0052809017 -40.079895 0.99542832 -4.0723848 0.99562353 -4.0710444 0.0062136925 -42.720802
900000000 0.0055108061 -42.506664 0.99541181 -4.3074079 0.99549603 -4.3064799 0.0064109094 -44.597591
950000000 0.0056727626 -44.632114 0.99526572 -4.5449243 0.99539888 -4.5445237 0.0066873194 -46.551777
1000000000 0.0059486548 -47.445171 0.99516034 -4.7772613 0.99524778 -4.778779 0.0068822145 -48.154057
1050000000 0.006270241 -49.761276 0.99517256 -5.0138087 0.9952209 -5.0164638 0.0072104055 -50.287861
1100000000 0.0065195346 -51.047478 0.99509537 -5.2493072 0.99509108 -5.2534313 0.0074322517 -51.998779
1150000000 0.0066986601 -52.131218 0.99505538 -5.4847198 0.99507004 -5.4883895 0.0076855742 -53.409584
1200000000 0.0070004528 -53.93943 0.99503577 -5.7205596 0.99495262 -5.7275639 0.0079260282 -55.055748
1250000000 0.0072482438 -55.502617 0.99493611 -5.9563432 0.99492562 -5.9626217 0.0082250936 -56.594952
1300000000 0.0074197613 -56.351326 0.99480641 -6.1935124 0.99485672 -6.2002473 0.0085381931 -58.284332
1350000000 0.0076256883 -57.796978 0.99472749 -6.4304714 0.994789 -6.4375682 0.0087814797 -59.924366
1400000000 0.0078244116 -59.648132 0.99462795 -6.6666861 0.99468857 -6.6736584 0.0090635167 -61.607563
1450000000 0.0081534935 -60.976658 0.99455488 -6.9040046 0.99462223 -6.9128137 0.0093554929 -62.729351
1500000000 0.0084283464 -62.519073 0.99443996 -7.1445837 0.99446976 -7.1518235 0.0096229995 -64.501045
1550000000 0.008701792 -64.501862 0.99436218 -7.3862386 0.99438977 -7.3932614 0.0099021159 -65.885536
1600000000 0.0089921886 -67.244415 0.99413753 -7.6273775 0.99415857 -7.6340232 0.010192196 -68.039711
1650000000 0.0091694007 -68.910561 0.99390513 -7.8633347 0.99396974 -7.8685975 0.010396829 -69.582306
1700000000 0.0093436614 -71.009308 0.99360514 -8.0991373 0.99369913 -8.1052074 0.010565997 -71.790421
1750000000 0.0093532586 -73.459496 0.99325103 -8.3320923 0.99333644 -8.3376217 0.010690419 -73.715721
1800000000 0.0093651051 -75.801567 0.99296159 -8.5585575 0.99300283 -8.5637636 0.010756454 -75.157097
1850000000 0.0091777295 -78.113213 0.99251384 -8.7783918 0.99257499 -8.7819414 0.01063599 -77.322388
1900000000 0.008653081 -77.834785 0.9923479 -8.9740458 0.99241298 -8.9762163 0.010237293 -77.179337
1950000000 0.008654112 -75.402496 0.99261373 -9.1891842 0.99269974 -9.1909943 0.010410502 -75.473877
2000000000 0.0088234162 -74.402054 0.99269414 -9.4156446 0.99277341 -9.4159193 0.010631027 -75.271141
2050000000 0.0089493161 -73.140549 0.99284631 -9.6353989 0.99294561 -9.6360369 0.010641192 -74.330162
2100000000 0.0090894122 -72.410622 0.99297422 -9.8689451 0.99299306 -9.8690538 0.010966809 -73.477661
2150000000 0.0091353171 -70.639969 0.9930954 -10.092133 0.99313867 -10.091884 0.011232925 -73.427681
2200000000 0.009651823 -68.615753 0.99325836 -10.324403 0.9933989 -10.322826 0.011472609 -73.687073
2250000000 0.010129125 -68.055618 0.9934091 -10.556748 0.99365079 -10.555337 0.011796966 -72.439247
2300000000 0.010653304 -67.916245 0.99358815 -10.795108 0.99383432 -10.795388 0.012157293 -72.10968
2350000000 0.011160231 -68.925652 0.99368519 -11.038827 0.99390095 -11.037486 0.012672006 -72.096786
2400000000 0.011646141 -70.571465 0.99371141 -11.284124 0.99394536 -11.281704 0.013271295 -72.75489
2450000000 0.011959627 -71.514 0.99365789 -11.525161 0.99389923 -11.522572 0.01371655 -73.17836
2500000000 0.012281983 -72.506096 0.99353546 -11.765799 0.99385929 -11.763203 0.013987972 -74.353333
2550000000 0.012524951 -73.125275 0.99344456 -11.999887 0.99370557 -11.99807 0.014347766 -75.170807
2600000000 0.012882806 -74.091507 0.99336684 -12.236712 0.99363494 -12.237096 0.014794794 -76.006859
2650000000 0.013240971 -74.343246 0.99323326 -12.472733 0.99358034 -12.472599 0.015086548 -76.478027
2700000000 0.013507742 -74.863548 0.99314338 -12.707313 0.99337512 -12.706502 0.015379166 -76.99897
2750000000 0.013678467 -75.707817 0.99305642 -12.934932 0.99327534 -12.936949 0.015621669 -78.079712
2800000000 0.013913744 -76.721466 0.99301821 -13.166624 0.99324179 -13.166066 0.015994465 -78.903
2850000000 0.014223471 -77.466751 0.99295557 -13.400031 0.9931578 -13.399422 0.016269784 -79.455589
2900000000 0.01430718 -78.061775 0.99291766 -13.629795 0.99315202 -13.630442 0.016416525 -80.104935
2950000000 0.014394758 -78.413246 0.99293542 -13.859848 0.99315673 -13.860217 0.016572587 -80.666481
3000000000 0.014698924 -78.678894 0.99292529 -14.091991 0.99314117 -14.092325 0.016833134 -81.191338
3050000000 0.015067807 -79.168625 0.99297589 -14.327268 0.99313295 -14.329066 0.017137382 -81.108246
3100000000 0.015369209 -79.283783 0.99295521 -14.562954 0.99307495 -14.56541 0.017355081 -81.181038
3150000000 0.015594683 -79.632874 0.99289763 -14.798006 0.99309963 -14.800678 0.017681712 -81.757088
3200000000 0.015981894 -80.322487 0.99285561 -15.03679 0.99300665 -15.040126 0.018121477 -82.356941
3250000000 0.016222311 -81.127579 0.99272197 -15.273254 0.99285096 -15.27797 0.018459724 -82.681061
3300000000 0.016467554 -81.46862 0.992643 -15.506613 0.99271286 -15.509121 0.018688926 -83.213234
3350000000 0.016686903 -81.89225 0.99250317 -15.737818 0.9926033 -15.739085 0.018934188 -83.762077
3400000000 0.01682175 -82.555534 0.99241525 -15.968503 0.99249738 -15.969913 0.019222366 -84.435646
3450000000 0.017038617 -83.024345 0.9923383 -16.196564 0.99244195 -16.199368 0.019504512 -84.751976
3500000000 0.017144335 -83.367516 0.99231023 -16.423777 0.99243021 -16.426235 0.019639013 -84.889137
3550000000 0.017412646 -83.279243 0.99226469 -16.652723 0.99244714 -16.653877 0.019902015 -85.302307
3600000000 0.017606284 -83.358719 0.9923467 -16.882303 0.99244094 -16.884823 0.020163404 -85.590157
3650000000 0.017819446 -83.478806 0.99237919 -17.114222 0.99248976 -17.118237 0.020507159 -85.568474
3700000000 0.018165382 -83.77887 0.99243927 -17.350193 0.99257946 -17.353321 0.02079251 -85.775879
3750000000 0.018426821 -83.912506 0.99242008 -17.585823 0.99256957 -17.589745 0.021039279 -86.186958
3800000000 0.018875521 -84.373604 0.99237442 -17.824038 0.99254394 -17.826706 0.021473665 -86.787811
3850000000 0.018978223 -84.575661 0.99228168 -18.05949 0.99253571 -18.061892 0.021771912 -86.938469
3900000000 0.019359361 -85.20787 0.99228704 -18.296099 0.99246305 -18.298801 0.022116523 -87.246773
3950000000 0.019564789 -85.478195 0.99222416 -18.529757 0.99239451 -18.533785 0.022318192 -87.639893
4000000000 0.019971319 -85.653275 0.99219418 -18.764353 0.99231589 -18.769907 0.022703025 -88.109222
4050000000 0.02010436 -86.071716 0.99211264 -18.998783 0.99224883 -19.004013 0.02296083 -88.480629
4100000000 0.020394087 -86.386353 0.99206638 -19.233677 0.99213034 -19.238001 0.023243204 -88.658852
4150000000 0.020726331 -87.050903 0.99200457 -19.466597 0.99210054 -19.470186 0.023512172 -89.179916
4200000000 0.020969775 -87.02961 0.99195576 -19.70084 0.99207079 -19.703949 0.023785535 -89.55323
4250000000 0.021239748 -87.601768 0.99189627 -19.934675 0.99196881 -19.935715 0.024182105 -90.019615
4300000000 0.021325883 -87.877258 0.99180984 -20.168125 0.99194092 -20.170799 0.024341732 -90.120583
4350000000 0.021744626 -88.459785 0.99173123 -20.401644 0.99186623 -20.403858 0.024663083 -90.485313
4400000000 0.021940589 -88.569122 0.99172199 -20.634331 0.99180049 -20.635277 0.024871051 -90.944122
4450000000 0.022212384 -88.70742 0.99161679 -20.866472 0.99172193 -20.869343 0.025264699 -91.127838
4500000000 0.022373671 -89.248062 0.99161875 -21.099663 0.99165964 -21.102409 0.02552421 -91.457024
4550000000 0.022682505 -89.35939 0.99155295 -21.335461 0.99163443 -21.33622 0.025752028 -91.6763
4600000000 0.022978943 -89.899361 0.99145389 -21.568892 0.99158603 -21.568888 0.026112992 -92.128845
4650000000 0.023167256 -89.844421 0.9914307 -21.802963 0.99154425 -21.804237 0.026303632 -92.406418
4700000000 0.023531351 -90.41301 0.99132591 -22.037161 0.99145901 -22.038538 0.02674251 -92.814247
4750000000 0.02363139 -90.456833 0.99130529 -22.26993 0.99141657 -22.273003 0.026878105 -92.972389
4800000000 0.024050258 -91.094749 0.99119902 -22.504852 0.99132848 -22.505892 0.027281042 -93.221596
4850000000 0.024285389 -91.232719 0.99111438 -22.735878 0.99130964 -22.73839 0.027433366 -93.750542
4900000000 0.024544215 -91.456627 0.99107796 -22.969688 0.99123633 -22.972572 0.027842062 -93.929535
4950000000 0.024726566 -91.850983 0.99100506 -23.203732 0.991135 -23.206213 0.028040621 -94.28495
5000000000 0.025018457 -92.038979 0.9909513 -23.437048 0.99109471 -23.439693 0.028261365 -94.439957
5050000000 0.025344623 -92.558098 0.99088401 -23.670095 0.99100423 -23.671246 0.028610738 -94.973923
5100000000 0.025522159 -92.337173 0.99085283 -23.905176 0.9909113 -23.906155 0.028855409 -95.166656
5150000000 0.02577302 -92.858612 0.99073881 -24.139957 0.99079365 -24.139389 0.029242713 -95.281708
5200000000 0.025924437 -93.033195 0.99073654 -24.372604 0.99075097 -24.370987 0.029322557 -95.566139
5250000000 0.026342552 -93.495659 0.99062371 -24.604612 0.99069524 -24.604994 0.029763443 -95.935547
5300000000 0.026563859 -93.722595 0.99051476 -24.836842 0.99054009 -24.837641 0.029990032 -96.343422
5350000000 0.026885064 -93.852783 0.99042064 -25.069372 0.99049127 -25.071482 0.03038121 -96.406624
5400000000 0.027075345 -94.33828 0.99038172 -25.302242 0.99043202 -25.303448 0.030578719 -96.680626
5450000000 0.027365249 -94.379318 0.99033117 -25.535629 0.99034864 -25.537348 0.030773634 -97.002991
5500000000 0.027693329 -94.943474 0.99023247 -25.767647 0.99024451 -25.769859 0.031200226 -97.485405
5550000000 0.027941639 -94.726524 0.99015397 -26.000456 0.99021387 -26.004017 0.031457152 -97.587952
5600000000 0.02817874 -95.254677 0.99007285 -26.23164 0.9901073 -26.237082 0.031759411 -97.661392
5650000000 0.028255381 -95.386177 0.98999023 -26.464388 0.99005759 -26.469471 0.031808864 -98.151489
5700000000 0.028735071 -95.906296 0.98994851 -26.698235 0.98994803 -26.703188 0.03228765 -98.575363
5750000000 0.028992876 -95.943863 0.98985606 -26.93141 0.98983026 -26.936176 0.032593813 -98.776711
5800000000 0.029202463 -96.01722 0.98978251 -27.165184 0.98972923 -27.168173 0.032853175 -98.630913
5850000000 0.029283939 -96.58522 0.98968107 -27.395952 0.98960954 -27.400345 0.032972153 -99.09761
5900000000 0.02970963 -96.879913 0.9895975 -27.63113 0.98952931 -27.632809 0.033342548 -99.555809
5950000000 0.030079991 -97.249657 0.98951375 -27.864231 0.98941755 -27.865089 0.033798262 -99.70166
6000000000 0.030276097 -96.947105 0.98941505 -28.095835 0.98933053 -28.097702 0.033947188 -99.737236
6050000000 0.030376609 -97.626755 0.98933643 -28.327103 0.98926735 -28.329845 0.034198713 -100.00925
6100000000 0.030724453 -97.922668 0.98919845 -28.55831 0.98914433 -28.56362 0.034461353 -100.54426
6150000000 0.031257357 -98.22998 0.98905909 -28.791067 0.98904806 -28.794842 0.03497231 -100.68353
6200000000 0.031378742 -97.985809 0.98895055 -29.023155 0.98893929 -29.026163 0.035148676 -100.75417
6250000000 0.03151004 -98.453865 0.98888355 -29.255787 0.9888894 -29.258015 0.035399798 -100.98773
6300000000 0.031768575 -99.000923 0.988828 -29.486572 0.9887588 -29.489304 0.035641059 -101.46619
6350000000 0.032318782 -99.075546 0.98871392 -29.721132 0.98865908 -29.720676 0.036119308 -101.762
6400000000 0.032450221 -99.15226 0.98865324 -29.9515 0.98859787 -29.953207 0.036403544 -101.77388
6450000000 0.032618292 -99.240623 0.98853546 -30.181866 0.98847395 -30.18528 0.03657046 -102.04639
6500000000 0.032852374 -99.931664 0.98843735 -30.41114 0.98831725 -30.412125 0.036868062 -102.40771
6550000000 0.033340912 -100.06009 0.98831785 -30.643671 0.98821789 -30.646158 0.03727204 -102.76885
6600000000 0.033641018 -100.25696 0.98822904 -30.874453 0.98814118 -30.877304 0.037653051 -102.76886
6650000000 0.033683751 -100.29076 0.98814148 -31.104338 0.98801708 -31.106642 0.037825264 -102.88342
6700000000 0.034029953 -100.85387 0.98803169 -31.33322 0.98790139 -31.337505 0.03814581 -103.33916
6750000000 0.034339339 -101.08736 0.98790687 -31.566122 0.98778749 -31.569038 0.038435835 -103.61585
6800000000 0.03483294 -101.18359 0.98779023 -31.79715 0.98767012 -31.801123 0.0389129 -103.78548
6850000000 0.034888968 -101.39275 0.98773396 -32.027016 0.98760962 -32.028088 0.039082006 -103.90993
6900000000 0.035243258 -101.52435 0.98762029 -32.254753 0.98749608 -32.259262 0.039378531 -104.33677
6950000000 0.035497162 -102.08588 0.98747152 -32.483814 0.98732078 -32.486355 0.039706908 -104.56863
7000000000 0.035939477 -102.07849 0.98735511 -32.714512 0.98725092 -32.717617 0.040115595 -104.81554
7050000000 0.036149401 -102.38339 0.98724216 -32.94339 0.98717451 -32.944599 0.040408418 -104.99892
7100000000 0.036343779 -102.40507 0.98710382 -33.171066 0.98703355 -33.173656 0.040651187 -105.23535
7150000000 0.036752902 -103.00664 0.9869892 -33.399498 0.98688269 -33.402657 0.041074876 -105.60611
7200000000 0.037061427 -103.13477 0.98688281 -33.629623 0.98672527 -33.631561 0.041379638 -105.7965
7250000000 0.037484564 -103.42345 0.98674434 -33.856121 0.98661399 -33.85844 0.041823946 -106.11041
7300000000 0.037543479 -103.58159 0.98662907 -34.082859 0.98656142 -34.085754 0.041985903 -106.31391
7350000000 0.037991207 -103.95483 0.98653394 -34.310757 0.9864375 -34.314014 0.04242127 -106.61699
7400000000 0.038224485 -104.3868 0.98647726 -34.534794 0.98634899 -34.538223 0.042720139 -106.8993
7450000000 0.038669072 -104.38973 0.98636693 -34.7621 0.98630458 -34.766193 0.043110155 -107.21038
7500000000 0.038851514 -104.83104 0.98624581 -34.987312 0.98620903 -34.992661 0.043413956 -107.51071
7550000000 0.039176904 -104.85954 0.98619193 -35.2127 0.9861272 -35.220474 0.043686152 -107.80693
7600000000 0.03954142 -105.52545 0.98611426 -35.438763 0.98607641 -35.445042 0.044121802 -108.19096
7650000000 0.039743375 -105.57607 0.98601812 -35.665154 0.98603964 -35.672737 0.044350572 -108.46091
7700000000 0.04027544 -105.9847 0.98592132 -35.890205 0.98587489 -35.896877 0.044838499 -108.78568
7750000000 0.040376939 -106.0564 0.98588371 -36.116512 0.98584759 -36.122189 0.044990435 -109.04768
7800000000 0.040867027 -106.35149 0.98582923 -36.344193 0.98576671 -36.34845 0.045436244 -109.43632
7850000000 0.040959641 -106.92382 0.98576587 -36.566875 0.98577875 -36.571434 0.045702361 -109.79917
7900000000 0.041518379 -107.09628 0.98573327 -36.791622 0.98567766 -36.796936 0.046143994 -110.12276
7950000000 0.04175159 -107.54191 0.98566222 -37.017963 0.98558855 -37.023849 0.046405755 -110.39983
8000000000 0.041917514 -107.46014 0.98565751 -37.243149 0.98561859 -37.250443 0.046572313 -110.79871
8050000000 0.042157598 -108.36601 0.98571068 -37.466465 0.98559529 -37.473194 0.047070339 -111.16371
8100000000 0.042547472 -108.4241 0.98564667 -37.694187 0.98559082 -37.700394 0.047280971 -111.53193
8150000000 0.043090887 -108.83544 0.98557597 -37.920261 0.98549873 -37.925465 0.0476625 -111.7466
8200000000 0.042984821 -108.78124 0.98559117 -38.147781 0.9855243 -38.152142 0.047731314 -112.17439
8250000000 0.043365519 -109.41875 0.98557955 -38.372112 0.9854784 -38.379627 0.048202198 -112.58332
8300000000 0.043608829 -109.89166 0.9856075 -38.596897 0.98543376 -38.604721 0.048438653 -112.88394
8350000000 0.044209216 -109.85391 0.98553813 -38.827724 0.98540312 -38.830929 0.048666265 -113.16074
8400000000 0.044159729 -110.16414 0.9855777 -39.056671 0.98543328 -39.061069 0.048851069 -113.51432
8450000000 0.044332068 -110.40537 0.98556 -39.281559 0.98544735 -39.286594 0.0491166 -114.00418
8500000000 0.044749159 -111.27267 0.98556364 -39.50708 0.98540652 -39.511269 0.049513031 -114.09834
8550000000 0.045152314 -111.03492 0.98552406 -39.733658 0.98537105 -39.742401 0.049611945 -114.46169
8600000000 0.045379907 -111.40709 0.98557633 -39.962009 0.98536593 -39.966568 0.049781613 -114.8036
8650000000 0.045332629 -111.68825 0.98552221 -40.187336 0.98537868 -40.190792 0.050037012 -115.24427
8700000000 0.04599509 -112.35195 0.98548627 -40.41452 0.98533142 -40.41737 0.050487969 -115.4489
8750000000 0.046349421 -112.58955 0.98546994 -40.639198 0.98530436 -40.642212 0.050642472 -115.59167
8800000000 0.046805721 -112.6841 0.98547345 -40.860058 0.98529476 -40.864548 0.050785456 -116.02383
8850000000 0.046629176 -113.46554 0.98561907 -41.083519 0.98544598 -41.088558 0.051125739 -116.39069
8900000000 0.047011461 -113.94753 0.98570371 -41.308987 0.98555726 -41.313057 0.05152769 -116.84705
8950000000 0.04723322 -114.64034 0.98581481 -41.539341 0.98566854 -41.540867 0.051688232 -116.8998
9000000000 0.047360711 -114.42493 0.98596877 -41.769089 0.985816 -41.774551 0.051737711 -117.44398
9050000000 0.047270164 -115.03813 0.98601115 -41.998371 0.98582715 -42.004669 0.05191423 -117.80529
9100000000 0.047305141 -115.29932 0.98607337 -42.230171 0.98585939 -42.235825 0.052260615 -118.13124
9150000000 0.047781449 -115.79678 0.98611951 -42.461403 0.98587441 -42.467094 0.052413944 -118.24808
9200000000 0.047758851 -115.77235 0.98614496 -42.695568 0.98597401 -42.699909 0.052426111 -118.55494
9250000000 0.047954947 -115.86225 0.98618567 -42.927406 0.98598409 -42.930164 0.052617658 -119.10521
9300000000 0.047782343 -116.41576 0.98619246 -43.159878 0.9860341 -43.160198 0.05290249 -119.20876
9350000000 0.048286561 -116.59737 0.98624909 -43.390961 0.986018 -43.392887 0.053183232 -119.51888
9400000000 0.048395324 -116.88374 0.98623872 -43.622318 0.98602903 -43.623878 0.053116184 -119.59773
9450000000 0.048570693 -116.66545 0.98622763 -43.851406 0.98607361 -43.854679 0.053395171 -120.17722
9500000000 0.048594929 -117.35806 0.98623121 -44.083305 0.98616803 -44.088062 0.053634323 -120.32888
9550000000 0.048834566 -117.49839 0.98624361 -44.318176 0.98609245 -44.322182 0.053903267 -120.41425
9600000000 0.049317613 -117.80837 0.98629117 -44.548382 0.98608196 -44.551517 0.05394163 -120.66211
9650000000 0.049224019 -117.65221 0.98630768 -44.782043 0.98605734 -44.784866 0.054074436 -121.00415
9700000000 0.049504235 -118.02307 0.98626292 -45.012032 0.98606241 -45.014824 0.054421831 -121.52394
9750000000 0.049565062 -118.51366 0.986251 -45.246693 0.98609376 -45.247791 0.054634456 -121.35342
9800000000 0.050146822 -118.51697 0.98622012 -45.475697 0.9860943 -45.478249 0.054821245 -121.77633
