!Keysight Technologies,N5247B,MY61255062,A.15.50.07
!Date: Thursday, February 13, 2025 12:32:13
!Correction: S11(C  2-Port  ) 
!S21(C  2-Port  ) 
!S12(C  2-Port  ) 
!S22(C  2-Port  ) 
!S2P File: Measurements: S11, S21, S12, S22:
# Hz S  MA   R 50
50000000 4.3867243e-005 -81.471809 1.8031917e-005 105.3787 1.4545046e-005 89.13868 5.6453158e-005 -132.6792
100000000 1.9339597e-005 -4.6490436 3.8229897e-005 93.174355 3.1440788e-005 83.269333 4.9350208e-005 -168.65541
150000000 1.790092e-005 84.436661 5.3649444e-005 86.346756 5.3429492e-005 89.470772 3.5439898e-005 174.84117
200000000 2.2992681e-005 172.01512 7.4452459e-005 88.044113 7.6825985e-005 87.501205 5.5037544e-005 176.09816
250000000 2.0208263e-005 -94.620209 9.2446164e-005 88.814362 8.9286965e-005 89.526978 5.148659e-005 176.79784
300000000 1.0201751e-005 -34.842789 0.00011001453 86.751953 0.00010670962 87.374023 6.3129315e-005 -151.41597
350000000 2.0648627e-005 90.491669 0.00012691251 87.17907 0.00012424638 86.958046 3.5669655e-005 174.22069
400000000 2.682687e-005 -176.62459 0.00014345795 88.437294 0.00014503434 86.789169 6.5853019e-005 -164.42056
450000000 1.7600312e-005 -105.17822 0.0001603124 88.022018 0.0001625078 88.988991 5.2533444e-005 -175.47687
500000000 1.5014873e-005 -49.27533 0.00018049272 89.265495 0.00018086146 89.222267 5.7674832e-005 -146.94443
550000000 1.9431693e-005 91.893417 0.00019876708 89.662926 0.00019337999 86.886299 5.009877e-005 176.05424
600000000 2.4583909e-005 -176.24303 0.00021468761 88.827278 0.00022320631 88.891273 6.2036313e-005 -159.00919
650000000 2.4950848e-005 -99.028053 0.00023581818 89.339241 0.00023412985 90.238342 6.9224399e-005 -170.57207
700000000 1.5110358e-005 -46.631046 0.00025416861 89.6521 0.00025352711 89.034103 5.4856206e-005 -149.78937
750000000 1.4654836e-005 90.540611 0.00027446443 89.895294 0.00027633292 89.818672 6.0820694e-005 -164.48729
800000000 2.7065809e-005 -159.80945 0.00029311204 89.961304 0.00029488199 89.818428 5.4763674e-005 -164.94624
850000000 3.0908901e-005 -118.80569 0.00031524306 88.838036 0.00032147317 89.18399 6.7168483e-005 -149.77452
900000000 2.3629013e-005 -70.173477 0.00033169982 88.541962 0.00032867203 89.3452 5.7129251e-005 -156.74506
950000000 6.4146848e-006 -10.068119 0.00034863481 88.390839 0.00034756659 88.247353 5.007978e-005 -147.33199
1000000000 2.2014683e-005 -157.7451 0.00036168861 88.838646 0.00035922759 89.507744 5.2010957e-005 -162.76469
1050000000 3.7899499e-005 -109.29865 0.00038582084 88.974678 0.00038708554 89.736885 5.3397456e-005 -153.5103
1100000000 2.935162e-005 -57.805599 0.00040612865 89.318214 0.00040389586 89.396255 7.1641887e-005 -154.54669
1150000000 9.4609322e-006 54.93401 0.00042448082 89.909828 0.00042556369 89.912163 6.7137022e-005 -149.28058
1200000000 2.5944304e-005 -156.97285 0.00045278933 89.734207 0.00045199814 89.750542 6.7115056e-005 -146.61935
1250000000 3.9706883e-005 -104.46841 0.00047539474 89.466171 0.00047528942 89.457512 6.336045e-005 -154.31203
1300000000 2.8086315e-005 -88.984123 0.00050328718 89.483269 0.00050288322 89.377014 6.838399e-005 -154.25725
1350000000 9.946777e-006 -107.75574 0.00052096142 89.237755 0.00051557482 89.011581 6.7874986e-005 -152.752
1400000000 3.0884898e-005 -126.59049 0.00054678897 89.90078 0.00054723403 89.84671 7.9291975e-005 -146.918
1450000000 3.1940908e-005 -111.85686 0.00058185973 89.846642 0.00058191927 89.795723 6.3022824e-005 -149.17296
1500000000 4.3529268e-005 -81.913582 0.00061944075 88.897865 0.00062112365 88.826134 7.7105637e-005 -145.30249
1550000000 1.5986478e-005 -62.563202 0.00064267835 87.599373 0.0006462012 87.542664 7.6055665e-005 -147.25267
1600000000 2.7928623e-005 -119.76627 0.00067484687 88.019325 0.00067411078 88.135468 7.8992314e-005 -140.37074
1650000000 4.4895274e-005 -118.59921 0.00072724198 86.505653 0.00073243264 86.688019 7.1249822e-005 -145.48335
1700000000 4.8007645e-005 -78.808403 0.00076115178 84.124382 0.0007643982 84.172523 8.2865474e-005 -149.48178
1750000000 2.8447268e-005 -83.659012 0.00081023941 82.266319 0.00080698181 82.243591 8.4805353e-005 -139.55565
1800000000 3.3153327e-005 -120.47962 0.00085311808 79.057953 0.00085458811 79.060875 7.8538011e-005 -130.83191
1850000000 5.201991e-005 -117.43286 0.00088516832 74.64222 0.0008864663 74.725327 7.8063022e-005 -146.87419
1900000000 5.3134499e-005 -86.608223 0.00087692088 70.114449 0.00087614456 70.07299 8.7341214e-005 -148.17448
1950000000 3.3253455e-005 -115.81069 0.00087008066 68.421021 0.00086849876 68.505722 0.00010159543 -143.49065
2000000000 4.1122243e-005 -116.02366 0.00089940196 65.033363 0.00089879066 65.206352 0.00010498141 -131.38174
2050000000 6.0031536e-005 -105.3303 0.0008974027 58.231712 0.0008952358 58.009384 8.120032e-005 -136.56464
2100000000 4.7488833e-005 -84.786942 0.000846893 50.013214 0.0008434286 50.158932 7.9543868e-005 -133.34596
2150000000 2.0374131e-005 -118.37034 0.00070032064 44.537403 0.00070373615 44.366005 0.00010059673 -144.90794
2200000000 5.2882609e-005 -117.31118 0.00056114473 41.331249 0.00056148303 41.349277 0.00010094431 -129.1687
2250000000 6.6492998e-005 -100.26044 0.00037717636 51.434101 0.00038150116 51.366531 6.8096517e-005 -114.30666
2300000000 4.5589179e-005 -72.240517 0.00036108273 78.31076 0.00035966426 78.158592 6.7541652e-005 -132.19011
2350000000 3.8385984e-005 -100.41128 0.00046440205 93.153809 0.00046943719 93.483917 8.5976782e-005 -150.57149
2400000000 7.144361e-005 -122.18769 0.00056963711 96.404495 0.0005696548 97.352608 9.8772936e-005 -135.77087
2450000000 6.8596746e-005 -94.988197 0.00067096623 96.5214 0.00066707231 97.010078 8.1878825e-005 -117.28405
2500000000 5.6335146e-005 -81.613785 0.00074034731 95.283035 0.0007375218 95.220276 6.2191306e-005 -146.87044
2550000000 2.4463046e-005 -61.451862 0.00081685913 92.163315 0.00081762567 92.099007 0.00011137792 -136.98331
2600000000 7.2559851e-005 -123.46535 0.00084587984 91.174835 0.00084418588 91.185783 0.00012446962 -126.04637
2650000000 8.8894332e-005 -93.910439 0.00088158273 90.360481 0.00087850541 90.178345 0.00010942256 -103.83887
2700000000 0.0001021757 -65.184883 0.00093743531 89.502686 0.00094533293 89.291245 6.2548184e-005 -110.29545
2750000000 1.8148194e-005 -43.129635 0.00099685905 87.095619 0.00099173025 87.238731 9.4347626e-005 -135.05107
2800000000 6.4122854e-005 -126.36835 0.0010454144 83.879692 0.0010438646 83.590195 0.00011045849 -124.76611
2850000000 0.0001030815 -114.31362 0.001075597 81.075142 0.0010766977 81.18383 0.00010119034 -100.9584
2900000000 0.0001195067 -68.374535 0.0010760503 75.711594 0.001074631 75.591164 4.8657981e-005 -115.70428
2950000000 3.7912385e-005 -68.192009 0.0010431217 72.735214 0.0010435845 72.870399 6.2625244e-005 -146.74649
3000000000 3.7059839e-005 -122.41829 0.0010029169 70.549248 0.0010053832 70.832985 0.00013336699 -130.98967
3050000000 0.00011671286 -114.11554 0.00092854985 69.091736 0.00093430997 68.953796 0.00011346925 -108.92944
3100000000 0.00010782164 -73.546761 0.00087255653 70.153633 0.00086874835 69.97068 5.6975397e-005 -114.1741
3150000000 6.7107292e-005 -60.846565 0.00083139155 73.700165 0.00083003542 73.757439 6.9807029e-005 -154.61333
3200000000 2.9974644e-005 -129.13634 0.00082503312 78.364471 0.00082867581 78.483238 0.00014756867 -126.83076
3250000000 0.00013737127 -106.42652 0.00085776724 81.009789 0.00086094043 80.814926 0.00011291208 -106.87269
3300000000 0.00012469008 -80.093201 0.00089889672 82.801071 0.00089459552 82.868172 9.0371803e-005 -94.765991
3350000000 9.0115631e-005 -57.541611 0.00093872135 83.018555 0.00094207883 82.709274 9.0497175e-005 -148.09598
3400000000 3.9536229e-005 -123.9649 0.00095869839 82.17218 0.00096231472 82.371147 0.00011849169 -124.669
3450000000 9.1269925e-005 -106.12638 0.00095681689 81.817459 0.0009612462 82.178406 0.00013198673 -97.019707
3500000000 0.00013997548 -98.071259 0.00096577388 82.744759 0.00096295064 82.833183 4.0954346e-005 -77.736038
3550000000 0.00011345708 -56.49934 0.00098609331 83.600616 0.0009843366 83.639725 7.1004353e-005 -130.3746
3600000000 6.0660859e-005 -84.391281 0.0010033491 84.279694 0.0010017455 84.122353 0.00012498506 -139.29758
3650000000 5.7329235e-005 -96.427185 0.0010198227 83.544952 0.0010188465 83.482643 0.00015588028 -100.8812
3700000000 0.00014887552 -92.261459 0.0010302042 82.956184 0.0010290475 83.013016 6.484396e-005 -93.322289
3750000000 8.9368215e-005 -63.937012 0.0010193592 83.347839 0.0010271654 83.280479 4.8638547e-005 -119.72791
3800000000 8.7804125e-005 -63.613235 0.0010285383 84.605698 0.0010288697 84.713326 0.00013301782 -136.30234
3850000000 5.7115856e-005 -98.558601 0.0010450393 85.189552 0.0010426651 85.063019 0.00011010702 -106.9922
3900000000 0.00012858609 -83.194138 0.0010531944 85.768517 0.0010529507 85.975548 0.00010823782 -100.30518
3950000000 0.00010821207 -83.480713 0.0010740387 86.703918 0.0010739587 86.412903 4.680948e-005 -137.61121
4000000000 0.00010328631 -53.696941 0.0010858411 86.911751 0.0010878318 86.96846 0.00012552392 -115.14017
4050000000 8.2525861e-005 -107.85617 0.0011068135 87.694496 0.0011029626 87.650887 8.9066569e-005 -113.43649
4100000000 0.00010465756 -78.255112 0.0011305232 88.315125 0.0011323974 88.45105 0.00010235205 -78.129387
4150000000 0.00015279681 -80.847198 0.0011531939 88.238365 0.001157776 88.259537 8.0955731e-005 -133.47102
4200000000 7.9216006e-005 -59.390095 0.0011677424 88.070488 0.0011750532 88.143715 8.3577695e-005 -107.6944
4250000000 0.0001229581 -86.608551 0.0011791663 87.870514 0.0011756759 87.965294 0.00012513924 -115.7868
4300000000 8.4244173e-005 -81.435776 0.0011859142 88.232948 0.0011908187 87.984352 6.7717854e-005 -84.472382
4350000000 0.0001388635 -73.890198 0.0012059049 88.709129 0.0012140792 88.68325 9.7953773e-005 -108.19878
4400000000 8.8697983e-005 -88.991013 0.0012248431 89.052132 0.0012177601 89.029213 6.8292225e-005 -138.58791
4450000000 0.00011293511 -64.377968 0.0012430773 89.190353 0.0012442257 89.282753 0.00013585328 -106.75705
4500000000 8.8816334e-005 -94.945915 0.0012592108 89.260597 0.0012611545 89.184029 0.00010054463 -114.4351
4550000000 0.00011945328 -56.804974 0.0012714363 89.271744 0.0012743758 89.398735 9.8065502e-005 -88.880341
4600000000 0.00011264991 -91.064468 0.0012917264 89.646973 0.0012902552 89.666229 0.00010108371 -126.6256
4650000000 8.6324646e-005 -68.713455 0.0013011097 89.763802 0.0013056553 89.743629 8.9718611e-005 -95.713318
4700000000 0.00015003396 -77.900421 0.0013163452 90.078575 0.0013155314 90.082748 0.00013191746 -107.17232
4750000000 8.053214e-005 -54.851093 0.0013305306 90.271065 0.0013360041 90.449966 5.332466e-005 -93.480606
4800000000 0.00013157609 -79.835655 0.0013536124 90.476357 0.0013461099 90.589363 0.0001102381 -103.70255
4850000000 9.9216908e-005 -93.566254 0.0013725436 90.78125 0.00136997 90.863609 6.9491129e-005 -143.10551
4900000000 0.00017936104 -63.517681 0.0013864001 90.821106 0.0013933521 90.93161 0.00011738879 -96.205063
4950000000 9.2382033e-005 -72.162674 0.0014094023 90.864685 0.0014017785 91.071472 9.6247568e-005 -134.91832
5000000000 9.9758028e-005 -58.633034 0.0014245623 91.181778 0.001424668 91.225258 8.9404777e-005 -83.124413
5050000000 0.00013598874 -112.29014 0.0014406622 91.216141 0.0014435394 91.229446 0.00012249577 -131.70099
5100000000 0.00015804422 -60.149517 0.0014528639 91.309662 0.0014534058 91.349716 7.765153e-005 -100.23853
5150000000 0.00014888158 -58.511513 0.0014783659 91.553383 0.001478432 91.500443 0.00013097364 -110.08643
5200000000 6.0940016e-005 -12.594976 0.0014977828 91.787994 0.0014912533 91.782356 6.7946654e-005 -106.76737
5250000000 0.00014692477 -94.82238 0.001512651 91.693993 0.001518245 91.525505 0.00011186044 -101.45423
5300000000 0.00014540863 -82.428024 0.0015315413 91.689384 0.0015322174 91.602165 9.4547628e-005 -146.23302
5350000000 0.00019237545 -53.271343 0.0015518531 91.594383 0.0015532579 91.693962 0.00013307341 -94.55896
5400000000 2.4771045e-005 -55.806087 0.0015672032 91.883308 0.001569684 91.618111 0.00012403277 -109.85408
5450000000 9.6740325e-005 -85.430748 0.001584487 91.714432 0.0015872228 91.905792 4.7830345e-005 -70.138977
5500000000 0.00017949271 -101.86014 0.0016014262 91.779602 0.0015998119 91.744926 0.00012815552 -128.38434
5550000000 0.00018017953 -44.968311 0.0016149345 91.708801 0.0016133219 91.59024 9.1882408e-005 -111.10211
5600000000 7.6652235e-005 -66.039719 0.0016281883 91.652214 0.0016303384 91.562218 0.00015228329 -81.496895
5650000000 2.7311973e-005 -80.467491 0.0016430763 91.810822 0.0016467547 91.836624 3.334635e-005 -119.27607
5700000000 0.00020581252 -102.03489 0.0016564419 91.845932 0.00165529 91.833435 9.7172022e-005 -119.44658
5750000000 0.00015424802 -59.550262 0.0016714006 92.027596 0.0016692746 92.038185 0.00015600018 -121.93629
5800000000 0.00015488165 -51.441338 0.0016878576 92.223038 0.0016910434 92.126976 0.00012598778 -71.655853
5850000000 1.9723177e-005 -178.66595 0.0017054512 92.304024 0.0017080248 92.328331 7.3462099e-005 -98.51075
5900000000 0.00017470888 -92.843201 0.0017242815 92.459763 0.0017246921 92.239288 7.2394992e-005 -139.43747
5950000000 0.00016853657 -86.344872 0.0017425572 92.520798 0.0017406752 92.418556 0.00016542521 -108.79564
6000000000 0.00018385614 -36.146938 0.0017548135 92.423935 0.0017573008 92.426544 0.00010811735 -89.664093
6050000000 4.7041878e-005 -138.19084 0.0017722368 92.546539 0.0017697043 92.391052 8.2619743e-005 -74.498558
6100000000 9.4388e-005 -95.643021 0.0017894432 92.612312 0.0017944601 92.576515 9.5392352e-005 -145.3231
6150000000 0.00023694801 -95.205132 0.001808753 92.635582 0.001814481 92.705284 0.00012988759 -107.54333
6200000000 0.0001553841 -32.319195 0.0018208444 92.657135 0.001825852 92.63829 0.00015394753 -93.733307
6250000000 9.5294679e-005 -76.932938 0.0018405338 92.576607 0.0018450664 92.562462 6.7264104e-005 -60.264282
6300000000 8.7915992e-005 -147.15469 0.0018592612 92.723137 0.001858839 92.695236 9.5588439e-005 -126.97218
6350000000 0.0002394576 -86.697594 0.0018727131 92.658623 0.00186899 92.789803 0.00012255272 -123.29524
6400000000 0.00012238784 -71.593307 0.001885735 92.658989 0.001888111 92.64238 0.00015114527 -92.382172
6450000000 0.00014174434 -43.389118 0.0019023473 92.647957 0.0019068724 92.692947 8.7251727e-005 -93.745819
6500000000 0.00011611173 -136.40047 0.0019197956 92.821487 0.0019156706 92.821541 7.904027e-005 -114.93998
6550000000 0.00016111207 -84.836502 0.0019323952 92.916389 0.001934432 92.64698 0.00015524006 -124.82316
6600000000 0.00020591827 -93.201042 0.0019487558 92.905434 0.0019518506 93.020576 0.00013638513 -89.955605
6650000000 0.00013396259 -24.307152 0.0019676993 92.966431 0.0019670941 93.041771 0.00013134482 -80.293236
6700000000 0.00013941964 -114.5425 0.0019819411 93.163986 0.0019856261 93.016953 6.3413929e-005 -109.07384
6750000000 9.1250098e-005 -105.87145 0.0019944825 92.975311 0.0019986199 93.075623 0.00012983118 -120.79662
6800000000 0.00025414955 -89.187714 0.0020087014 93.076065 0.0020128661 92.978447 0.00015523659 -105.23752
6850000000 9.6369244e-005 -75.190559 0.0020323473 93.257195 0.002033666 93.372543 0.0001315313 -76.817612
6900000000 0.00015462874 -75.093163 0.0020438428 93.290749 0.0020450701 93.396896 8.6752429e-005 -107.33193
6950000000 0.00015240513 -133.06694 0.0020593437 93.382484 0.0020603116 93.485985 0.00012236813 -123.58784
7000000000 0.00021202698 -81.765533 0.0020769401 93.386879 0.002081217 93.315521 0.00016774959 -109.3204
7050000000 0.00018100229 -102.80678 0.0020919226 93.501289 0.0020909114 93.602051 0.00012913998 -87.716553
7100000000 0.00013610898 -50.124729 0.0021128734 93.5812 0.0021048158 93.38018 0.00010092741 -89.201096
7150000000 0.00018752876 -113.2745 0.0021256311 93.638557 0.0021257354 93.581566 0.00012350602 -125.01368
7200000000 0.00013701392 -88.011818 0.0021458711 93.671959 0.0021471675 93.559486 0.00016845828 -106.51853
7250000000 0.00026747814 -93.925896 0.0021595398 93.722717 0.0021598719 93.906433 0.00017729607 -95.704025
7300000000 0.00011444339 -91.16951 0.0021786075 93.924484 0.0021766813 93.879013 0.00011113891 -91.311714
7350000000 0.00020958667 -80.538132 0.0021938162 93.812592 0.0021912148 93.775398 0.00013841566 -100.37906
7400000000 0.00013193699 -123.52892 0.0022134257 93.920349 0.0022187487 93.860435 0.00014960424 -111.7377
7450000000 0.00024882291 -83.979431 0.0022292843 94.046928 0.0022275012 94.039101 0.00017254152 -89.443466
7500000000 0.00020750632 -110.83112 0.002249514 93.958382 0.00225701 93.94838 0.00013117761 -88.343178
7550000000 0.00019939549 -60.785297 0.0022639686 93.931816 0.0022659306 94.214409 9.6522257e-005 -88.339767
7600000000 0.00021069501 -117.61647 0.0022820402 94.150276 0.0022892596 94.061722 0.00015743979 -113.88075
7650000000 0.00014955678 -82.615494 0.0022974433 94.109154 0.0023066907 94.287315 0.00016123471 -91.909401
7700000000 0.00030661558 -101.341 0.0023149212 94.19091 0.0023185173 94.1912 0.00018630608 -85.755043
7750000000 0.0001504555 -62.830055 0.0023358676 94.206177 0.0023380939 94.232712 0.00011188989 -93.398796
7800000000 0.0002543967 -84.257751 0.0023554727 94.346062 0.0023522601 94.241493 0.0001777337 -96.34343
7850000000 0.00013389027 -121.30827 0.0023736835 94.353897 0.0023748667 94.554932 0.0001818177 -104.01226
7900000000 0.00032761059 -89.179298 0.0023928257 94.49675 0.0023848263 94.402206 0.0001956729 -79.587677
7950000000 0.00022574949 -99.5728 0.0024122074 94.45594 0.0024089457 94.363884 0.00017702774 -86.043953
8000000000 0.00025531178 -56.836006 0.0024327741 94.510757 0.0024327312 94.476608 0.00011283253 -88.156761
8050000000 0.00019675096 -125.36256 0.002453706 94.441856 0.0024523288 94.332146 0.00021909663 -101.00707
8100000000 0.00023527793 -86.428162 0.0024755581 94.427315 0.0024716603 94.389046 0.00020539103 -84.459808
8150000000 0.00037063367 -97.315178 0.0024956444 94.456245 0.0024924998 94.37146 0.00019318506 -72.779694
8200000000 0.00020045688 -50.06168 0.0025172287 94.345528 0.0025099369 94.443871 0.00011079424 -101.38612
8250000000 0.0002536925 -96.07756 0.0025356805 94.28746 0.0025455197 94.191528 0.00020421407 -95.191681
8300000000 0.00016820952 -113.276 0.0025566444 94.214867 0.0025569308 94.162926 0.00025244063 -93.428871
8350000000 0.00042022165 -83.763771 0.0025732473 94.08149 0.0025765619 93.986771 0.00020515706 -55.080814
8400000000 0.00021677285 -76.727615 0.0025933054 94.031189 0.0025947148 94.055862 0.00016078963 -86.330795
8450000000 0.00027328212 -58.233852 0.0026088546 93.911774 0.0026121384 93.956772 0.00014831376 -102.23431
8500000000 0.00025920162 -123.71281 0.0026241506 93.928551 0.0026219203 93.833313 0.00028079285 -80.972115
8550000000 0.00033840793 -73.185783 0.0026367914 93.83345 0.002642537 93.733368 0.00020281876 -64.201836
8600000000 0.00033236513 -86.560219 0.002652813 93.683311 0.0026556542 93.741516 0.00015824776 -55.532452
8650000000 0.00018785363 -43.410686 0.0026734413 93.573746 0.002671221 93.644318 0.00017186507 -106.73774
8700000000 0.0003001875 -105.28835 0.0026852863 93.550606 0.0026810688 93.528 0.0002610287 -77.985794
8750000000 0.00023946773 -90.242096 0.0026956012 93.604927 0.0026940238 93.501289 0.00026311501 -66.911827
8800000000 0.00043671214 -76.820625 0.0027131208 93.545891 0.0027119699 93.537621 0.00016488362 -36.465973
8850000000 0.00015032252 -57.758049 0.002727014 93.466751 0.0027209129 93.562462 0.00018283325 -89.364258
8900000000 0.00027963449 -74.8489 0.0027436723 93.548012 0.0027361503 93.4646 0.00021487261 -86.651787
8950000000 0.00025640582 -110.05298 0.0027541935 93.575821 0.0027572156 93.469406 0.00030379742 -58.683437
9000000000 0.00041933311 -64.338776 0.0027779045 93.563622 0.0027772435 93.524292 0.00015588031 -46.735229
9050000000 0.00025392041 -77.685471 0.0027939135 93.514694 0.0027912369 93.518181 0.00012227141 -54.865509
9100000000 0.00018585671 -49.032402 0.0028048833 93.519615 0.0028063646 93.497086 0.0002501795 -89.064545
9150000000 0.00035830261 -103.22677 0.0028196787 93.498039 0.0028237882 93.505501 0.0002722067 -50.913128
