!Keysight Technologies,N5247B,MY61255062,A.15.50.07
!Date: Thursday, February 13, 2025 12:40:25
!Correction: S11(C  2-Port  ) 
!S21(C  2-Port  ) 
!S12(C  2-Port  ) 
!S22(C  2-Port  ) 
!S2P File: Measurements: S11, S21, S12, S22:
# Hz S  MA   R 50
50000000 0.99988461 0.027776891 2.1782089e-005 94.481293 1.5457445e-005 117.12738 1.0000334 0.034031134
100000000 1.0000715 0.045357756 2.8334705e-005 91.316856 3.3496639e-005 85.773178 1.000296 0.049418874
150000000 1.0000179 0.061929941 4.6695473e-005 90.463898 4.5336212e-005 91.701797 1.0003585 0.070269428
200000000 0.9999156 0.077993713 6.2660634e-005 89.289154 6.3546213e-005 90.008919 1.0002849 0.085431598
250000000 1.0000592 0.093691029 7.8582052e-005 91.097786 7.9843325e-005 90.233566 1.0001994 0.10001677
300000000 1.0000235 0.10960836 9.1778973e-005 87.859856 9.5233503e-005 87.225372 1.0001789 0.12345758
350000000 1.0000361 0.13326426 0.00010796561 89.232971 0.00010374704 89.198013 1.0002246 0.14374848
400000000 0.99999946 0.15114594 0.00012346002 89.011086 0.00012287605 88.583771 1.000174 0.15758152
450000000 1.0000685 0.16491793 0.00013778628 88.319984 0.00013672163 90.07235 1.0001785 0.17246996
500000000 1.0000935 0.18518019 0.00015180573 89.778427 0.00015101941 91.390297 1.0001247 0.18953325
550000000 1.0000244 0.20716016 0.00017012554 89.93499 0.00016906399 90.314819 1.0000489 0.21272659
600000000 1.0000311 0.22148816 0.00018417822 89.696953 0.00018457374 90.278076 1.0000104 0.22508712
650000000 1.0000404 0.23974261 0.00020003899 90.340767 0.00019826712 89.513443 1.0003438 0.24948673
700000000 1.0001394 0.25846529 0.00021620744 89.529839 0.00021616639 90.029076 1.0003678 0.26623946
750000000 1.0000837 0.28072062 0.00023357599 89.825783 0.00023092492 89.506653 1.0003754 0.284592
800000000 0.99999213 0.29557493 0.00024865085 89.912697 0.00024912111 90.091125 1.0003151 0.30190647
850000000 1.0000638 0.31194285 0.00026843429 88.447289 0.00026948159 89.092598 1.0002612 0.31636676
900000000 1.0001098 0.32921299 0.00028133407 88.041855 0.00028104061 89.396408 1.000272 0.33540231
950000000 1.0001547 0.35162145 0.00029773769 89.023148 0.00030066853 89.015152 1.000221 0.35201126
1000000000 1.0000684 0.36984056 0.00030715557 89.17495 0.00030697836 89.233414 1.0001554 0.36716032
1050000000 1.0001067 0.38226825 0.00032888551 88.683121 0.0003332771 88.782394 1.0002182 0.38527474
1100000000 1.0001556 0.40148422 0.00034546602 89.191216 0.00034285261 89.117195 1.0000972 0.40263629
1150000000 1.0001513 0.42374101 0.0003619963 89.661087 0.00036232601 89.32814 1.000167 0.42020541
1200000000 1.000128 0.44042003 0.00038098692 89.061607 0.0003854387 88.757225 1.0001001 0.43608007
1250000000 1.0001163 0.45545885 0.00040035154 89.101341 0.00040189654 88.923416 1.0001404 0.45368418
1300000000 1.0001508 0.47409075 0.00042215156 88.634354 0.00042560522 88.828781 1.0001826 0.4736779
1350000000 1.0000997 0.4962315 0.00043828972 88.190643 0.00043984264 88.315468 1.0001669 0.49182224
1400000000 1.0000706 0.51503456 0.00045796693 88.970741 0.00046376858 88.795273 1.0001642 0.50603813
1450000000 1.0001611 0.5293358 0.00048096597 88.597 0.00048311797 88.689049 1.0001485 0.52321255
1500000000 1.0001197 0.54566139 0.00050741347 87.998589 0.00050691096 87.870705 1.0001757 0.54016656
1550000000 1.0001488 0.56632864 0.00052718318 87.253899 0.00053130556 87.214287 1.0001354 0.55626088
1600000000 1.0000886 0.58247799 0.00054611138 87.743759 0.00054716528 88.012413 1.0001158 0.56836385
1650000000 1.0000982 0.59768414 0.00057828031 86.813431 0.00057815388 86.639915 1.0001622 0.58959228
1700000000 1.0000775 0.6151371 0.00060502265 85.693123 0.0006037936 85.457809 1.0001011 0.60545313
1750000000 1.0001035 0.63552028 0.00062843174 84.75515 0.00064086792 84.530014 1.0000618 0.62324393
1800000000 1.0000553 0.65235329 0.00065803214 83.346069 0.00066245318 83.232109 1.0000745 0.63812214
1850000000 1.0000827 0.66855001 0.00068624242 81.514053 0.00068860938 81.529839 1.0000523 0.65536225
1900000000 1.0000319 0.68447667 0.00069870253 79.679283 0.00069903885 79.476517 0.99999022 0.67603177
1950000000 1.0000978 0.70398343 0.00071397418 78.906052 0.00071754429 78.860657 0.99995583 0.69088936
2000000000 0.99997437 0.72074294 0.0007537182 78.019661 0.00075134757 78.170601 0.99999917 0.70649898
2050000000 0.9999603 0.73720294 0.00080076506 75.473907 0.00079511618 75.859116 1.0000297 0.72728848
2100000000 0.99994725 0.75562245 0.00085313543 71.014259 0.00085542985 70.867538 0.9997654 0.74756783
2150000000 0.99976861 0.77593344 0.00085863232 64.636345 0.00086323317 64.685768 0.99966586 0.76596856
2200000000 0.99965501 0.79381526 0.00087397522 57.133057 0.00087135955 57.173592 0.99973053 0.78823447
2250000000 0.99964982 0.81433284 0.00081776705 44.610909 0.0008104408 44.539021 0.99961126 0.81925023
2300000000 0.99964708 0.84396088 0.00062272081 32.505913 0.00062533392 32.101898 0.99968714 0.85082334
2350000000 0.99970454 0.86996138 0.00035818332 30.9939 0.0003562877 31.175747 0.99986213 0.87423426
2400000000 0.99977034 0.89075541 0.000218698 75.82357 0.00022280739 75.96759 1.0000342 0.88587034
2450000000 0.99991071 0.90420479 0.00040100852 106.09987 0.00039690788 106.53429 1.000154 0.90403938
2500000000 0.9999876 0.92267418 0.00056617695 104.54568 0.00056770741 103.88795 1.0001619 0.92331415
2550000000 1.0000166 0.94335341 0.00069893355 97.935692 0.00069848588 98.141388 1.0001191 0.93443573
2600000000 0.99994808 0.95637923 0.00074464653 94.552101 0.00073660549 94.554413 1.0002283 0.94680905
2650000000 0.9999845 0.9708491 0.00078647787 93.085159 0.00078727619 92.739922 1.0003911 0.96578461
2700000000 1.000119 0.98844248 0.00084803824 91.229332 0.0008515566 91.372253 1.0003605 0.98567218
2750000000 1.0000634 1.0134674 0.00090307015 88.632683 0.00090672809 88.52877 1.0002141 0.9989807
2800000000 0.999982 1.0247979 0.00096734043 85.328255 0.00096324843 85.136848 1.0001886 1.0132433
2850000000 0.99994814 1.0378622 0.0010007813 82.693748 0.0010004585 82.282799 1.0002508 1.0298887
2900000000 0.99998409 1.0536585 0.0010338259 77.545578 0.0010330033 77.25354 1.000075 1.0565767
2950000000 0.9999662 1.0815281 0.0010398837 74.121033 0.0010381121 74.092819 0.99996597 1.0729306
3000000000 0.99978954 1.1011963 0.0010499038 70.525452 0.001049011 70.290733 0.99998748 1.0843025
3050000000 0.99967128 1.1204524 0.0010205441 64.293877 0.0010212178 64.073891 0.9999938 1.1078848
3100000000 0.99981248 1.1404244 0.00094921287 60.658051 0.00094841525 60.552696 0.99993819 1.1352459
3150000000 0.99989021 1.1672782 0.00085312803 58.461449 0.00085610244 58.086544 0.99989581 1.1549658
3200000000 0.9998408 1.1909925 0.00073960843 61.894573 0.00074332248 61.541134 1.0000434 1.1651295
3250000000 0.99989933 1.1978525 0.00072892138 68.708405 0.0007252596 68.772476 1.0001377 1.1865352
3300000000 1.0000337 1.2125585 0.00075703132 73.518677 0.00075716979 73.257294 1.0000541 1.2065461
3350000000 1.0000983 1.233098 0.0008051871 75.30661 0.00080418563 74.918663 1.0000716 1.2212497
3400000000 0.99996078 1.2580595 0.00082868739 74.979424 0.00083137141 74.772644 1.0000417 1.2332584
3450000000 0.99984598 1.2685456 0.00083520188 73.792015 0.00083363097 73.803955 1.0000622 1.2503986
3500000000 0.9998461 1.2865468 0.00083596783 74.199242 0.00083512982 74.297668 1.0000522 1.2819965
3550000000 0.99999374 1.3053908 0.00084942853 75.699364 0.00085873774 75.33744 0.99997908 1.2968305
3600000000 0.99994916 1.3303221 0.00085817574 76.316818 0.00085987279 76.494247 0.99991244 1.313298
3650000000 0.99989545 1.3501908 0.00088360748 75.599106 0.00088461419 75.627373 0.99999422 1.3319095
3700000000 0.99992585 1.3612056 0.0008967857 74.162178 0.00090529176 74.066566 1.0000067 1.3599759
3750000000 0.99998403 1.3902338 0.00087330153 72.907707 0.00086967566 72.415726 0.99993342 1.380002
3800000000 1.0000398 1.4066979 0.00084447913 74.933372 0.00084396108 74.696312 0.99993479 1.390133
3850000000 0.99993598 1.4299607 0.00085449591 76.16436 0.00085835526 75.587631 1.0000626 1.4144533
3900000000 1.0000123 1.4386158 0.0008524867 77.498611 0.00085562642 77.228539 1.0000833 1.4293401
3950000000 1.0000514 1.4604015 0.00086098857 79.237045 0.00086557202 79.083275 1.0000869 1.454073
4000000000 1.0001296 1.4791934 0.00087508152 79.625763 0.00087743561 79.499512 1.0000867 1.4615728
4050000000 1.0000238 1.500134 0.00088431098 81.023018 0.00088558707 80.660278 1.0001165 1.4877254
4100000000 1.0001023 1.5152104 0.00091065594 82.570992 0.00090506952 82.4636 1.0001465 1.5028278
4150000000 1.0000389 1.5284961 0.00093776808 82.671082 0.0009373033 82.718674 1.0000033 1.5201294
4200000000 1.0000939 1.5539023 0.00095636863 82.013596 0.00095393654 81.814751 1.0000626 1.5356816
4250000000 1.0000565 1.567152 0.0009591456 81.801979 0.00095825532 81.667274 1.0000374 1.5513119
4300000000 1.0000041 1.5935482 0.00096166268 82.399704 0.00096364063 82.324257 1.0000832 1.5794168
4350000000 1.0000709 1.6054257 0.00097308675 83.040924 0.00097132375 82.693016 0.99999923 1.5872238
4400000000 1.0000802 1.6318114 0.00098464533 83.723808 0.00099047355 83.992188 1.0001016 1.6123093
4450000000 1.0001098 1.6458105 0.0010045394 84.065063 0.00099973031 83.803581 1.0000719 1.6228184
4500000000 1.0000259 1.6680752 0.001021254 84.19059 0.0010190749 83.952637 1.0000783 1.6483101
4550000000 1.0001051 1.6837037 0.0010319027 84.215935 0.0010276837 84.10556 1.0001274 1.663323
4600000000 1.0000859 1.7037212 0.0010425695 84.580269 0.0010410168 84.437057 1.0000888 1.681965
4650000000 1.0001291 1.7225869 0.0010506341 85.090385 0.001045863 84.954941 1.0001407 1.7044785
4700000000 1.0001012 1.7329198 0.0010604719 85.427216 0.0010623556 85.408401 1.0000842 1.7158198
4750000000 1.0001708 1.760374 0.0010739652 85.7882 0.0010759532 85.651337 1.0001096 1.7420028
4800000000 1.0001236 1.7708749 0.0010962805 86.303841 0.001098107 85.915733 1.0001504 1.7512407
4850000000 1.0000631 1.7950928 0.001113406 86.280899 0.0011022048 86.416428 1.0001508 1.7803308
4900000000 1.0001549 1.8054427 0.0011264641 86.866234 0.0011268146 86.910866 1.0000714 1.7914562
4950000000 1.0001445 1.8337028 0.0011474573 86.948715 0.0011469682 86.748253 1.0000793 1.809858
5000000000 1.0001149 1.8514007 0.0011619065 86.951729 0.0011661754 86.807076 1.0002016 1.828575
5050000000 1.0000476 1.8698726 0.0011777682 87.166756 0.001174222 86.979248 1.0001057 1.8468659
5100000000 1.000231 1.8842392 0.0011957911 87.143097 0.0011939142 87.026947 1.0000952 1.8686147
5150000000 1.0002416 1.9042445 0.0012136622 87.414413 0.0012075875 87.469398 1.0000993 1.875847
5200000000 1.0001659 1.9347951 0.0012295888 87.503525 0.0012292789 86.944405 1.0002512 1.9023236
5250000000 1.0000783 1.9384497 0.0012460618 87.435303 0.0012480911 87.092957 1.0001981 1.9191902
5300000000 1.0002053 1.958003 0.0012594392 87.291191 0.0012577799 87.212852 1.0000194 1.9396747
5350000000 1.0003033 1.9713918 0.0012789853 87.240242 0.0012795759 87.18795 1.0000734 1.9508811
5400000000 1.0002433 2.008837 0.0012939771 87.241608 0.001285889 87.185555 1.0001853 1.9690964
5450000000 1.0001351 2.0130367 0.0013040783 87.154625 0.0013083667 87.061386 1.0001742 1.9995639
5500000000 1.0000824 2.0283866 0.001317993 87.034073 0.0013171784 86.933418 0.99994373 2.008049
5550000000 1.0003214 2.0468082 0.0013313196 86.942284 0.001326264 87.008545 1.0001273 2.0286903
5600000000 1.000228 2.0746615 0.0013363076 87.038452 0.0013352236 86.992783 1.0001173 2.0392289
5650000000 1.0001385 2.0966434 0.0013464506 87.094818 0.0013481369 87.037193 1.0000654 2.0727692
5700000000 1.0000048 2.0985739 0.0013616844 87.139343 0.0013539635 87.061066 1.0000383 2.0834112
5750000000 1.000218 2.1224134 0.0013740335 87.270004 0.0013641323 87.406227 0.99999028 2.0947185
5800000000 1.0002693 2.1421206 0.0013866335 87.347099 0.0013831897 87.319084 1.0001236 2.1151495
5850000000 1.0000206 2.1782823 0.0013962202 87.467476 0.0013980855 87.53241 1.0000144 2.1364419
5900000000 1.0000749 2.1715312 0.0014121053 87.646423 0.0014122326 87.58683 0.9999485 2.158972
5950000000 1.0001163 2.1929486 0.0014243248 87.69783 0.0014248498 87.871742 0.99992895 2.1610239
6000000000 1.0003483 2.2162113 0.0014373034 87.691887 0.0014410132 87.694618 1.0000432 2.184979
6050000000 1.0001323 2.2457128 0.001455766 87.686333 0.0014578566 87.632553 1.0000769 2.2049
6100000000 1.0001159 2.2534337 0.0014704268 87.769943 0.0014631461 87.809189 0.99995238 2.2252374
6150000000 1.000123 2.2586942 0.0014820767 87.716446 0.0014775429 87.738869 0.999973 2.2328863
6200000000 1.0003384 2.2925024 0.0014951511 87.811325 0.0014939507 87.775421 1.0000932 2.2468424
6250000000 1.0002506 2.3075516 0.001506845 87.897377 0.0015046141 87.668098 1.0001028 2.2788
6300000000 1.0000348 2.3360586 0.0015207548 87.760674 0.0015200584 88.076553 0.99993908 2.2945065
6350000000 1.0001718 2.329577 0.0015335316 87.841751 0.0015288729 88.071869 0.99987668 2.3057575
6400000000 1.0003279 2.3623567 0.0015464689 87.884384 0.0015370183 87.96006 1.0000031 2.3176742
6450000000 1.000355 2.3787274 0.0015555709 87.909645 0.0015525942 88.032219 1.000008 2.3475955
6500000000 1.0001512 2.4070075 0.001569208 87.985306 0.0015694402 87.979362 0.99987203 2.3659689
6550000000 1.000174 2.4102228 0.0015765885 88.102699 0.0015756171 88.106499 0.99986899 2.3746779
6600000000 1.0002213 2.4242332 0.0015925731 88.045685 0.0015990261 88.104774 1.0000106 2.3914058
6650000000 1.0004156 2.4584131 0.0016063319 88.282684 0.0016047213 88.177025 0.99998581 2.4114766
6700000000 1.0001819 2.469141 0.0016192015 88.336563 0.0016180355 88.242966 0.99997336 2.4375539
6750000000 1.0001358 2.4932401 0.0016308069 88.365463 0.0016307425 88.292351 0.99989587 2.4465981
6800000000 1.0002434 2.4903972 0.0016441945 88.331673 0.0016417257 88.409843 0.99995667 2.4607782
6850000000 1.0003982 2.5290608 0.001655341 88.365868 0.0016575033 88.306053 1.0000616 2.4828439
6900000000 1.0002948 2.5377421 0.0016684467 88.452873 0.0016700291 88.549744 1.0000262 2.5057092
6950000000 1.0001543 2.5670655 0.0016826292 88.538383 0.0016852299 88.676712 0.99991977 2.5192788
7000000000 1.0002431 2.5660477 0.0016972014 88.7472 0.0016959773 88.694656 0.99997747 2.5303938
7050000000 1.0002068 2.5918071 0.0017119936 88.887482 0.0017100011 88.885712 1.0000812 2.5535595
7100000000 1.0003744 2.6142449 0.0017262505 88.862251 0.0017221319 88.913124 1.000005 2.5732036
7150000000 1.0001321 2.6288676 0.00173637 88.844536 0.0017399241 88.833694 0.99993789 2.5891218
7200000000 1.0002371 2.6482942 0.001758007 88.853485 0.0017532146 88.885529 0.9999451 2.6002603
7250000000 1.0002029 2.6517446 0.0017714982 88.961143 0.0017694773 89.129341 0.99989802 2.6173615
7300000000 1.0002316 2.6903512 0.0017824476 89.027916 0.001780443 89.192635 0.99993986 2.6408362
7350000000 1.0002106 2.6944668 0.0017998576 89.044212 0.0017964023 89.011017 0.99986118 2.653548
7400000000 1.0001177 2.7267854 0.0018147862 89.107567 0.001817434 89.203072 0.99983341 2.670146
7450000000 1.0001779 2.7244925 0.001830423 89.164185 0.0018305796 89.174629 0.99987948 2.6882579
7500000000 1.0000927 2.7541068 0.0018433444 89.124214 0.0018383511 89.30986 0.99987787 2.7083838
7550000000 1.0003411 2.7697096 0.0018592891 89.036049 0.0018613824 89.269173 0.99994349 2.727355
7600000000 1.000059 2.7905056 0.0018727663 89.163506 0.0018726564 89.159775 0.99981934 2.7413054
7650000000 1.0001158 2.8088291 0.0018858183 89.237167 0.001881911 89.323006 0.99983054 2.7577608
7700000000 1.0000139 2.8136406 0.0018997457 89.392456 0.0019035786 89.517159 0.9998768 2.7710016
7750000000 1.0002513 2.848932 0.0019151408 89.3423 0.00191434 89.524666 0.9998579 2.7952051
7800000000 1.0000985 2.8515186 0.0019316199 89.427879 0.0019305963 89.249222 0.99983233 2.8081622
7850000000 1.0000029 2.8911262 0.001951299 89.389427 0.0019494661 89.554749 0.9997645 2.8256276
7900000000 1.0000206 2.8793612 0.0019732295 89.254135 0.0019648664 89.358627 0.99983406 2.8379586
7950000000 1.0000408 2.913379 0.0019882447 89.259369 0.0019917986 89.500946 0.99978155 2.8571856
8000000000 1.0002489 2.9255624 0.002002432 89.422325 0.0020073995 89.380478 0.9997884 2.8843613
8050000000 1.0000064 2.958945 0.0020219178 89.280151 0.0020187001 89.136879 0.99964762 2.8921015
8100000000 1.0000679 2.9619112 0.0020413131 89.1502 0.0020413522 89.545151 0.99965763 2.9113982
8150000000 0.99997193 2.9718463 0.0020548506 89.098045 0.0020615803 89.123268 0.99977565 2.9249687
8200000000 1.0002698 3.0078309 0.0020732707 88.975952 0.0020840557 89.048943 0.99965471 2.9548411
8250000000 1.000033 3.0170739 0.0020882722 88.748703 0.0020893717 88.770615 0.99950296 2.9674768
8300000000 0.99990958 3.050257 0.0021063844 88.601303 0.0021061052 88.707695 0.99945861 2.975528
8350000000 0.9999814 3.0356326 0.0021202604 88.521599 0.0021258248 88.567131 0.99965525 2.998271
8400000000 1.0001398 3.0772743 0.0021307671 88.260246 0.0021361804 88.344978 0.99957722 3.0179925
8450000000 1.000183 3.0874903 0.0021436666 88.156792 0.0021420689 88.20282 0.99939078 3.0444965
8500000000 0.9998551 3.1232119 0.0021598961 88.124435 0.0021525477 87.958252 0.99939871 3.0430906
8550000000 0.99999481 3.1179602 0.0021710061 87.970673 0.0021701481 88.034233 0.99952096 3.0712602
8600000000 0.99990511 3.1387174 0.0021780531 87.765305 0.002178563 87.725342 0.9995147 3.0962033
8650000000 1.0001212 3.1768265 0.0021874837 87.664391 0.0021842055 87.620796 0.99917883 3.1155133
8700000000 0.99978769 3.181694 0.0021963364 87.551361 0.0021972274 87.623436 0.99930817 3.1217809
8750000000 0.99987811 3.2065773 0.0022033206 87.661987 0.0022109419 87.658989 0.99941224 3.1378968
8800000000 0.99991149 3.2006037 0.0022155002 87.576622 0.002209272 87.409927 0.9994604 3.1744494
8850000000 1.000057 3.2537336 0.0022229843 87.501625 0.0022243946 87.657722 0.99914181 3.1839914
8900000000 0.99995983 3.2544267 0.0022350654 87.683571 0.0022322922 87.553085 0.99909753 3.2011254
8950000000 0.99970865 3.2836311 0.002242778 87.66761 0.0022414606 87.588402 0.99939024 3.2111509
9000000000 1.0000343 3.2785928 0.0022557494 87.696861 0.0022572887 87.75209 0.99932635 3.2490213
9050000000 0.99998373 3.3152745 0.0022713998 87.718407 0.0022689779 87.710655 0.99917036 3.2694914
9100000000 1.0000321 3.3432875 0.0022843445 87.720589 0.0022801852 87.694427 0.99904412 3.2725165
9150000000 0.99969131 3.3479965 0.00229535 87.666504 0.0022973821 87.72625 0.99932075 3.2936609
9200000000 0.99990273 3.3670352 0.0023057868 87.623787 0.0023121622 87.588722 0.99929994 3.3183036
9250000000 0.99991721 3.3741589 0.0023173736 87.680054 0.0023230738 87.655663 0.99916142 3.3543224
9300000000 0.9999637 3.4301555 0.0023299523 87.805954 0.002334944 87.696915 0.99903721 3.3521807
9350000000 0.99984252 3.4183893 0.0023487089 87.849358 0.0023486919 87.682449 0.99913359 3.3742161
9400000000 0.99978769 3.4528909 0.0023663715 87.675018 0.0023661775 87.777824 0.99925834 3.4016418
9450000000 1.0000882 3.4530597 0.0023835748 87.600876 0.0023840817 87.72818 0.99894953 3.4275997
9500000000 0.99986666 3.4950845 0.0023943861 87.65657 0.0023947807 87.554642 0.99899793 3.4371974
9550000000 0.99994671 3.5085204 0.0024115078 87.386284 0.00241241 87.350204 0.99906474 3.4462421
9600000000 0.99961221 3.5194542 0.0024191653 87.29184 0.0024249563 87.466339 0.9992733 3.4835935
9650000000 1.0000432 3.5391638 0.0024321559 87.207352 0.0024263617 87.079193 0.99910784 3.5005744
9700000000 0.99984491 3.5535023 0.0024429832 87.310112 0.0024414007 87.233536 0.99892801 3.5259354
9750000000 0.99977744 3.5991759 0.0024590243 87.171051 0.0024629137 87.075066 0.99916762 3.5252466
9800000000 0.99971336 3.5861084 0.0024739818 86.987518 0.0024693902 86.917099 0.99917942 3.5611351
9850000000 0.99979651 3.625526 0.002487116 86.944366 0.0024911577 86.831429 0.9991855 3.5898805
9900000000 0.99996173 3.6323886 0.0024988942 86.777908 0.0025050293 86.849968 0.99895382 3.6043501
9950000000 0.99976945 3.6793256 0.0025156301 86.684761 0.0025137195 86.84819 0.99910921 3.6195645
10000000000 0.99985605 3.6741326 0.0025257461 86.423172 0.0025240364 86.437782 0.9991743 3.6302447
10050000000 0.99970591 3.6958697 0.0025355825 86.406128 0.0025398156 86.186432 0.9991765 3.6741364
