! Created Thu Feb 13 19:32:03 2025
# hz S ma R 50
! 1 Port Network Data from SP1.SP block
! freq  magS11  angS11  
!     
          50000000         1.0002412         -179.99765
         100000000         1.0001829           179.9953
         150000000         1.0002414          179.99025
         200000000         1.0003191          179.98448
         250000000         1.0003703          179.97987
         300000000         1.0003548          179.97441
         350000000         1.0003937          179.96834
         400000000         1.0003796          179.96358
         450000000         1.0004141          179.95892
         500000000         1.0003598          179.95331
         550000000         1.0003654          179.94841
         600000000         1.0003567          179.94499
         650000000          1.000379          179.94116
         700000000         1.0003754          179.93468
         750000000         1.0003726          179.92845
         800000000           1.00042          179.92397
         850000000         1.0003968          179.91942
         900000000         1.0004455           179.9138
         950000000         1.0004495          179.90712
             1e+09         1.0004845          179.90233
          1.05e+09         1.0004879           179.8987
           1.1e+09          1.000493          179.89244
          1.15e+09         1.0004989          179.88597
           1.2e+09         1.0005163          179.88216
          1.25e+09         1.0005244          179.87929
           1.3e+09         1.0005172          179.87459
          1.35e+09         1.0005319           179.8671
           1.4e+09         1.0005628          179.86171
          1.45e+09         1.0005065           179.8566
           1.5e+09         1.0004855          179.85219
          1.55e+09         1.0005003          179.84514
           1.6e+09         1.0005555          179.83899
          1.65e+09         1.0005484          179.83612
           1.7e+09         1.0005268          179.83183
          1.75e+09         1.0005401          179.82405
           1.8e+09         1.0005541          179.81892
          1.85e+09         1.0006045          179.81563
           1.9e+09           1.00056          179.80978
          1.95e+09          1.000536          179.80183
             2e+09          1.000541          179.79739
          2.05e+09         1.0005138          179.79245
           2.1e+09          1.000478          179.78571
          2.15e+09         1.0005035          179.77975
           2.2e+09         1.0005934          179.77403
          2.25e+09         1.0005221          179.77203
           2.3e+09         1.0005287          179.76416
          2.35e+09         1.0004708          179.75854
           2.4e+09         1.0004873          179.75554
          2.45e+09         1.0004641          179.75131
           2.5e+09         1.0005027          179.74373
          2.55e+09         1.0005387          179.73593
           2.6e+09         1.0005517          179.73282
          2.65e+09         1.0005357          179.72878
           2.7e+09         1.0004106          179.72447
          2.75e+09          1.000549          179.71483
           2.8e+09         1.0005833          179.71295
          2.85e+09         1.0005291          179.71039
           2.9e+09          1.000515          179.70796
          2.95e+09          1.000519          179.69624
             3e+09         1.0005995          179.69019
          3.05e+09         1.0006181          179.68915
           3.1e+09         1.0005227          179.68469
          3.15e+09         1.0005198          179.67773
           3.2e+09         1.0006278          179.67003
          3.25e+09         1.0006744          179.67027
           3.3e+09         1.0006033          179.66338
          3.35e+09         1.0005713          179.65709
           3.4e+09         1.0006464           179.6485
          3.45e+09         1.0007014          179.64705
           3.5e+09         1.0006708          179.64346
          3.55e+09         1.0006241          179.63731
           3.6e+09         1.0006576          179.62776
          3.65e+09         1.0006875          179.62117
           3.7e+09         1.0006462          179.62143
          3.75e+09         1.0005935          179.61087
           3.8e+09         1.0006589          179.60597
          3.85e+09          1.000697          179.59798
           3.9e+09         1.0006511          179.59705
          3.95e+09         1.0006357          179.59021
             4e+09         1.0006182          179.58292
          4.05e+09         1.0007004          179.57835
           4.1e+09         1.0006765          179.57384
          4.15e+09         1.0006961          179.57104
           4.2e+09         1.0006722          179.56133
          4.25e+09         1.0006934          179.56053
           4.3e+09         1.0007063          179.54947
          4.35e+09         1.0006315          179.54816
           4.4e+09         1.0006977          179.54059
          4.45e+09         1.0005825          179.53806
           4.5e+09          1.000697          179.52963
          4.55e+09         1.0006939          179.52515
           4.6e+09         1.0007316          179.51802
          4.65e+09         1.0007285          179.51089
           4.7e+09         1.0006714          179.51057
          4.75e+09         1.0006493          179.49777
           4.8e+09         1.0005817          179.49863
          4.85e+09         1.0006453          179.49123
           4.9e+09         1.0005879          179.49036
          4.95e+09         1.0006778          179.47873
             5e+09         1.0006965          179.47308
          5.05e+09         1.0007694          179.47083
           5.1e+09         1.0006564           179.4644
          5.15e+09         1.0006067          179.45914
           5.2e+09         1.0006849          179.44743
          5.25e+09          1.000724          179.45091
           5.3e+09         1.0006475          179.44191
          5.35e+09         1.0006202          179.43993
           5.4e+09          1.000693          179.42273
          5.45e+09         1.0007524          179.42496
           5.5e+09         1.0007894          179.42238
          5.55e+09         1.0006607          179.41736
           5.6e+09         1.0006975          179.40506
          5.65e+09         1.0007691          179.39696
           5.7e+09          1.000749          179.40506
          5.75e+09         1.0006584           179.3923
           5.8e+09         1.0005891          179.38823
          5.85e+09         1.0007981          179.37321
           5.9e+09         1.0007699           179.3821
          5.95e+09         1.0007557          179.37332
             6e+09         1.0005841          179.36638
          6.05e+09         1.0007519          179.35501
           6.1e+09         1.0007187          179.35239
          6.15e+09         1.0006849          179.35684
           6.2e+09          1.000594           179.3398
          6.25e+09         1.0006655          179.33812
           6.3e+09         1.0008034           179.3269
          6.35e+09         1.0007691          179.33644
           6.4e+09         1.0007569          179.31995
          6.45e+09         1.0006835          179.31445
           6.5e+09         1.0008173          179.30885
          6.55e+09         1.0007632          179.30743
           6.6e+09         1.0007129           179.3053
          6.65e+09         1.0006928          179.29021
           6.7e+09         1.0007782          179.29134
          6.75e+09         1.0007969          179.28183
           6.8e+09         1.0006889          179.28975
          6.85e+09         1.0007639          179.27153
           6.9e+09         1.0007317           179.2728
          6.95e+09          1.000875          179.26244
             7e+09         1.0007626          179.26358
          7.05e+09         1.0008032          179.25836
           7.1e+09         1.0006882          179.24643
          7.15e+09         1.0008515          179.24597
           7.2e+09         1.0008035          179.23828
          7.25e+09         1.0007761          179.24365
           7.3e+09          1.000724          179.22493
          7.35e+09         1.0007008           179.2269
           7.4e+09         1.0008619           179.2149
          7.45e+09          1.000765          179.22057
           7.5e+09          1.000849          179.21126
          7.55e+09         1.0007507           179.2061
           7.6e+09         1.0009145           179.2028
          7.65e+09         1.0008578          179.19324
           7.7e+09         1.0008799          179.19997
          7.75e+09         1.0008011          179.18169
           7.8e+09         1.0008439          179.18797
          7.85e+09         1.0009123           179.1709
           7.9e+09         1.0008075          179.18634
          7.95e+09         1.0008682          179.16872
             8e+09         1.0007693          179.16359
          8.05e+09         1.0009253          179.15688
           8.1e+09          1.000856          179.15472
          8.15e+09         1.0008221          179.15964
           8.2e+09         1.0007058          179.13553
          8.25e+09         1.0008478          179.14154
           8.3e+09         1.0009401          179.12715
          8.35e+09         1.0007825          179.14429
           8.4e+09         1.0007997          179.11783
          8.45e+09         1.0007817          179.11938
           8.5e+09         1.0010127          179.11018
          8.55e+09         1.0008225           179.1118
           8.6e+09         1.0008588          179.10667
          8.65e+09         1.0008378          179.08711
           8.7e+09         1.0010192          179.09645
          8.75e+09         1.0009211          179.08415
           8.8e+09          1.000795          179.09496
          8.85e+09          1.000843          179.06586
           8.9e+09         1.0008545          179.07436
          8.95e+09         1.0009753            179.065
             9e+09         1.0007038          179.06755
          9.05e+09          1.000854          179.05258
           9.1e+09          1.000807          179.03995
          9.15e+09         1.0010076          179.04948
           9.2e+09         1.0008819          179.03397
          9.25e+09         1.0008134          179.04095
           9.3e+09         1.0009271          179.01186
          9.35e+09         1.0009516          179.02817
           9.4e+09         1.0009978          179.01027
          9.45e+09         1.0008405          179.01781
           9.5e+09         1.0009729           178.9975
          9.55e+09         1.0008712          178.99283
           9.6e+09         1.0010364          178.99753
          9.65e+09          1.000846          178.98395
           9.7e+09         1.0009477          178.98692
          9.75e+09          1.000939          178.96329
           9.8e+09         1.0009775           178.9816
          9.85e+09         1.0009564          178.95789
           9.9e+09          1.000842          178.96432
          9.95e+09         1.0010008          178.94426
             1e+10         1.0008937          178.94772
         1.005e+10         1.0010558          178.94376
          1.01e+10         1.0008636           178.9315
         1.015e+10           1.00098          178.93259
          1.02e+10         1.0009264          178.91432
         1.025e+10         1.0009811          178.92865
          1.03e+10         1.0009687          178.90402
         1.035e+10         1.0008787          178.91321
          1.04e+10         1.0010663          178.89018
         1.045e+10         1.0008649          178.89792
          1.05e+10         1.0010598           178.8885
         1.055e+10         1.0008687          178.88269
          1.06e+10         1.0009929          178.88033
         1.065e+10         1.0009972          178.86691
          1.07e+10         1.0010678          178.87498
         1.075e+10         1.0010151          178.85362
          1.08e+10         1.0009565          178.86061
         1.085e+10          1.001057          178.84134
          1.09e+10         1.0009794          178.84718
         1.095e+10         1.0010191          178.84213
           1.1e+10         1.0008581          178.83636
         1.105e+10          1.001074          178.83035
          1.11e+10             1.001           178.8215
         1.115e+10         1.0010952          178.83208
          1.12e+10         1.0009962          178.81004
         1.125e+10         1.0010395          178.81595
          1.13e+10         1.0011615          178.79903
         1.135e+10         1.0010674          178.81044
          1.14e+10         1.0010936          178.79558
         1.145e+10         1.0009536          178.79097
          1.15e+10         1.0012194          178.78238
         1.155e+10          1.001155          178.78445
          1.16e+10           1.00113          178.78838
         1.165e+10         1.0009761          178.76616
          1.17e+10         1.0012068          178.76807
         1.175e+10         1.0012705          178.76096
          1.18e+10         1.0012081          178.77258
         1.185e+10         1.0011265          178.75342
          1.19e+10         1.0010815          178.74989
         1.195e+10         1.0013442           178.7446
           1.2e+10         1.0011808          178.75063
         1.205e+10         1.0011532          178.74197
          1.21e+10         1.0011594          178.72591
         1.215e+10         1.0013423          178.72826
          1.22e+10         1.0012374          178.73056
         1.225e+10          1.001097           178.7354
          1.23e+10         1.0011122          178.70831
         1.235e+10         1.0013133          178.70886
          1.24e+10         1.0014144          178.71143
         1.245e+10         1.0012137          178.71547
          1.25e+10         1.0012337          178.70041
         1.255e+10         1.0012717          178.69156
          1.26e+10         1.0014151          178.69518
         1.265e+10         1.0012661          178.69264
          1.27e+10         1.0012352           178.6881
         1.275e+10         1.0012817          178.66818
          1.28e+10          1.001464          178.67274
         1.285e+10         1.0014156          178.67146
          1.29e+10         1.0012901          178.66989
         1.295e+10          1.001309          178.65143
           1.3e+10         1.0015311          178.64828
         1.305e+10         1.0016181          178.65155
          1.31e+10         1.0013993           178.6563
         1.315e+10         1.0014265          178.64201
          1.32e+10         1.0015098          178.62889
         1.325e+10         1.0017405          178.63281
          1.33e+10         1.0015758          178.63283
         1.335e+10         1.0015242          178.62151
          1.34e+10         1.0015199          178.59973
         1.345e+10         1.0017871          178.60484
          1.35e+10         1.0017853          178.60147
         1.355e+10         1.0015544          178.60811
          1.36e+10         1.0016134          178.57602
         1.365e+10         1.0016022          178.57422
          1.37e+10         1.0019534          178.57373
         1.375e+10         1.0017016          178.58295
          1.38e+10         1.0017064          178.57324
         1.385e+10         1.0017228          178.55127
          1.39e+10         1.0019835          178.55714
         1.395e+10         1.0018798          178.55238
           1.4e+10         1.0018095          178.55647
         1.405e+10         1.0018845          178.51924
          1.41e+10         1.0019716          178.53073
         1.415e+10         1.0022342          178.52267
          1.42e+10          1.001899          178.53026
         1.425e+10         1.0019571          178.50882
          1.43e+10         1.0020193          178.49252
         1.435e+10         1.0024186          178.50696
          1.44e+10          1.002154          178.49503
         1.445e+10         1.0020761          178.50012
          1.45e+10         1.0022047           178.4595
         1.455e+10         1.0023282          178.47441
          1.46e+10          1.002538          178.46739
         1.465e+10         1.0020368          178.47493
          1.47e+10         1.0023998          178.44257
         1.475e+10         1.0024146          178.43575
          1.48e+10         1.0027841          178.45796
         1.485e+10         1.0023726          178.43594
          1.49e+10         1.0024295          178.43542
         1.495e+10         1.0027171          178.39854
           1.5e+10         1.0029324          178.43025
         1.505e+10         1.0029082          178.41234
          1.51e+10         1.0025337           178.4201
         1.515e+10          1.002987          178.38028
          1.52e+10         1.0029008          178.38403
         1.525e+10         1.0032195          178.40015
          1.53e+10         1.0027274           178.3741
         1.535e+10         1.0029151          178.36533
          1.54e+10         1.0031316          178.33252
         1.545e+10         1.0032305          178.37331
          1.55e+10          1.003036          178.34268
         1.555e+10         1.0027168          178.34309
          1.56e+10         1.0033687          178.30676
         1.565e+10         1.0031925          178.32062
          1.57e+10         1.0034163          178.32968
         1.575e+10         1.0028783          178.29697
          1.58e+10         1.0033133          178.29214
         1.585e+10         1.0033426          178.25978
          1.59e+10         1.0033278          178.30397
         1.595e+10         1.0031298          178.25549
           1.6e+10         1.0027938          178.26486
         1.605e+10         1.0035293          178.22322
          1.61e+10         1.0031227          178.24736
         1.615e+10         1.0033485          178.24269
          1.62e+10         1.0027055          178.21417
         1.625e+10         1.0031178          178.20804
          1.63e+10         1.0031439          178.18077
         1.635e+10          1.003139          178.22675
          1.64e+10         1.0028532          178.17325
         1.645e+10         1.0026248          178.18277
          1.65e+10         1.0032525          178.13869
         1.655e+10         1.0028851          178.17253
          1.66e+10         1.0029556          178.15709
         1.665e+10           1.00229          178.13124
          1.67e+10         1.0028294           178.1237
         1.675e+10         1.0027635          178.09915
          1.68e+10         1.0027151          178.14604
         1.685e+10         1.0023298          178.08688
          1.69e+10         1.0022811          178.09718
         1.695e+10         1.0028522          178.06477
           1.7e+10         1.0023762          178.10391
         1.705e+10         1.0023247          178.08257
          1.71e+10         1.0016645          178.05493
         1.715e+10         1.0025144          178.05122
          1.72e+10         1.0022508          178.05342
         1.725e+10         1.0021162          178.08128
          1.73e+10         1.0018253          178.02193
         1.735e+10          1.001981          178.04147
          1.74e+10         1.0024207          178.01622
         1.745e+10         1.0018678          178.05211
          1.75e+10         1.0019056          178.01384
         1.755e+10          1.001655          177.99998
          1.76e+10         1.0022973          178.00435
         1.765e+10         1.0019094          178.00716
          1.77e+10          1.001726          178.02304
