!Keysight Technologies,N5247B,MY61255062,A.15.50.07
!Date: Thursday, February 13, 2025 12:29:04
!Correction: S11(C  2-Port  ) 
!S21(C  2-Port  ) 
!S12(C  2-Port  ) 
!S22(C  2-Port  ) 
!S2P File: Measurements: S11, S21, S12, S22:
# Hz S  MA   R 50
50000000 1.0002412 -179.99765 2.5168505e-005 83.952248 3.0696407e-005 80.898178 0.9999615 -179.99767
100000000 1.0001829 179.9953 5.4756074e-005 84.812386 5.9581605e-005 89.732086 1.0000886 179.9993
150000000 1.0002414 179.99025 8.3625688e-005 84.403473 8.4273153e-005 81.976402 1.0001326 179.99661
200000000 1.0003191 179.98448 0.00010778108 84.738815 0.00010931823 85.149879 1.0002198 179.98637
250000000 1.0003703 179.97987 0.00013389281 85.920448 0.00013484649 86.472404 1.0000075 179.97943
300000000 1.0003548 179.97441 0.00015720481 86.399239 0.00015971683 85.308167 1.0001504 179.97806
350000000 1.0003937 179.96834 0.00018220965 86.021927 0.00018249892 84.194107 1.0001134 179.9689
400000000 1.0003796 179.96358 0.00020857695 86.284576 0.00020763802 86.079964 1.0001456 179.96065
450000000 1.0004141 179.95892 0.00023429932 86.124428 0.0002314166 86.887283 1.0001357 179.95366
500000000 1.0003598 179.95331 0.00025489627 85.251175 0.00025635256 85.309135 1.0001816 179.94601
550000000 1.0003654 179.94841 0.00028076861 85.891563 0.00027847322 85.740898 1.000131 179.93835
600000000 1.0003567 179.94499 0.00030536557 86.72596 0.00030928993 86.172859 1.0001316 179.93118
650000000 1.000379 179.94116 0.00032839642 86.896286 0.00033097004 86.233383 1.0003872 179.92789
700000000 1.0003754 179.93468 0.00035376605 86.725067 0.00035522753 87.512749 1.0004084 179.92245
750000000 1.0003726 179.92845 0.00037912274 86.862518 0.00037431021 85.793251 1.000437 179.91286
800000000 1.00042 179.92397 0.00040318214 86.588081 0.00040124907 86.03241 1.0004137 179.90388
850000000 1.0003968 179.91942 0.00042642019 86.697067 0.00042616643 86.999535 1.0003884 179.89566
900000000 1.0004455 179.9138 0.00045228464 86.918747 0.00044986518 87.252579 1.0003932 179.88589
950000000 1.0004495 179.90712 0.0004763882 86.981125 0.00047515531 87.313576 1.0003588 179.87816
1000000000 1.0004845 179.90233 0.0004999736 87.167488 0.00049818738 87.592117 1.0004133 179.87129
1050000000 1.0004879 179.8987 0.00052236352 87.222649 0.00051829283 87.26416 1.000316 179.86478
1100000000 1.000493 179.89244 0.00054887228 87.422501 0.0005424394 87.278526 1.0003529 179.85719
1150000000 1.0004989 179.88597 0.00057404093 87.441292 0.00057016703 86.86982 1.0003589 179.84912
1200000000 1.0005163 179.88216 0.00059642998 87.411591 0.00059636228 87.55719 1.0002826 179.83995
1250000000 1.0005244 179.87929 0.00062130805 87.461197 0.00062163739 87.18631 1.0003854 179.83521
1300000000 1.0005172 179.87459 0.00064243446 87.491745 0.00064034667 87.36438 1.0004077 179.82477
1350000000 1.0005319 179.8671 0.00066841231 87.990936 0.00066342554 87.731972 1.0004206 179.81526
1400000000 1.0005628 179.86171 0.0006912481 87.656425 0.00069123489 87.676994 1.0004045 179.80757
1450000000 1.0005065 179.8566 0.00071613246 87.829575 0.00071126362 87.940849 1.0004402 179.79919
1500000000 1.0004855 179.85219 0.00073655875 87.819153 0.00073514268 87.765694 1.0004406 179.79105
1550000000 1.0005003 179.84514 0.00076188444 87.841652 0.00075923523 88.053864 1.0004889 179.78123
1600000000 1.0005555 179.83899 0.00078574795 87.852814 0.00078553206 87.683426 1.0005502 179.77515
1650000000 1.0005484 179.83612 0.00080570456 88.318405 0.00080437801 88.249428 1.0004742 179.76521
1700000000 1.0005268 179.83183 0.00082960963 88.48983 0.00082511746 88.392548 1.0005796 179.75801
1750000000 1.0005401 179.82405 0.00085241813 88.519066 0.00085384212 88.499199 1.0006648 179.75047
1800000000 1.0005541 179.81892 0.00087751413 88.781677 0.00087548699 89.057175 1.0006567 179.74374
1850000000 1.0006045 179.81563 0.00090251036 89.194817 0.00089666701 88.859772 1.000672 179.73572
1900000000 1.00056 179.80978 0.0009318525 89.439384 0.00092720345 89.126625 1.0007193 179.72662
1950000000 1.000536 179.80183 0.0009546068 89.269386 0.00095440296 89.108681 1.0007546 179.7207
2000000000 1.000541 179.79739 0.00098104379 89.705055 0.00098494918 89.831146 1.0007464 179.71321
2050000000 1.0005138 179.79245 0.0010126379 89.930016 0.0010109338 89.922783 1.0006647 179.70564
2100000000 1.000478 179.78571 0.0010460542 89.965759 0.0010451658 90.03508 1.0008084 179.69472
2150000000 1.0005035 179.77975 0.001080222 89.723198 0.0010784487 89.53109 1.0008705 179.68898
2200000000 1.0005934 179.77403 0.0011145998 89.32946 0.0011170888 89.136871 1.000821 179.67937
2250000000 1.0005221 179.77203 0.0011402345 88.488579 0.0011409224 88.585129 1.0009038 179.66884
2300000000 1.0005287 179.76416 0.0011612278 87.828163 0.0011605538 87.807388 1.0009309 179.65938
2350000000 1.0004708 179.75854 0.0011727648 87.419113 0.0011742278 87.336182 1.0009384 179.6519
2400000000 1.0004873 179.75554 0.001188246 87.666748 0.0011890004 87.68338 1.0009857 179.64798
2450000000 1.0004641 179.75131 0.0012066695 87.771881 0.0012002194 87.834625 1.0010256 179.63602
2500000000 1.0005027 179.74373 0.0012225969 87.811737 0.0012224405 87.811836 1.0010251 179.62517
2550000000 1.0005387 179.73593 0.0012435133 87.970039 0.0012373858 88.245461 1.0010347 179.619
2600000000 1.0005517 179.73282 0.0012677106 88.442673 0.0012673589 88.506363 1.0011071 179.61479
2650000000 1.0005357 179.72878 0.0012910223 88.511818 0.0012902807 88.614807 1.0010455 179.60265
2700000000 1.0004106 179.72447 0.0013080832 88.533577 0.0013059609 88.814262 1.001071 179.59126
2750000000 1.000549 179.71483 0.0013344862 88.726006 0.0013336256 88.791229 1.0011066 179.58476
2800000000 1.0005833 179.71295 0.0013537656 89.18679 0.0013563412 89.311638 1.0011576 179.57762
2850000000 1.0005291 179.71039 0.0013817649 89.492264 0.0013812111 89.77446 1.0010184 179.56795
2900000000 1.000515 179.70796 0.0014143469 89.643349 0.0014095426 89.839561 1.0011328 179.55576
2950000000 1.000519 179.69624 0.0014466704 89.884232 0.0014493604 89.958687 1.0011747 179.54901
3000000000 1.0005995 179.69019 0.0014789404 89.751999 0.0014795722 89.907806 1.0011967 179.54512
3050000000 1.0006181 179.68915 0.0015133745 89.725243 0.0015158608 89.89933 1.0011349 179.53342
3100000000 1.0005227 179.68469 0.0015434186 89.394966 0.001539579 89.240822 1.0011493 179.52274
3150000000 1.0005198 179.67773 0.0015698777 89.07328 0.0015701215 89.269814 1.0012286 179.5135
3200000000 1.0006278 179.67003 0.0015874264 88.891884 0.0015878933 89.119774 1.0011361 179.51151
3250000000 1.0006744 179.67027 0.0016065793 88.840157 0.0016056811 88.743416 1.0011487 179.49934
3300000000 1.0006033 179.66338 0.0016240363 88.77494 0.0016261727 88.713013 1.001171 179.48894
3350000000 1.0005713 179.65709 0.0016491403 88.941017 0.0016479236 88.890785 1.0011845 179.4812
3400000000 1.0006464 179.6485 0.0016730004 89.024635 0.001675283 89.058395 1.0012043 179.47417
3450000000 1.0007014 179.64705 0.0016991377 89.058731 0.0017008673 89.169472 1.0011549 179.46577
3500000000 1.0006708 179.64346 0.0017288647 88.977516 0.0017250308 88.864952 1.0011979 179.45129
3550000000 1.0006241 179.63731 0.0017478522 88.895325 0.0017554614 88.974983 1.0012105 179.44646
3600000000 1.0006576 179.62776 0.0017707085 88.812927 0.0017721108 88.946892 1.0011833 179.43997
3650000000 1.0006875 179.62117 0.0017963513 88.893723 0.0017966295 88.879707 1.0011538 179.43513
3700000000 1.0006462 179.62143 0.0018234155 88.888298 0.0018215213 89.104393 1.0011948 179.41879
3750000000 1.0005935 179.61087 0.0018483388 88.939903 0.0018439083 88.978813 1.0012413 179.41031
3800000000 1.0006589 179.60597 0.0018683269 88.886887 0.001872013 88.933189 1.0012633 179.4075
3850000000 1.000697 179.59798 0.0018946142 88.762291 0.0018925422 88.730629 1.001193 179.39467
3900000000 1.0006511 179.59705 0.0019176534 88.823174 0.0019196302 88.846634 1.0012456 179.38615
3950000000 1.0006357 179.59021 0.0019385332 88.708923 0.0019410923 88.799751 1.0012578 179.37268
4000000000 1.0006182 179.58292 0.0019582813 88.634712 0.0019584876 88.825119 1.0012083 179.37257
4050000000 1.0007004 179.57835 0.0019848086 88.667717 0.0019819299 88.725395 1.0012405 179.35852
4100000000 1.0006765 179.57384 0.0020026844 88.702942 0.0020000748 88.716919 1.0012051 179.34906
4150000000 1.0006961 179.57104 0.0020263516 88.695107 0.0020303354 88.800064 1.0013033 179.34099
4200000000 1.0006722 179.56133 0.0020549686 88.790459 0.0020515218 88.768623 1.0012468 179.33337
4250000000 1.0006934 179.56053 0.0020758754 88.80291 0.0020777606 88.679909 1.0013168 179.32829
4300000000 1.0007063 179.54947 0.0021004684 88.691856 0.0020975447 88.758987 1.0012894 179.31117
4350000000 1.0006315 179.54816 0.0021207561 88.737915 0.0021261645 88.809181 1.0013614 179.30817
4400000000 1.0006977 179.54059 0.0021436783 88.820923 0.0021514785 88.720146 1.001318 179.29489
4450000000 1.0005825 179.53806 0.0021670414 88.82753 0.0021623527 88.77713 1.0012791 179.29192
4500000000 1.000697 179.52963 0.0021857535 88.794266 0.0021889776 88.89872 1.0013429 179.27783
4550000000 1.0006939 179.52515 0.0022141433 88.79364 0.0022150222 88.89167 1.0012957 179.26958
4600000000 1.0007316 179.51802 0.0022403251 88.851433 0.0022374541 88.903259 1.0013511 179.26295
4650000000 1.0007285 179.51089 0.0022625867 88.898079 0.0022635898 88.71122 1.0012976 179.25053
4700000000 1.0006714 179.51057 0.0022812327 88.909752 0.0022906959 88.919601 1.0013257 179.24744
4750000000 1.0006493 179.49777 0.0023062816 88.804916 0.0023124695 88.804878 1.0013403 179.23145
4800000000 1.0005817 179.49863 0.0023328185 88.892227 0.0023344809 88.917618 1.0013461 179.22917
4850000000 1.0006453 179.49123 0.0023527062 88.825249 0.0023538561 88.847092 1.0013534 179.21431
4900000000 1.0005879 179.49036 0.0023720551 88.92598 0.002379006 88.959648 1.0014114 179.21106
4950000000 1.0006778 179.47873 0.002398158 88.869354 0.0024016229 88.85894 1.0014488 179.20099
5000000000 1.0006965 179.47308 0.0024191141 88.934196 0.0024185171 88.830978 1.0013676 179.18996
5050000000 1.0007694 179.47083 0.0024392218 88.969345 0.0024419646 89.016212 1.001431 179.18216
5100000000 1.0006564 179.4644 0.0024628988 88.964043 0.0024636639 89.010139 1.0014472 179.17184
5150000000 1.0006067 179.45914 0.0024839058 88.964035 0.0024845449 88.936852 1.0014989 179.17091
5200000000 1.0006849 179.44743 0.0025076929 89.00882 0.0025070331 88.996307 1.0013916 179.1544
5250000000 1.000724 179.45091 0.0025292726 89.157249 0.0025269729 89.164413 1.0013844 179.14804
5300000000 1.0006475 179.44191 0.002554792 89.062256 0.0025594803 89.158638 1.0014478 179.13634
5350000000 1.0006202 179.43993 0.0025776767 89.178223 0.0025809202 89.172501 1.0013691 179.13441
5400000000 1.000693 179.42273 0.0026008249 89.290817 0.0026021725 89.239677 1.0013378 179.12646
5450000000 1.0007524 179.42496 0.0026208598 89.235771 0.0026219161 89.21788 1.0013194 179.10852
5500000000 1.0007894 179.42238 0.0026504591 89.268738 0.0026522176 89.413628 1.0014488 179.10608
5550000000 1.0006607 179.41736 0.0026699146 89.332054 0.0026740816 89.26326 1.0013411 179.09531
5600000000 1.0006975 179.40506 0.002696506 89.330513 0.0026984303 89.306061 1.0011926 179.09181
5650000000 1.0007691 179.39696 0.002716426 89.36924 0.002729692 89.28788 1.0012809 179.07138
5700000000 1.000749 179.40506 0.0027430397 89.332733 0.0027438845 89.39064 1.0013019 179.06575
5750000000 1.0006584 179.3923 0.0027640634 89.340714 0.0027605859 89.206291 1.0012614 179.06296
5800000000 1.0005891 179.38823 0.0027856985 89.407784 0.0027801674 89.352089 1.0011457 179.0524
5850000000 1.0007981 179.37321 0.0028097916 89.532776 0.0028107702 89.333549 1.0012082 179.04019
5900000000 1.0007699 179.3821 0.0028338723 89.479164 0.0028312204 89.591522 1.001235 179.0293
5950000000 1.0007557 179.37332 0.0028557708 89.569244 0.0028502394 89.427689 1.0012589 179.02998
6000000000 1.0005841 179.36638 0.0028799034 89.594116 0.002880781 89.533638 1.0011796 179.0161
6050000000 1.0007519 179.35501 0.0029035485 89.53479 0.0029029159 89.549828 1.0011795 179.00237
6100000000 1.0007187 179.35239 0.0029274365 89.607292 0.0029239806 89.657997 1.0012627 178.99339
6150000000 1.0006849 179.35684 0.0029474874 89.705856 0.0029502474 89.613495 1.0012389 178.99091
6200000000 1.000594 179.3398 0.0029740932 89.666069 0.0029713833 89.712646 1.0011836 178.9848
6250000000 1.0006655 179.33812 0.0029990443 89.747322 0.0030033779 89.765968 1.0011711 178.96599
6300000000 1.0008034 179.3269 0.003019128 89.763489 0.0030234181 89.636955 1.0012527 178.95988
6350000000 1.0007691 179.33644 0.0030442143 89.768494 0.0030477026 89.671509 1.0012966 178.95493
6400000000 1.0007569 179.31995 0.0030707926 89.721542 0.0030683118 89.749916 1.001152 178.9505
6450000000 1.0006835 179.31445 0.0030919164 89.806046 0.0030922149 89.681229 1.001184 178.93375
6500000000 1.0008173 179.30885 0.0031167581 89.846764 0.003112762 89.795593 1.0012621 178.92841
6550000000 1.0007632 179.30743 0.003140504 89.831238 0.0031382982 89.834549 1.0012891 178.9256
6600000000 1.0007129 179.3053 0.0031637573 89.822151 0.0031674257 89.771736 1.0012012 178.91855
6650000000 1.0006928 179.29021 0.0031885342 89.779839 0.0031825814 89.847931 1.0011834 178.90669
6700000000 1.0007782 179.29134 0.003212116 89.872673 0.0032168324 89.793991 1.0013 178.89212
6750000000 1.0007969 179.28183 0.0032358144 89.913132 0.0032393481 89.87941 1.0013243 178.88876
6800000000 1.0006889 179.28975 0.0032568027 89.800018 0.0032600511 89.829498 1.0012382 178.88043
6850000000 1.0007639 179.27153 0.0032806173 89.884399 0.0032843305 89.853661 1.0012735 178.8719
6900000000 1.0007317 179.2728 0.0033043229 89.948425 0.003309224 89.896263 1.0013161 178.86079
6950000000 1.000875 179.26244 0.0033256051 89.927711 0.0033170176 89.855118 1.0013137 178.85489
7000000000 1.0007626 179.26358 0.0033464918 89.884117 0.0033420434 89.906349 1.0012991 178.85161
7050000000 1.0008032 179.25836 0.0033720792 89.951393 0.0033769088 90.036301 1.0012906 178.8371
7100000000 1.0006882 179.24643 0.0033927625 90.003319 0.0033950913 89.949516 1.001286 178.8318
7150000000 1.0008515 179.24597 0.00342021 89.956871 0.0034139883 89.964691 1.0012976 178.82153
7200000000 1.0008035 179.23828 0.0034395589 89.994286 0.0034391589 89.95739 1.0012361 178.81487
7250000000 1.0007761 179.24365 0.0034608804 90.047256 0.0034623221 89.92363 1.0012739 178.80646
7300000000 1.000724 179.22493 0.0034839134 90.008629 0.0034844128 90.077797 1.0012672 178.79477
7350000000 1.0007008 179.2269 0.0035085115 90.084373 0.003503982 89.999657 1.0013033 178.79066
7400000000 1.0008619 179.2149 0.0035283272 90.086868 0.0035308851 89.986427 1.0013146 178.7794
7450000000 1.000765 179.22057 0.0035487493 90.132423 0.0035480696 90.147346 1.001313 178.77155
7500000000 1.000849 179.21126 0.0035734056 90.097633 0.0035725115 90.191498 1.0013313 178.76143
7550000000 1.0007507 179.2061 0.003593717 90.128151 0.0035902548 90.062454 1.0013262 178.75232
7600000000 1.0009145 179.2028 0.003619547 90.222382 0.0036164462 90.15139 1.0013721 178.745
7650000000 1.0008578 179.19324 0.0036345099 90.274368 0.0036408526 90.207802 1.0013937 178.73479
7700000000 1.0008799 179.19997 0.0036632686 90.239265 0.0036609753 90.185829 1.0013329 178.73074
7750000000 1.0008011 179.18169 0.0036857619 90.214462 0.0036815756 90.224701 1.0013466 178.71733
7800000000 1.0008439 179.18797 0.0037069053 90.294388 0.0037045893 90.25663 1.0013249 178.7097
7850000000 1.0009123 179.1709 0.00372408 90.407578 0.0037265245 90.340904 1.001404 178.7019
7900000000 1.0008075 179.18634 0.003749361 90.414207 0.0037399186 90.327202 1.0013387 178.69568
7950000000 1.0008682 179.16872 0.0037688636 90.362137 0.0037660208 90.374657 1.0012981 178.68672
8000000000 1.0007693 179.16359 0.0037944757 90.516632 0.0037875192 90.408363 1.001331 178.67165
8050000000 1.0009253 179.15688 0.0038086348 90.478523 0.0038053305 90.500168 1.001426 178.66803
8100000000 1.000856 179.15472 0.0038331971 90.573387 0.0038246897 90.578758 1.0013485 178.6599
8150000000 1.0008221 179.15964 0.0038540247 90.728317 0.003850145 90.563354 1.0013211 178.65273
8200000000 1.0007058 179.13553 0.0038718493 90.780342 0.0038779986 90.726212 1.0013415 178.63518
8250000000 1.0008478 179.14154 0.0038987484 90.803558 0.0038977384 90.857552 1.0013814 178.63011
8300000000 1.0009401 179.12715 0.0039273784 90.881004 0.0039221388 90.900673 1.0013889 178.62744
8350000000 1.0007825 179.14429 0.0039470172 91.058617 0.0039459383 91.046318 1.0012351 178.6149
8400000000 1.0007997 179.11783 0.0039705676 91.048729 0.0039723432 91.044792 1.0012655 178.60329
8450000000 1.0007817 179.11938 0.0040017851 91.12841 0.0039970707 91.104271 1.0013828 178.59262
8500000000 1.0010127 179.11018 0.0040250034 91.205208 0.0040221675 91.190361 1.0013076 178.59612
8550000000 1.0008225 179.1118 0.0040486315 91.25811 0.0040470692 91.208466 1.0011473 178.58092
8600000000 1.0008588 179.10667 0.0040757456 91.327965 0.0040717926 91.363518 1.0011376 178.56625
8650000000 1.0008378 179.08711 0.0041065048 91.38739 0.0040985979 91.328773 1.0013273 178.55922
8700000000 1.0010192 179.09645 0.0041328399 91.499062 0.0041242065 91.38282 1.001246 178.55763
8750000000 1.0009211 179.08415 0.0041517587 91.474503 0.0041553425 91.434074 1.001115 178.54944
8800000000 1.000795 179.09496 0.0041815797 91.494423 0.0041814842 91.443512 1.0011055 178.52916
8850000000 1.000843 179.06586 0.0042097126 91.496758 0.0042092949 91.453423 1.0013282 178.52759
8900000000 1.0008545 179.07436 0.0042372509 91.523613 0.0042295428 91.453316 1.0013496 178.5208
8950000000 1.0009753 179.065 0.004259266 91.45369 0.0042556715 91.538086 1.0011706 178.51675
9000000000 1.0007038 179.06755 0.0042767902 91.541008 0.0042890254 91.509888 1.0012817 178.49712
9050000000 1.000854 179.05258 0.0043044714 91.638306 0.004307203 91.519508 1.001279 178.4865
9100000000 1.000807 179.03995 0.0043337476 91.64872 0.0043333853 91.551506 1.0013081 178.48904
9150000000 1.0010076 179.04948 0.0043567754 91.716537 0.0043521165 91.653069 1.0011311 178.47653
9200000000 1.0008819 179.03397 0.0043881568 91.66217 0.0043862625 91.654091 1.0012184 178.46384
9250000000 1.0008134 179.04095 0.0044175046 91.703751 0.0044117561 91.783516 1.0013738 178.44463
9300000000 1.0009271 179.01186 0.0044392934 91.696678 0.0044400264 91.690895 1.0013361 178.45105
9350000000 1.0009516 179.02817 0.0044560353 91.671196 0.0044545354 91.676819 1.0012828 178.43684
9400000000 1.0009978 179.01027 0.0044865226 91.74765 0.0044752755 91.770554 1.0011275 178.42429
9450000000 1.0008405 179.01781 0.0045131515 91.836563 0.0045085596 91.804436 1.0013293 178.41554
9500000000 1.0009729 178.9975 0.004533933 91.867363 0.0045354012 91.847382 1.001317 178.41199
9550000000 1.0008712 178.99283 0.0045609428 91.937141 0.0045588496 91.885231 1.0012265 178.41112
9600000000 1.0010364 178.99753 0.0045943502 91.983009 0.0045905896 91.89035 1.0011476 178.388
9650000000 1.000846 178.98395 0.0046210219 91.936783 0.0046197749 91.953857 1.0012209 178.38324
9700000000 1.0009477 178.98692 0.0046459851 91.94799 0.0046458826 91.937119 1.0013436 178.37238
9750000000 1.000939 178.96329 0.0046722023 91.960129 0.0046702046 91.97699 1.0012137 178.37376
9800000000 1.0009775 178.9816 0.0046956348 92.026733 0.0046981303 91.997849 1.0012652 178.35648
9850000000 1.0009564 178.95789 0.0047229552 92.014824 0.0047222124 92.090454 1.0012373 178.34323
9900000000 1.000842 178.96432 0.0047527179 92.121674 0.0047448482 92.048729 1.0014315 178.34132
9950000000 1.0010008 178.94426 0.0047822073 92.106636 0.0047720941 92.077774 1.001273 178.33185
10000000000 1.0008937 178.94772 0.0048094192 92.203461 0.004812723 92.206322 1.0012609 178.32788
10050000000 1.0010558 178.94376 0.0048359223 92.166916 0.004830908 92.229637 1.0013285 178.30705
10100000000 1.0008636 178.9315 0.0048597232 92.300934 0.0048653553 92.272255 1.0013887 178.30827
10150000000 1.00098 178.93259 0.0048953658 92.268051 0.0048998347 92.299019 1.0013857 178.29735
10200000000 1.0009264 178.91432 0.0049311216 92.320847 0.0049247411 92.32991 1.0011523 178.28908
