! Created Thu Feb 13 19:33:09 2025
# hz S ma R 50
! 1 Port Network Data from SP1.SP block
! freq  magS11  angS11  
!     
          50000000         0.9999615         -179.99767
         100000000         1.0000886           179.9993
         150000000         1.0001326          179.99661
         200000000         1.0002198          179.98637
         250000000         1.0000075          179.97943
         300000000         1.0001504          179.97806
         350000000         1.0001134           179.9689
         400000000         1.0001456          179.96065
         450000000         1.0001357          179.95366
         500000000         1.0001816          179.94601
         550000000          1.000131          179.93835
         600000000         1.0001316          179.93118
         650000000         1.0003872          179.92789
         700000000         1.0004084          179.92245
         750000000          1.000437          179.91286
         800000000         1.0004137          179.90388
         850000000         1.0003884          179.89566
         900000000         1.0003932          179.88589
         950000000         1.0003588          179.87816
             1e+09         1.0004133          179.87129
          1.05e+09          1.000316          179.86478
           1.1e+09         1.0003529          179.85719
          1.15e+09         1.0003589          179.84912
           1.2e+09         1.0002826          179.83995
          1.25e+09         1.0003854          179.83521
           1.3e+09         1.0004077          179.82477
          1.35e+09         1.0004206          179.81526
           1.4e+09         1.0004045          179.80757
          1.45e+09         1.0004402          179.79919
           1.5e+09         1.0004406          179.79105
          1.55e+09         1.0004889          179.78123
           1.6e+09         1.0005502          179.77515
          1.65e+09         1.0004742          179.76521
           1.7e+09         1.0005796          179.75801
          1.75e+09         1.0006648          179.75047
           1.8e+09         1.0006567          179.74374
          1.85e+09          1.000672          179.73572
           1.9e+09         1.0007193          179.72662
          1.95e+09         1.0007546           179.7207
             2e+09         1.0007464          179.71321
          2.05e+09         1.0006647          179.70564
           2.1e+09         1.0008084          179.69472
          2.15e+09         1.0008705          179.68898
           2.2e+09          1.000821          179.67937
          2.25e+09         1.0009038          179.66884
           2.3e+09         1.0009309          179.65938
          2.35e+09         1.0009384           179.6519
           2.4e+09         1.0009857          179.64798
          2.45e+09         1.0010256          179.63602
           2.5e+09         1.0010251          179.62517
          2.55e+09         1.0010347            179.619
           2.6e+09         1.0011071          179.61479
          2.65e+09         1.0010455          179.60265
           2.7e+09          1.001071          179.59126
          2.75e+09         1.0011066          179.58476
           2.8e+09         1.0011576          179.57762
          2.85e+09         1.0010184          179.56795
           2.9e+09         1.0011328          179.55576
          2.95e+09         1.0011747          179.54901
             3e+09         1.0011967          179.54512
          3.05e+09         1.0011349          179.53342
           3.1e+09         1.0011493          179.52274
          3.15e+09         1.0012286           179.5135
           3.2e+09         1.0011361          179.51151
          3.25e+09         1.0011487          179.49934
           3.3e+09          1.001171          179.48894
          3.35e+09         1.0011845           179.4812
           3.4e+09         1.0012043          179.47417
          3.45e+09         1.0011549          179.46577
           3.5e+09         1.0011979          179.45129
          3.55e+09         1.0012105          179.44646
           3.6e+09         1.0011833          179.43997
          3.65e+09         1.0011538          179.43513
           3.7e+09         1.0011948          179.41879
          3.75e+09         1.0012413          179.41031
           3.8e+09         1.0012633           179.4075
          3.85e+09          1.001193          179.39467
           3.9e+09         1.0012456          179.38615
          3.95e+09         1.0012578          179.37268
             4e+09         1.0012083          179.37257
          4.05e+09         1.0012405          179.35852
           4.1e+09         1.0012051          179.34906
          4.15e+09         1.0013033          179.34099
           4.2e+09         1.0012468          179.33337
          4.25e+09         1.0013168          179.32829
           4.3e+09         1.0012894          179.31117
          4.35e+09         1.0013614          179.30817
           4.4e+09          1.001318          179.29489
          4.45e+09         1.0012791          179.29192
           4.5e+09         1.0013429          179.27783
          4.55e+09         1.0012957          179.26958
           4.6e+09         1.0013511          179.26295
          4.65e+09         1.0012976          179.25053
           4.7e+09         1.0013257          179.24744
          4.75e+09         1.0013403          179.23145
           4.8e+09         1.0013461          179.22917
          4.85e+09         1.0013534          179.21431
           4.9e+09         1.0014114          179.21106
          4.95e+09         1.0014488          179.20099
             5e+09         1.0013676          179.18996
          5.05e+09          1.001431          179.18216
           5.1e+09         1.0014472          179.17184
          5.15e+09         1.0014989          179.17091
           5.2e+09         1.0013916           179.1544
          5.25e+09         1.0013844          179.14804
           5.3e+09         1.0014478          179.13634
          5.35e+09         1.0013691          179.13441
           5.4e+09         1.0013378          179.12646
          5.45e+09         1.0013194          179.10852
           5.5e+09         1.0014488          179.10608
          5.55e+09         1.0013411          179.09531
           5.6e+09         1.0011926          179.09181
          5.65e+09         1.0012809          179.07138
           5.7e+09         1.0013019          179.06575
          5.75e+09         1.0012614          179.06296
           5.8e+09         1.0011457           179.0524
          5.85e+09         1.0012082          179.04019
           5.9e+09          1.001235           179.0293
          5.95e+09         1.0012589          179.02998
             6e+09         1.0011796           179.0161
          6.05e+09         1.0011795          179.00237
           6.1e+09         1.0012627          178.99339
          6.15e+09         1.0012389          178.99091
           6.2e+09         1.0011836           178.9848
          6.25e+09         1.0011711          178.96599
           6.3e+09         1.0012527          178.95988
          6.35e+09         1.0012966          178.95493
           6.4e+09          1.001152           178.9505
          6.45e+09          1.001184          178.93375
           6.5e+09         1.0012621          178.92841
          6.55e+09         1.0012891           178.9256
           6.6e+09         1.0012012          178.91855
          6.65e+09         1.0011834          178.90669
           6.7e+09            1.0013          178.89212
          6.75e+09         1.0013243          178.88876
           6.8e+09         1.0012382          178.88043
          6.85e+09         1.0012735           178.8719
           6.9e+09         1.0013161          178.86079
          6.95e+09         1.0013137          178.85489
             7e+09         1.0012991          178.85161
          7.05e+09         1.0012906           178.8371
           7.1e+09          1.001286           178.8318
          7.15e+09         1.0012976          178.82153
           7.2e+09         1.0012361          178.81487
          7.25e+09         1.0012739          178.80646
           7.3e+09         1.0012672          178.79477
          7.35e+09         1.0013033          178.79066
           7.4e+09         1.0013146           178.7794
          7.45e+09          1.001313          178.77155
           7.5e+09         1.0013313          178.76143
          7.55e+09         1.0013262          178.75232
           7.6e+09         1.0013721            178.745
          7.65e+09         1.0013937          178.73479
           7.7e+09         1.0013329          178.73074
          7.75e+09         1.0013466          178.71733
           7.8e+09         1.0013249           178.7097
          7.85e+09          1.001404           178.7019
           7.9e+09         1.0013387          178.69568
          7.95e+09         1.0012981          178.68672
             8e+09          1.001331          178.67165
          8.05e+09          1.001426          178.66803
           8.1e+09         1.0013485           178.6599
          8.15e+09         1.0013211          178.65273
           8.2e+09         1.0013415          178.63518
          8.25e+09         1.0013814          178.63011
           8.3e+09         1.0013889          178.62744
          8.35e+09         1.0012351           178.6149
           8.4e+09         1.0012655          178.60329
          8.45e+09         1.0013828          178.59262
           8.5e+09         1.0013076          178.59612
          8.55e+09         1.0011473          178.58092
           8.6e+09         1.0011376          178.56625
          8.65e+09         1.0013273          178.55922
           8.7e+09          1.001246          178.55763
          8.75e+09          1.001115          178.54944
           8.8e+09         1.0011055          178.52916
          8.85e+09         1.0013282          178.52759
           8.9e+09         1.0013496           178.5208
          8.95e+09         1.0011706          178.51675
             9e+09         1.0012817          178.49712
          9.05e+09          1.001279           178.4865
           9.1e+09         1.0013081          178.48904
          9.15e+09         1.0011311          178.47653
           9.2e+09         1.0012184          178.46384
          9.25e+09         1.0013738          178.44463
           9.3e+09         1.0013361          178.45105
          9.35e+09         1.0012828          178.43684
           9.4e+09         1.0011275          178.42429
          9.45e+09         1.0013293          178.41554
           9.5e+09          1.001317          178.41199
          9.55e+09         1.0012265          178.41112
           9.6e+09         1.0011476            178.388
          9.65e+09         1.0012209          178.38324
           9.7e+09         1.0013436          178.37238
          9.75e+09         1.0012137          178.37376
           9.8e+09         1.0012652          178.35648
          9.85e+09         1.0012373          178.34323
           9.9e+09         1.0014315          178.34132
          9.95e+09          1.001273          178.33185
             1e+10         1.0012609          178.32788
         1.005e+10         1.0013285          178.30705
          1.01e+10         1.0013887          178.30827
         1.015e+10         1.0013857          178.29735
          1.02e+10         1.0011523          178.28908
         1.025e+10         1.0012581          178.27583
          1.03e+10         1.0012619          178.26765
         1.035e+10           1.00134           178.2664
          1.04e+10         1.0013807          178.24963
         1.045e+10         1.0013449          178.24765
          1.05e+10         1.0013789           178.2332
         1.055e+10         1.0013438          178.23367
          1.06e+10         1.0013952           178.2197
         1.065e+10         1.0013067          178.21085
          1.07e+10         1.0015103          178.20367
         1.075e+10         1.0014133          178.19464
          1.08e+10         1.0014164          178.19456
         1.085e+10         1.0013763          178.17336
          1.09e+10         1.0012776          178.17213
         1.095e+10         1.0013328          178.15321
           1.1e+10         1.0012972          178.15646
         1.105e+10          1.001321          178.14616
          1.11e+10         1.0011263          178.13223
         1.115e+10         1.0012054          178.12704
          1.12e+10         1.0013077          178.11467
         1.125e+10         1.0012313          178.11963
          1.13e+10         1.0011568          178.09787
         1.135e+10         1.0011315          178.09473
          1.14e+10         1.0013477          178.08138
         1.145e+10         1.0011332           178.0858
          1.15e+10         1.0011804           178.0704
         1.155e+10         1.0012089          178.05193
          1.16e+10         1.0013853            178.056
         1.165e+10         1.0013294          178.04649
          1.17e+10          1.001158          178.04388
         1.175e+10         1.0012393          178.01581
          1.18e+10         1.0012896          178.02087
         1.185e+10          1.001404          178.01341
          1.19e+10         1.0010698          178.01115
         1.195e+10          1.001281          177.98991
           1.2e+10         1.0012803          177.97855
         1.205e+10         1.0013317          177.99091
          1.21e+10         1.0011621          177.96922
         1.215e+10         1.0011072          177.96193
          1.22e+10         1.0013242           177.9424
         1.225e+10         1.0012479          177.95758
          1.23e+10         1.0012188          177.93648
         1.235e+10          1.001013          177.92513
          1.24e+10         1.0013502           177.9162
         1.245e+10         1.0012777          177.90662
          1.25e+10         1.0012319          177.91002
         1.255e+10         1.0011446          177.88216
          1.26e+10         1.0011932          177.88054
         1.265e+10         1.0013484          177.86835
          1.27e+10         1.0010664          177.87651
         1.275e+10         1.0011573          177.85149
          1.28e+10         1.0010053          177.84326
         1.285e+10          1.001184          177.85347
          1.29e+10         1.0010089          177.83997
         1.295e+10         1.0010418          177.83839
           1.3e+10          1.001155          177.81622
         1.305e+10         1.0010668          177.82913
          1.31e+10         1.0012026          177.80719
         1.315e+10         1.0010093          177.80756
          1.32e+10         1.0012133           177.7881
         1.325e+10         1.0011176          177.77727
          1.33e+10         1.0012648          177.78004
         1.335e+10         1.0011719          177.75636
          1.34e+10         1.0011864           177.7545
         1.345e+10          1.001245          177.72855
          1.35e+10         1.0011786          177.74142
         1.355e+10         1.0013282          177.72092
          1.36e+10         1.0011185          177.71977
         1.365e+10         1.0012534          177.71217
          1.37e+10         1.0011203          177.69635
         1.375e+10         1.0013998          177.69437
          1.38e+10         1.0012021          177.67238
         1.385e+10         1.0011727           177.6792
          1.39e+10         1.0013762          177.65584
         1.395e+10         1.0012896          177.66791
           1.4e+10         1.0013008          177.64606
         1.405e+10         1.0011241          177.63786
          1.41e+10         1.0013522          177.62711
         1.415e+10         1.0012542          177.61868
          1.42e+10         1.0013019          177.62233
         1.425e+10         1.0011145          177.59384
          1.43e+10         1.0011472          177.59277
         1.435e+10          1.001358          177.57881
          1.44e+10         1.0011698          177.58644
         1.445e+10         1.0011857          177.56155
          1.45e+10         1.0011194          177.55139
         1.455e+10          1.001371          177.55135
          1.46e+10         1.0011954          177.54674
         1.465e+10         1.0011396          177.54095
          1.47e+10          1.001164            177.507
         1.475e+10         1.0013347          177.52092
          1.48e+10         1.0013183          177.51808
         1.485e+10         1.0009716          177.50816
          1.49e+10         1.0011942          177.48183
         1.495e+10         1.0013393          177.47772
           1.5e+10         1.0013022          177.48503
         1.505e+10         1.0009602          177.47113
          1.51e+10         1.0010896          177.45123
         1.515e+10         1.0013663           177.4386
          1.52e+10         1.0012589          177.45123
         1.525e+10         1.0010117          177.43929
          1.53e+10         1.0010242          177.41315
         1.535e+10         1.0012716          177.39935
          1.54e+10         1.0012577          177.41159
         1.545e+10         1.0010673          177.40376
          1.55e+10         1.0009546          177.38025
         1.555e+10         1.0011576          177.37248
          1.56e+10         1.0011619          177.37717
         1.565e+10         1.0010264          177.37419
          1.57e+10         1.0008333          177.35239
         1.575e+10         1.0011116          177.33658
          1.58e+10          1.001238          177.33583
         1.585e+10         1.0010579          177.34009
          1.59e+10         1.0008512          177.31448
         1.595e+10         1.0009495          177.30354
           1.6e+10         1.0011723          177.29832
         1.605e+10         1.0010419          177.29993
          1.61e+10         1.0009121          177.28172
         1.615e+10         1.0008314          177.26396
          1.62e+10          1.001086          177.26057
         1.625e+10         1.0010155          177.25162
          1.63e+10         1.0009102          177.25844
         1.635e+10         1.0009288           177.2265
          1.64e+10         1.0009304          177.23268
         1.645e+10         1.0011114          177.22484
          1.65e+10          1.000849          177.22295
         1.655e+10         1.0008837          177.20076
          1.66e+10         1.0007733           177.1929
         1.665e+10          1.001044          177.19556
          1.67e+10         1.0009729          177.17712
         1.675e+10         1.0008574          177.17622
          1.68e+10         1.0008833          177.15092
         1.685e+10         1.0009551          177.15683
          1.69e+10         1.0011221          177.14366
         1.695e+10         1.0007671          177.14117
           1.7e+10         1.0008699          177.11971
         1.705e+10         1.0009662          177.10315
          1.71e+10          1.001181          177.11662
         1.715e+10         1.0008515            177.097
          1.72e+10           1.00073          177.09186
         1.725e+10         1.0010803          177.06111
          1.73e+10         1.0011466          177.07698
         1.735e+10         1.0009923          177.06543
          1.74e+10         1.0006244          177.05194
         1.745e+10          1.001054          177.02818
          1.75e+10         1.0011121          177.02211
         1.755e+10         1.0009669          177.03697
          1.76e+10         1.0006571          177.00331
         1.765e+10         1.0007287           176.9917
          1.77e+10         1.0011683          176.98126
