!Keysight Technologies,N5247B,MY61255062,A.15.50.07
!Date: Thursday, February 13, 2025 12:17:45
!Correction: S11(C  2-Port  ) 
!S21(C  2-Port  ) 
!S12(C  2-Port  ) 
!S22(C  2-Port  ) 
!S2P File: Measurements: S11, S21, S12, S22:
# Hz S  MA   R 50
50000000 0.00019246301 165.10828 0.99992323 -0.011531953 0.9999814 -0.0076952055 0.00035191482 -8.357955
100000000 0.00016822897 175.84383 0.99993497 -0.02676413 1.0001464 -0.023026321 0.00039967353 -18.383629
150000000 0.00019265286 177.17525 0.99995863 -0.044148758 1.0002528 -0.037607763 0.00042442011 -25.958647
200000000 0.00023087444 -170.5719 0.99996513 -0.059100285 1.0001628 -0.055366751 0.00041053392 -40.188076
250000000 0.00020116511 -155.88124 0.9999854 -0.074504815 1.0001371 -0.071514256 0.00051288231 -46.436993
300000000 0.00024284069 -143.64856 1.0000092 -0.091592036 1.0001953 -0.087520361 0.00057456671 -52.377525
350000000 0.00026103095 -132.33089 0.99994642 -0.10615031 1.0002155 -0.10141419 0.00060289766 -55.346764
400000000 0.00032286401 -131.31888 0.99992657 -0.12173453 1.0002002 -0.11631285 0.00068140175 -57.337097
450000000 0.00036550302 -117.51244 0.99996197 -0.13686867 1.0001459 -0.13287914 0.00074967358 -59.587078
500000000 0.00039181218 -118.72915 0.99997777 -0.15343355 1.0000925 -0.14873597 0.00079707685 -62.477791
550000000 0.00038353275 -123.45004 1.0000303 -0.16815953 1.000017 -0.16451278 0.00083677756 -65.35099
600000000 0.00045713346 -118.93417 0.99996406 -0.18273151 1.0000266 -0.18275768 0.00092781457 -67.889404
650000000 0.00049223221 -113.28566 0.99999815 -0.19704658 1.0002518 -0.19315219 0.0010220032 -69.729958
700000000 0.00050305424 -112.80354 1.0000377 -0.21256848 1.0002708 -0.20687866 0.0010742162 -70.322296
750000000 0.00051893212 -116.59245 1.0001011 -0.22880077 1.0002717 -0.22274251 0.0011464928 -72.503944
800000000 0.00053996599 -118.42872 0.99999291 -0.24467865 1.000246 -0.24083538 0.0011675101 -73.971031
850000000 0.00057578855 -111.08305 1.0000212 -0.26158306 1.0002337 -0.25876704 0.0012938306 -75.106735
900000000 0.0006247678 -108.45597 1.0000168 -0.27653447 1.0001684 -0.27364898 0.0013328288 -75.56163
950000000 0.00064519339 -109.60383 1.0000286 -0.29148576 1.0001569 -0.28934243 0.0014177812 -75.911003
1000000000 0.00074689707 -108.67789 1.0000257 -0.30526033 1.0000648 -0.30453813 0.0014265325 -76.774773
1050000000 0.00084547268 -104.40623 1.0000554 -0.32227486 1.0000656 -0.32132566 0.0015832072 -77.615387
1100000000 0.00085139117 -105.36797 1.0000391 -0.33753672 1.0000175 -0.33763963 0.0016469789 -78.185898
1150000000 0.00085139473 -106.89877 1.000088 -0.35169527 1.0000029 -0.35208037 0.0017256077 -79.197746
1200000000 0.00092977704 -104.99615 1.0000565 -0.36874193 1.0000594 -0.37136012 0.001781138 -80.536263
1250000000 0.00097133499 -106.12956 1.0000436 -0.38261506 1.0000212 -0.38565451 0.001889726 -80.37709
1300000000 0.00093946728 -105.58496 0.99998933 -0.39916205 1.0000942 -0.40311387 0.0020005817 -81.36969
1350000000 0.00096130784 -106.50574 0.99994314 -0.41467005 1.0001115 -0.41854009 0.0020397112 -82.391205
1400000000 0.0010291998 -106.90568 0.99997741 -0.43086383 1.0000789 -0.43576598 0.0021369017 -83.268539
1450000000 0.0010817694 -104.35164 0.99994612 -0.44926617 1.0000744 -0.45234385 0.0021943608 -83.139946
1500000000 0.0011311938 -103.46977 0.99993461 -0.46581438 1.0000381 -0.47014251 0.0022874847 -84.458282
1550000000 0.0011960416 -103.84795 0.99994135 -0.48317778 1.0000256 -0.48676732 0.002339337 -84.844933
1600000000 0.001307211 -105.71934 0.99991965 -0.50126308 1.0000433 -0.50517279 0.0024751856 -85.78672
1650000000 0.0013418449 -104.7821 0.99987614 -0.51813936 1.0000335 -0.52161986 0.0025776697 -86.690048
1700000000 0.0014388828 -105.54066 0.99980778 -0.53502202 0.99998152 -0.53955847 0.0026826824 -88.090439
1750000000 0.0014866488 -107.01962 0.9998011 -0.55234605 0.99994534 -0.55655104 0.0027676688 -88.473015
1800000000 0.001585582 -108.93642 0.99978215 -0.56982428 0.9999252 -0.57248026 0.0028809807 -88.905342
1850000000 0.0016688399 -110.21158 0.99978173 -0.58928722 0.99986154 -0.59017098 0.00299957 -90.707382
1900000000 0.001749563 -114.37609 0.99964511 -0.60702592 0.99976808 -0.60821176 0.0031394442 -93.051086
1950000000 0.0017477192 -118.11494 0.99948514 -0.62089467 0.99969941 -0.62184197 0.0032237954 -95.054649
2000000000 0.0017514345 -117.94383 0.99943662 -0.63560861 0.99962652 -0.63488752 0.0032698154 -96.700821
2050000000 0.001864444 -120.44029 0.99934715 -0.65012342 0.99946868 -0.6497035 0.0032675567 -99.524254
2100000000 0.0017960322 -126.64791 0.99930525 -0.66216648 0.99940944 -0.6599701 0.0032658849 -98.737427
2150000000 0.0017622818 -132.29729 0.99909639 -0.67440265 0.99924326 -0.67411208 0.0034241122 -103.32355
2200000000 0.0016865025 -129.74503 0.99900115 -0.68421036 0.99922013 -0.68377668 0.0033971409 -109.34016
2250000000 0.0017065431 -134.43073 0.99883592 -0.68712395 0.99915648 -0.68615663 0.0031482643 -111.66425
2300000000 0.0015572459 -139.8175 0.99886554 -0.68629497 0.99917537 -0.68535405 0.0027963263 -113.21035
2350000000 0.001392464 -140.56383 0.99902141 -0.68954843 0.99935335 -0.68765163 0.0024887389 -109.16546
2400000000 0.001319432 -136.45259 0.999219 -0.70215958 0.99956506 -0.70031399 0.0025020244 -102.53805
2450000000 0.0011699066 -134.30643 0.99942273 -0.71871519 0.99970043 -0.71605235 0.0025317254 -96.140823
2500000000 0.0011429455 -129.93144 0.99945903 -0.7379452 0.99981487 -0.73439032 0.0026317905 -95.095207
2550000000 0.0010954945 -124.97314 0.9995122 -0.75386393 0.99985951 -0.75051367 0.0027362406 -93.702011
2600000000 0.0011663267 -119.31374 0.9995622 -0.77297205 0.99989796 -0.77047306 0.0029262817 -91.995667
2650000000 0.0011746769 -112.30398 0.99954045 -0.79153484 0.99988323 -0.78986216 0.0030310845 -90.223221
2700000000 0.0012125918 -111.56753 0.99950576 -0.8083173 0.99982959 -0.80637735 0.0031377703 -88.830017
2750000000 0.0012654264 -110.86787 0.99953508 -0.82143122 0.99980688 -0.82003617 0.0032378328 -90.619209
2800000000 0.0013616472 -110.26346 0.9995802 -0.83591759 0.99985272 -0.83420897 0.003410999 -91.094833
2850000000 0.0014548774 -108.26873 0.99955702 -0.85271949 0.99988562 -0.85021037 0.0035576993 -91.177544
2900000000 0.0014636605 -113.4818 0.99958539 -0.86682582 0.9998489 -0.8662011 0.0035960421 -91.823242
2950000000 0.0014764827 -114.57821 0.99953604 -0.8817091 0.99986219 -0.88079631 0.0036247489 -93.877853
3000000000 0.0014925088 -112.68541 0.99954921 -0.89522207 0.99985284 -0.89500999 0.003627894 -95.668587
3050000000 0.0015579793 -111.37328 0.99958932 -0.91016424 0.99987316 -0.91053945 0.0036599045 -94.39389
3100000000 0.0015357707 -112.75699 0.99959683 -0.92545402 0.99984443 -0.92644012 0.0036163982 -93.075279
3150000000 0.0015206279 -112.25842 0.99958789 -0.94213945 0.99988234 -0.94132185 0.003660494 -93.273331
3200000000 0.0016051396 -108.7515 0.99960005 -0.96149749 0.99990207 -0.96418655 0.0038125659 -93.451729
3250000000 0.0016248396 -110.46221 0.99959379 -0.97941917 0.99977964 -0.98124421 0.0039285352 -92.160881
3300000000 0.0016360428 -110.76216 0.99954748 -0.99521333 0.99972486 -0.9982568 0.0040320861 -92.564026
3350000000 0.001660737 -109.54341 0.99944901 -1.0090104 0.99966085 -1.0118135 0.0040331562 -92.927818
3400000000 0.0016836452 -110.49106 0.99944311 -1.0241338 0.99960935 -1.0259812 0.0041630557 -94.76902
3450000000 0.0017335848 -112.37841 0.99932289 -1.038445 0.99956322 -1.0385319 0.0042591272 -95.073395
3500000000 0.0016990491 -115.64471 0.99926943 -1.0499498 0.99954438 -1.0507936 0.0042101545 -95.40464
3550000000 0.0016700617 -114.48161 0.99927258 -1.0606366 0.99950516 -1.0605795 0.0041787191 -96.008652
3600000000 0.0016192568 -114.98743 0.99924952 -1.0710373 0.99949002 -1.071422 0.0041436199 -96.759026
3650000000 0.0015461433 -115.3435 0.99929357 -1.081576 0.99954933 -1.0833427 0.0041586631 -96.387863
3700000000 0.0015200584 -115.16834 0.99935448 -1.0942019 0.99965632 -1.0965128 0.0041087721 -94.213936
3750000000 0.0014971076 -113.42404 0.99942338 -1.1094651 0.99971771 -1.1126257 0.0041265371 -94.256058
3800000000 0.0015614255 -108.86172 0.99942601 -1.1268049 0.99978465 -1.1295507 0.0042291568 -94.012131
3850000000 0.0014740352 -108.58204 0.99944347 -1.1445272 0.99978483 -1.1464597 0.0043107071 -93.420807
3900000000 0.0015540892 -107.54535 0.99948424 -1.1624091 0.99976826 -1.1643064 0.0043564765 -92.162445
3950000000 0.0015374051 -108.47535 0.99947935 -1.1761209 0.99974036 -1.1788393 0.0043655317 -92.318283
4000000000 0.001569476 -103.49955 0.99946815 -1.1928499 0.99974298 -1.1966527 0.0044508344 -92.266945
4050000000 0.0015445711 -105.52917 0.99947006 -1.207024 0.99972653 -1.2116345 0.0045385738 -91.993408
4100000000 0.001555457 -103.61348 0.99952739 -1.2240814 0.99967331 -1.228104 0.0045893057 -91.463753
4150000000 0.0016391022 -104.71609 0.99946958 -1.2388244 0.99968833 -1.2431747 0.0045996951 -91.434952
4200000000 0.0016228755 -101.30628 0.9994632 -1.2538755 0.99969476 -1.2582389 0.0046833116 -91.755157
4250000000 0.0016797801 -101.98839 0.99946153 -1.2703931 0.99968886 -1.2741805 0.0048204572 -91.663177
4300000000 0.001602416 -104.4862 0.99940473 -1.2853075 0.99969804 -1.2896807 0.0048098098 -91.246399
4350000000 0.0017393224 -102.42451 0.99939185 -1.3006861 0.9996435 -1.3060237 0.0048197876 -91.342628
4400000000 0.0016787512 -102.62171 0.99935567 -1.316197 0.99965692 -1.3207415 0.0048709777 -91.974884
4450000000 0.0016823014 -100.15828 0.99934167 -1.328709 0.99962682 -1.3351508 0.0049487525 -91.294327
4500000000 0.0016619957 -102.0099 0.99942136 -1.3456333 0.99961954 -1.3498193 0.0049755955 -90.949684
4550000000 0.0016856903 -99.47139 0.99947262 -1.3616862 0.99965513 -1.3653094 0.004991109 -91.03611
4600000000 0.0017264228 -98.805252 0.99947435 -1.3776608 0.99962628 -1.3801819 0.0050788084 -91.148392
4650000000 0.0016508992 -97.742912 0.99944019 -1.3944972 0.99967498 -1.3952066 0.0051202648 -91.106697
4700000000 0.0017653945 -97.671341 0.99937153 -1.4112809 0.99965036 -1.4124712 0.0052280775 -90.775673
4750000000 0.0016845028 -97.340591 0.99940348 -1.424413 0.99972308 -1.4300023 0.005198393 -90.392624
4800000000 0.0017963466 -96.048531 0.99941403 -1.440282 0.999654 -1.4438611 0.005283806 -89.905106
4850000000 0.0017612373 -95.313347 0.99937046 -1.4543617 0.99966836 -1.4590774 0.0053179981 -90.637627
4900000000 0.0017980107 -95.770927 0.99937809 -1.4718277 0.99964231 -1.4752243 0.0054181782 -89.680428
4950000000 0.0018113932 -95.821709 0.99938828 -1.4863142 0.99961013 -1.4913243 0.0053887269 -90.161461
5000000000 0.0017986296 -93.231972 0.99935275 -1.502009 0.99963111 -1.5072587 0.0054462166 -90.122574
5050000000 0.0018412879 -94.571945 0.99934089 -1.5187162 0.99958491 -1.5198944 0.0055583068 -90.332382
5100000000 0.0018098289 -92.542114 0.99939507 -1.53546 0.99957466 -1.5375012 0.0055956524 -89.481659
5150000000 0.0018920043 -91.547432 0.99935991 -1.5515212 0.99949765 -1.55343 0.0056187538 -89.165199
5200000000 0.0018176605 -89.463417 0.99939567 -1.5672725 0.99949926 -1.5682533 0.0056177392 -89.859688
5250000000 0.0018650119 -89.820953 0.99932516 -1.5821501 0.99946827 -1.5850358 0.0057885312 -89.292412
5300000000 0.001907581 -90.313759 0.99930972 -1.5984632 0.99940568 -1.6009043 0.0057972735 -89.188766
5350000000 0.0019740872 -87.089111 0.99927354 -1.6135627 0.99943262 -1.6179188 0.0058844136 -88.887436
5400000000 0.0019855509 -86.554527 0.999273 -1.6287112 0.99944502 -1.6328832 0.0058879708 -89.296677
5450000000 0.0019158158 -86.515106 0.99928325 -1.6454422 0.99936199 -1.6497021 0.0059522428 -88.751396
5500000000 0.0020344655 -87.96627 0.99921054 -1.6609856 0.99930787 -1.6663542 0.006059065 -89.254723
5550000000 0.0020401108 -84.978424 0.99923134 -1.6759243 0.99938262 -1.681911 0.0060840915 -88.442383
5600000000 0.0020841789 -84.157722 0.99919784 -1.6897507 0.99931896 -1.6975985 0.0061357887 -88.418152
5650000000 0.0019476395 -85.748795 0.99917889 -1.7055205 0.99926889 -1.7132052 0.0061217737 -88.831772
5700000000 0.0021080985 -85.261398 0.99911767 -1.7238132 0.99922091 -1.7283316 0.0062798932 -88.819786
5750000000 0.0021583438 -83.33506 0.9990893 -1.738651 0.9991895 -1.7462387 0.006300915 -88.551613
5800000000 0.0021261184 -80.900032 0.99908495 -1.7553849 0.99914354 -1.7612133 0.0063364236 -87.532997
5850000000 0.0020763515 -82.793221 0.99902576 -1.7686219 0.99908459 -1.7770861 0.0063366219 -88.5439
5900000000 0.0021490348 -83.147064 0.99902469 -1.7864697 0.99906111 -1.7935951 0.0064552939 -88.102936
5950000000 0.0022923378 -82.536804 0.99901849 -1.8024801 0.99899209 -1.8092725 0.0065612886 -87.882339
6000000000 0.0022571757 -78.55307 0.99896282 -1.8165751 0.99899685 -1.826141 0.0065312986 -87.370499
6050000000 0.0021957201 -80.79673 0.99893272 -1.8321486 0.99896955 -1.8382409 0.0065947557 -87.601257
6100000000 0.00227377 -81.419411 0.998891 -1.8481266 0.99892682 -1.8561884 0.0066637346 -87.689125
6150000000 0.0024279975 -80.500923 0.99881703 -1.8636543 0.99892777 -1.8727453 0.0067952522 -86.96846
6200000000 0.0024365121 -77.246727 0.99885368 -1.8829942 0.99882394 -1.8884676 0.0068015289 -86.94902
6250000000 0.0023396271 -78.294182 0.99881667 -1.8977888 0.99879241 -1.9040185 0.006875271 -86.503647
6300000000 0.0024017864 -79.254555 0.99880254 -1.9127162 0.99872392 -1.9189192 0.0069249845 -87.13205
6350000000 0.0025227694 -78.630135 0.9987312 -1.9299784 0.99875236 -1.9364895 0.0070516788 -86.472107
6400000000 0.0025618672 -76.460808 0.99870265 -1.9453517 0.99868488 -1.9510747 0.0070730476 -86.318275
6450000000 0.0024962057 -76.001846 0.99869311 -1.9592942 0.99859518 -1.9666828 0.0071126982 -86.258133
6500000000 0.0025253478 -77.271469 0.99863487 -1.9750495 0.99856281 -1.9799709 0.0072089392 -86.43148
6550000000 0.0026815154 -76.807487 0.99860221 -1.9909028 0.99848378 -1.9988241 0.007297399 -86.082672
6600000000 0.0027268056 -75.549667 0.99853033 -2.0067935 0.9984827 -2.0140078 0.0073793689 -85.664612
6650000000 0.0026801012 -74.688782 0.9985202 -2.0224195 0.99842834 -2.027524 0.0073989243 -85.361259
6700000000 0.0027009693 -75.751846 0.99846774 -2.0363371 0.99836195 -2.0419431 0.0075183818 -85.328514
6750000000 0.0027985866 -75.174576 0.99841493 -2.0537086 0.99831849 -2.0584652 0.007545644 -85.597343
6800000000 0.0028689085 -74.244034 0.99836415 -2.0686963 0.99830657 -2.0748007 0.0076861843 -84.985207
6850000000 0.0028441271 -73.788788 0.99831533 -2.0829451 0.9983055 -2.0876324 0.0077292975 -85.044426
6900000000 0.0028924868 -73.32074 0.99822587 -2.0974333 0.99824148 -2.1033847 0.0078051458 -84.854454
6950000000 0.0029393334 -73.333748 0.9981733 -2.1125395 0.9981674 -2.1176808 0.0078454474 -85.092667
7000000000 0.0030320224 -72.474579 0.99811715 -2.1275318 0.99810189 -2.1330631 0.0079504009 -84.734634
7050000000 0.0030053554 -72.61747 0.99804038 -2.1404402 0.99808615 -2.147079 0.0080710202 -84.663147
7100000000 0.0030890771 -71.811295 0.99796486 -2.1552265 0.99800038 -2.1613221 0.0080978079 -84.134766
7150000000 0.0031763227 -71.503693 0.99792659 -2.1715198 0.99791867 -2.1772168 0.0081944512 -84.239464
7200000000 0.0032334661 -71.147995 0.99792778 -2.1882842 0.99780971 -2.1910896 0.0082639996 -84.270981
7250000000 0.0032830206 -71.92321 0.99779826 -2.2007809 0.99773008 -2.2060332 0.0084530795 -84.169052
7300000000 0.0033053355 -71.24073 0.99775505 -2.2144711 0.99769312 -2.2184744 0.0084779626 -83.96804
7350000000 0.0034369398 -71.086266 0.99768436 -2.2293785 0.99763757 -2.2325182 0.008568773 -83.650063
7400000000 0.0034186563 -71.379532 0.99761355 -2.2411208 0.99757916 -2.2452469 0.0086257635 -83.974701
7450000000 0.0034918441 -71.450005 0.99753368 -2.2539873 0.99751163 -2.2590482 0.0087939249 -83.848427
7500000000 0.0035350739 -71.677933 0.99749345 -2.2669024 0.99742597 -2.2723825 0.008924149 -83.922127
7550000000 0.003647689 -70.085999 0.99745083 -2.2791002 0.99740219 -2.2868443 0.0089708343 -83.505669
7600000000 0.0036632365 -71.189522 0.99739861 -2.291153 0.99732518 -2.2998943 0.0090792989 -83.945778
7650000000 0.0036907943 -71.39769 0.99731874 -2.3029046 0.99732345 -2.3136458 0.0091680707 -84.065163
7700000000 0.0038561434 -71.49617 0.99722421 -2.3156655 0.99717695 -2.3256707 0.0093887327 -83.875359
7750000000 0.0038971158 -70.00415 0.99716902 -2.3285394 0.99711049 -2.3383751 0.0093817357 -83.652641
7800000000 0.0039744191 -69.670448 0.99710071 -2.3426504 0.99706745 -2.3503282 0.009535471 -83.754013
7850000000 0.0039536031 -71.259201 0.99700689 -2.3515546 0.99707061 -2.3606308 0.0096119484 -84.263
7900000000 0.0041520419 -71.414307 0.99699956 -2.3631158 0.99696422 -2.3734524 0.0098495288 -83.919876
7950000000 0.0042189201 -71.422447 0.99691308 -2.373878 0.9968425 -2.3839958 0.0099250609 -84.030739
8000000000 0.0041994918 -70.439865 0.99690449 -2.3856902 0.99686152 -2.3967819 0.0099391621 -84.153
8050000000 0.0042101154 -72.640533 0.99683148 -2.3948753 0.99684882 -2.4057136 0.010120343 -84.598495
8100000000 0.0043370463 -72.408607 0.99679893 -2.4056854 0.9967857 -2.417387 0.010263961 -84.763123
8150000000 0.0045047379 -72.474388 0.99676079 -2.4176002 0.99672985 -2.4299095 0.010397973 -84.351822
8200000000 0.004409757 -71.384125 0.99675024 -2.4301202 0.99668205 -2.4399047 0.010364365 -84.682541
8250000000 0.0044341818 -72.847626 0.9967128 -2.4411292 0.99662602 -2.4509335 0.010554899 -85.07988
8300000000 0.004544436 -73.675293 0.99671149 -2.4507487 0.99658638 -2.4592319 0.010650741 -85.652885
8350000000 0.0047090314 -73.029541 0.99670541 -2.463969 0.99658203 -2.4710023 0.010813343 -85.207382
8400000000 0.0046771765 -72.625 0.9966895 -2.4745615 0.99656349 -2.4834616 0.010810635 -85.631363
8450000000 0.0046383599 -73.623657 0.99664456 -2.4852042 0.99656016 -2.4952559 0.010904219 -85.995323
8500000000 0.0048013483 -75.161194 0.99661261 -2.4958155 0.99651378 -2.5057101 0.011055199 -86.260086
8550000000 0.0049002212 -73.937729 0.99660057 -2.5091815 0.99652106 -2.5188844 0.011136542 -86.239693
8600000000 0.0048975293 -73.891747 0.9966436 -2.5234134 0.99646538 -2.5288908 0.011202545 -86.721031
8650000000 0.0048444928 -74.830635 0.9966017 -2.5321698 0.99642754 -2.5408077 0.011233699 -87.30394
8700000000 0.0049818098 -76.098373 0.9965719 -2.5435832 0.99643064 -2.5500419 0.01144735 -87.363159
8750000000 0.0050881682 -75.265762 0.99655682 -2.5544081 0.99640185 -2.5622883 0.011472077 -87.390198
8800000000 0.0051073791 -75.028625 0.99660194 -2.5672448 0.99637544 -2.5731039 0.011532731 -87.60009
8850000000 0.0050471611 -76.193016 0.99662483 -2.5755005 0.99638355 -2.5840397 0.01154039 -88.233551
8900000000 0.0051237936 -77.089096 0.99656224 -2.5864062 0.99640918 -2.5946622 0.01170393 -88.375496
8950000000 0.0052402974 -76.924133 0.99655193 -2.5998492 0.99641275 -2.6050022 0.011740915 -88.496574
9000000000 0.0052106855 -76.909897 0.99658048 -2.6091893 0.99645787 -2.6155865 0.011737703 -88.510094
9050000000 0.0051736748 -77.896324 0.99656922 -2.6206474 0.99646586 -2.6260707 0.011758647 -89.103668
9100000000 0.0052542309 -78.258057 0.9965682 -2.6315176 0.99646795 -2.6361313 0.011833281 -89.386665
9150000000 0.0053018006 -78.567726 0.99659079 -2.6432362 0.99645382 -2.6491396 0.011894982 -89.410103
9200000000 0.0052762153 -78.636925 0.9966535 -2.6562934 0.99652761 -2.6618612 0.011877527 -89.549423
9250000000 0.0052227806 -79.469635 0.99664658 -2.6679442 0.99655104 -2.6720726 0.011941944 -89.792305
9300000000 0.0052385591 -79.779327 0.9966675 -2.6803534 0.99655145 -2.6826136 0.011945653 -90.268402
9350000000 0.0052440977 -79.993027 0.99673396 -2.6932707 0.99653524 -2.6978683 0.01204372 -90.003716
9400000000 0.0051927916 -79.736893 0.99671799 -2.7031171 0.99655896 -2.7087429 0.01197832 -90.170158
9450000000 0.0052011851 -79.884895 0.99672627 -2.7165477 0.99660653 -2.7213581 0.01206016 -90.318604
9500000000 0.0051792045 -80.270393 0.9967584 -2.7275307 0.99668068 -2.7338495 0.012070477 -90.515282
9550000000 0.0052628 -79.53595 0.99680001 -2.7430212 0.99668783 -2.7497075 0.012091013 -90.185112
9600000000 0.0051757339 -79.718872 0.9968195 -2.7566857 0.99671626 -2.7624376 0.01211942 -90.325325
