! C:\Users\Focus\Desktop\Focus Traning\LOW FREQUENCY TUNERS\LOAD-PULL CALIBRATION\02-08-2024\focus_TRL\CONA.S2P
! TRL calculation phase shifted with thru length of 1.100000 ps
# GHZ S MA R 50
 1.800000000  0.0537441 -126.424  0.9490529 -35.794  0.9490529 -35.794  0.0267307 154.412 
 1.900000000  0.0420940  76.355  0.9474274 -117.639  0.9474274 -117.639  0.0341472 143.265 
 2.000000000  0.0436704 -85.388  0.9470187 160.406  0.9470187 160.406  0.0276512 136.709 
 2.100000000  0.0403614 100.681  0.9451899  78.508  0.9451899  78.508  0.0280313 154.549 
 2.200000000  0.0568729 -38.320  0.9433861  -3.368  0.9433861  -3.368  0.0413208 154.704 
 2.300000000  0.0426077 -164.791  0.9426430 -85.278  0.9426430 -85.278  0.0493217 139.430 
 2.400000000  0.0319739  14.493  0.9412143 -167.139  0.9412143 -167.139  0.0537097 120.962 
 2.500000000  0.0187233 -95.116  0.9403376 110.933  0.9403376 110.933  0.0435945  87.162 
 2.600000000  0.0436777 -24.396  0.9385892  28.915  0.9385892  28.915  0.0089358 -176.115 
 2.700000000  0.0647072 -116.794  0.9356754 -52.795  0.9356754 -52.795  0.0631192 141.205 
 2.800000000  0.0147022 -141.573  0.9365243 -134.742  0.9365243 -134.742  0.0570600  73.914 
 2.900000000  0.0521381 -151.046  0.9339835 143.340  0.9339835 143.340  0.0040128 -142.105 
 3.000000000  0.0418679 107.263  0.9332578  61.535  0.9332578  61.535  0.0463654 130.524 
 3.100000000  0.0124272 -50.097  0.9324632 -20.397  0.9324632 -20.397  0.0390847  87.264 
 3.200000000  0.0180471  65.068  0.9315063 -102.321  0.9315063 -102.321  0.0215881  72.442 
 3.300000000  0.0403978 -58.436  0.9296258 175.794  0.9296258 175.794  0.0174446 124.575 
 3.400000000  0.0049782 -143.746  0.9286872  93.888  0.9286872  93.888  0.0333350  80.054 
 3.500000000  0.0674041 -60.828  0.9257697  11.928  0.9257697  11.928  0.0208185 -91.734 
 3.600000000  0.0827482 -139.568  0.9232529 -69.744  0.9232529 -69.744  0.0770576 146.575 
 3.700000000  0.0423957 -169.675  0.9241899 -151.612  0.9241899 -151.612  0.0793545  61.870 
 3.800000000  0.0481003 162.540  0.9232618 126.487  0.9232618 126.487  0.0157031 -23.806 
 3.900000000  0.0088033  53.116  0.9228535  44.619  0.9228535  44.619  0.0324996  81.805 
 4.000000000  0.0256507 -171.820  0.9213776 -37.280  0.9213776 -37.280  0.0189515  34.793 
 4.100000000  0.0186696 -45.565  0.9211411 -119.232  0.9211411 -119.232  0.0414250  42.361 
 4.200000000  0.0733830 -151.588  0.9172923 158.928  0.9172923 158.928  0.0534254 -47.759 
 4.300000000  0.0485349 114.213  0.9182417  77.215  0.9182417  77.215  0.0280544 -175.108 
 4.400000000  0.0310443 -134.928  0.9184174  -4.821  0.9184174  -4.821  0.0317117   5.659 
 4.500000000  0.0527213 118.738  0.9156502 -86.611  0.9156502 -86.611  0.0269788 -111.476 
 4.600000000  0.0257381 -91.094  0.9163728 -168.601  0.9163728 -168.601  0.0203079   4.576 
 4.700000000  0.0801025 132.056  0.9121300 109.523  0.9121300 109.523  0.0569680 -86.381 
 4.800000000  0.0720249   2.033  0.9116353  27.792  0.9116353  27.792  0.0487039 -138.197 
 4.900000000  0.0738807 -148.819  0.9107977 -54.061  0.9107977 -54.061  0.0545499 -156.903 
 5.000000000  0.0490930  84.507  0.9116936 -135.876  0.9116936 -135.876  0.0453376 145.210 
 5.100000000  0.0400324 -145.349  0.9103737 142.099  0.9103737 142.099  0.0183769 -113.023 
 5.200000000  0.0769604  96.132  0.9074367  60.366  0.9074367  60.366  0.0653075 177.358 
 5.300000000  0.0428546 -18.105  0.9090467 -21.458  0.9090467 -21.458  0.0480329 115.293 
 5.400000000  0.0084291 131.679  0.9084850 -103.398  0.9084850 -103.398  0.0217343  99.656 
 5.500000000  0.0346430 -91.184  0.9072236 174.652  0.9072236 174.652  0.0078201 -29.606 
 5.600000000  0.0674355 158.318  0.9046164  92.815  0.9046164  92.815  0.0500341 -173.328 
 5.700000000  0.0395401  79.064  0.9051731  11.055  0.9051731  11.055  0.0615878  96.348 
 5.800000000  0.0347223 110.855  0.9045973 -70.927  0.9045973 -70.927  0.0231800 -27.601 
 5.900000000  0.0392849  52.271  0.9039573 -152.792  0.9039573 -152.792  0.0324807 129.629 
 6.000000000  0.0452881  88.698  0.9019802 125.178  0.9019802 125.178  0.0512427  -2.183 
 6.100000000  0.0964560  14.969  0.8977003  43.449  0.8977003  43.449  0.0650517 -111.768 
 6.200000000  0.0568891 -80.826  0.8991951 -38.291  0.8991951 -38.291  0.0439493 163.510 
 6.300000000  0.0280888  20.252  0.8985805 -120.290  0.8985805 -120.290  0.0032794 -43.311 
 6.400000000  0.0682303 -104.878  0.8957799 157.850  0.8957799 157.850  0.0419948 -123.698 
 6.500000000  0.0793007 128.674  0.8934872  76.125  0.8934872  76.125  0.0739282 -175.108 
 6.600000000  0.0560080  25.590  0.8953044  -5.599  0.8953044  -5.599  0.0678055 116.345 
 6.700000000  0.0306520  64.785  0.8957175 -87.644  0.8957175 -87.644  0.0184149 -26.092 
 6.800000000  0.0772001  -4.573  0.8921568 -169.439  0.8921568 -169.439  0.0585474 -177.071 
 6.900000000  0.0274339 -94.908  0.8938308 108.756  0.8938308 108.756  0.0410321 111.220 
 7.000000000  0.0572505  19.279  0.8917522  26.775  0.8917522  26.775  0.0382206 173.810 
 7.100000000  0.0713281 -54.492  0.8903745 -54.940  0.8903745 -54.940  0.0780395 109.380 
 7.200000000  0.0316229 -79.187  0.8913472 -136.802  0.8913472 -136.802  0.0419900  35.439 
 7.300000000  0.0334199 -77.263  0.8906163 141.296  0.8906163 141.296  0.0212135 122.358 
 7.400000000  0.0257866 -73.049  0.8899568  59.403  0.8899568  59.403  0.0365463  46.685 
 7.500000000  0.0314355 -98.478  0.8887391 -22.442  0.8887391 -22.442  0.0026462  20.182 
 7.600000000  0.0180755 -67.116  0.8884307 -104.342  0.8884307 -104.342  0.0310523  47.688 
 7.700000000  0.0546382 -111.110  0.8863474 173.776  0.8863474 173.776  0.0343748 -55.522 
 7.800000000  0.0496386 156.458  0.8851290  92.012  0.8851290  92.012  0.0347336 -172.911 
 7.900000000  0.0264454  56.594  0.8856206  10.126  0.8856206  10.126  0.0405004  94.992 
 8.000000000  0.0340539  42.098  0.8843857 -71.804  0.8843857 -71.804  0.0446301   9.547 
 8.100000000  0.0709846 -25.817  0.8821128 -153.598  0.8821128 -153.598  0.0413665 -93.745 
 8.200000000  0.0456026 -97.236  0.8826086 124.620  0.8826086 124.620  0.0325184 143.099 
 8.300000000  0.0286754 -41.088  0.8825944  42.676  0.8825944  42.676  0.0217467   4.094 
 8.400000000  0.0455621 -98.195  0.8808511 -39.154  0.8808511 -39.154  0.0187943 -179.033 
 8.500000000  0.0182870 -96.315  0.8810377 -121.053  0.8810377 -121.053  0.0325391  49.668 
 8.600000000  0.0311529 -127.359  0.8793754 157.085  0.8793754 157.085  0.0216440 -36.310 
 8.700000000  0.0111801  26.590  0.8788413  75.200  0.8788413  75.200  0.0139719   2.957 
 8.800000000  0.0242445 -94.172  0.8779036  -6.665  0.8779036  -6.665  0.0194959 -22.111 
 8.900000000  0.0410058  19.506  0.8764524 -88.638  0.8764524 -88.638  0.0481772 -15.562 
 9.000000000  0.1011553 -72.718  0.8718606 -170.376  0.8718606 -170.376  0.0826453 -80.693 
 9.100000000  0.0577137 -161.066  0.8737532 108.006  0.8737532 108.006  0.0470275 -159.501 
 9.200000000  0.0377204 -73.003  0.8745912  25.942  0.8745912  25.942  0.0294025 -29.214 
 9.300000000  0.0608365 177.273  0.8714469 -55.842  0.8714469 -55.842  0.0576384 -97.863 
 9.400000000  0.0583408  11.832  0.8713685 -137.675  0.8713685 -137.675  0.0477032 -117.928 
 9.500000000  0.0653746 -119.736  0.8705226 140.507  0.8705226 140.507  0.0514820 -136.457 
 9.600000000  0.0472254  55.576  0.8701169  58.611  0.8701169  58.611  0.0436775 -136.248 
 9.700000000  0.0782498 -69.874  0.8686284 -23.171  0.8686284 -23.171  0.0611628 -164.950 
 9.800000000  0.0057446  90.047  0.8699511 -105.080  0.8699511 -105.080  0.0138662 170.669 
 9.900000000  0.0988428 -57.184  0.8652940 172.978  0.8652940 172.978  0.0746150 -147.466 
10.000000000  0.0773165 -126.597  0.8660103  91.449  0.8660103  91.449  0.0799592 128.570 
10.100000000  0.0503470 -93.374  0.8670711   9.402  0.8670711   9.402  0.0243484 -37.262 
10.200000000  0.0674985 -137.365  0.8650458 -72.367  0.8650458 -72.367  0.0570658 167.615 
10.300000000  0.0383237 -105.762  0.8660067 -154.303  0.8660067 -154.303  0.0279835  24.886 
10.400000000  0.0788298 -146.954  0.8627707 123.868  0.8627707 123.868  0.0557902 -149.582 
10.500000000  0.0314346 174.065  0.8642626  42.099  0.8642626  42.099  0.0488162  97.701 
10.600000000  0.0448326 -176.304  0.8630577 -39.863  0.8630577 -39.863  0.0304255 -50.969 
10.700000000  0.0380595  45.248  0.8620732 -121.689  0.8620732 -121.689  0.0277441 -131.082 
10.800000000  0.0651219 -87.049  0.8610050 156.454  0.8610050 156.454  0.0379600 -159.020 
10.900000000  0.0099356 -110.824  0.8617056  74.536  0.8617056  74.536  0.0182227  92.879 
11.000000000  0.0963287 -92.132  0.8571548  -7.423  0.8571548  -7.423  0.0584200 -103.061 
11.100000000  0.0755567 -167.626  0.8571865 -88.948  0.8571865 -88.948  0.0673622 162.061 
11.200000000  0.0590911 -93.063  0.8582888 -171.101  0.8582888 -171.101  0.0249291 -46.674 
11.300000000  0.1188191 -163.117  0.8519079 107.274  0.8519079 107.274  0.0908854 -169.179 
11.400000000  0.0372935 147.946  0.8569890  25.573  0.8569890  25.573  0.0600851  88.382 
11.500000000  0.0828014 -175.559  0.8539878 -56.502  0.8539878 -56.502  0.0470381 -110.702 
11.600000000  0.0675732  98.350  0.8532495 -138.070  0.8532495 -138.070  0.0682560 149.248 
11.700000000  0.0229648 -101.084  0.8556190 139.967  0.8556190 139.967  0.0202691  92.622 
11.800000000  0.0297161 117.095  0.8542954  58.087  0.8542954  58.087  0.0231597 137.904 
11.900000000  0.0381256 -83.526  0.8537297 -23.824  0.8537297 -23.824  0.0114119 152.095 
12.000000000  0.0371425 174.651  0.8528233 -105.650  0.8528233 -105.650  0.0297397 124.715 
12.100000000  0.0350293 -84.498  0.8521952 172.418  0.8521952 172.418  0.0043636 -62.118 
12.200000000  0.0738840 -164.166  0.8497007  90.622  0.8497007  90.622  0.0508988 148.743 
12.300000000  0.0337412 162.494  0.8505953   8.806  0.8505953   8.806  0.0509365  44.962 
12.400000000  0.0643844 165.609  0.8482640 -73.118  0.8482640 -73.118  0.0371552 -117.165 
12.500000000  0.0605144  95.947  0.8474056 -154.810  0.8474056 -154.810  0.0589439 118.828 
12.600000000  0.0177615  41.453  0.8487340 123.330  0.8487340 123.330  0.0429058  25.728 
12.700000000  0.0262979  32.668  0.8478541  41.428  0.8478541  41.428  0.0120960 -111.591 
12.800000000  0.0369444 -48.805  0.8468916 -40.431  0.8468916 -40.431  0.0318485 104.291 
12.900000000  0.0317207 -101.483  0.8465447 -122.287  0.8465447 -122.287  0.0432045  29.808 
13.000000000  0.0301215 -110.031  0.8457154 155.834  0.8457154 155.834  0.0139148 -57.382 
13.100000000  0.0480065 -116.088  0.8443052  73.922  0.8443052  73.922  0.0472047  60.171 
13.200000000  0.0702721 -166.046  0.8423381  -7.843  0.8423381  -7.843  0.0760170 -19.071 
13.300000000  0.0344528 126.108  0.8427742 -89.613  0.8427742 -89.613  0.0322622 -86.797 
13.400000000  0.0344720 -159.528  0.8424011 -171.596  0.8424011 -171.596  0.0409002  -3.686 
13.500000000  0.0516306  98.716  0.8402609 106.613  0.8402609 106.613  0.0612052 -52.848 
13.600000000  0.0439013 -52.500  0.8401462  24.792  0.8401462  24.792  0.0488431 -73.356 
13.700000000  0.0368802 155.207  0.8399233 -57.085  0.8399233 -57.085  0.0409234 -76.603 
13.800000000  0.0528364 -32.670  0.8382961 -139.004  0.8382961 -139.004  0.0561644 -66.351 
13.900000000  0.0618580 -151.818  0.8370193 139.238  0.8370193 139.238  0.0633993 -100.739 
14.000000000  0.0445602 -10.952  0.8370340  57.232  0.8370340  57.232  0.0492575 -71.028 
14.100000000  0.1199678 -123.800  0.8303786 -24.466  0.8303786 -24.466  0.1117949 -106.933 
14.200000000  0.0646633 147.283  0.8347478 -105.965  0.8347478 -105.965  0.0670360 -170.451 
14.300000000  0.0670078 -132.109  0.8342671 171.782  0.8342671 171.782  0.0559299 -75.133 
14.400000000  0.1073045 139.363  0.8296525  90.288  0.8296525  90.288  0.1053634 -140.448 
14.500000000  0.0238711  27.183  0.8351584   8.467  0.8351584   8.467  0.0333126 169.870 
14.600000000  0.0668545 132.807  0.8323710 -73.612  0.8323710 -73.612  0.0639948 -110.120 
14.700000000  0.0825970  12.064  0.8307042 -155.265  0.8307042 -155.265  0.0823570 -152.707 
14.800000000  0.0468560 -117.897  0.8328842 122.888  0.8328842 122.888  0.0523403 -178.837 
14.900000000  0.0524884   0.313  0.8318109  40.795  0.8318109  40.795  0.0453370 -126.914 
15.000000000  0.1183259 -106.927  0.8258213 -40.886  0.8258213 -40.886  0.1089306 -163.462 
15.100000000  0.0672758 173.690  0.8299402 -122.417  0.8299402 -122.417  0.0808526 125.971 
15.200000000  0.0600417 -143.813  0.8302533 155.398  0.8302533 155.398  0.0344343 -87.648 
15.300000000  0.0855485 138.188  0.8265260  73.775  0.8265260  73.775  0.0881367 -178.165 
15.400000000  0.0191872 -16.092  0.8304066  -8.072  0.8304066  -8.072  0.0365923 132.350 
15.500000000  0.0537953 159.231  0.8284591 -90.031  0.8284591 -90.031  0.0469714 -177.866 
15.600000000  0.0345940  10.012  0.8286288 -171.844  0.8286288 -171.844  0.0437020 148.473 
15.700000000  0.0493250 -144.125  0.8282663 106.268  0.8282663 106.268  0.0455979 149.891 
15.800000000  0.0135696  76.645  0.8283408  24.432  0.8283408  24.432  0.0346552 106.992 
15.900000000  0.0436637 -124.853  0.8273205 -57.511  0.8273205 -57.511  0.0261526 151.204 
16.000000000  0.0206993 -160.919  0.8274380 -139.365  0.8274380 -139.365  0.0379660  73.794 
16.100000000  0.0576699 -147.853  0.8251038 138.707  0.8251038 138.707  0.0275615 -90.001 
16.200000000  0.0354937 136.798  0.8250656  56.954  0.8250656  56.954  0.0312915 143.973 
16.300000000  0.0528561 -122.528  0.8243962 -25.039  0.8243962 -25.039  0.0168873 -94.844 
16.400000000  0.0774606 169.065  0.8218028 -106.767  0.8218028 -106.767  0.0531405 143.016 
16.500000000  0.0483842 170.860  0.8230517 171.309  0.8230517 171.309  0.0532411   9.677 
16.600000000  0.0870593 135.095  0.8192533  89.527  0.8192533  89.527  0.0586829 -125.695 
16.700000000  0.0351189  61.772  0.8213923   7.827  0.8213923   7.827  0.0311300 112.729 
16.800000000  0.0416252 154.234  0.8209646 -74.202  0.8209646 -74.202  0.0258750 -90.067 
16.900000000  0.0271171  37.182  0.8203293 -156.021  0.8203293 -156.021  0.0156172 -169.599 
17.000000000  0.0653881 -153.672  0.8178929 122.016  0.8178929 122.016  0.0428589 -136.561 
17.100000000  0.0709771 124.912  0.8167321  40.376  0.8167321  40.376  0.0577896 129.775 
17.200000000  0.0265659 156.677  0.8184462 -41.559  0.8184462 -41.559  0.0291563 -19.417 
17.300000000  0.0669319 128.372  0.8158262 -123.430  0.8158262 -123.430  0.0427568 168.941 
17.400000000  0.0429274 109.285  0.8161348 154.740  0.8161348 154.740  0.0467985  21.063 
17.500000000  0.0686331  97.970  0.8139311  72.875  0.8139311  72.875  0.0577800 -115.202 
17.600000000  0.0419240  40.657  0.8142532  -8.861  0.8142532  -8.861  0.0353403 127.446 
17.700000000  0.0197117 145.879  0.8145534 -90.814  0.8145534 -90.814  0.0042807 -87.970 
17.800000000  0.0394870 124.228  0.8133331 -172.723  0.8133331 -172.723  0.0285179  45.474 
17.900000000  0.0680639 111.549  0.8109921 105.377  0.8109921 105.377  0.0601041 -80.917 
18.000000000  0.0791954  84.371  0.8095784  23.576  0.8095784  23.576  0.0567784 138.740 
18.100000000  0.0997425  69.237  0.8068335 -58.263  0.8068335 -58.263  0.0929211 -12.715 
18.200000000  0.1057536  25.123  0.8056131 -139.765  0.8056131 -139.765  0.0985915 -122.688 
18.300000000  0.0498234  15.253  0.8098742 138.305  0.8098742 138.305  0.0357453  79.848 
18.400000000  0.0851162  14.574  0.8062979  56.389  0.8062979  56.389  0.0815112 -84.809 
18.500000000  0.0593313 -29.003  0.8079767 -25.310  0.8079767 -25.310  0.0532976 162.709 
18.600000000  0.0569890 -11.793  0.8075521 -107.312  0.8075521 -107.312  0.0541134 -24.493 
18.700000000  0.0543210 -85.468  0.8065468 170.961  0.8065468 170.961  0.0609066 -108.952 
18.800000000  0.0427204  82.317  0.8073264  88.988  0.8073264  88.988  0.0402128 -97.385 
18.900000000  0.0580283 -31.576  0.8056879   7.195  0.8056879   7.195  0.0555538 -129.763 
19.000000000  0.0278774 109.470  0.8063225 -74.754  0.8063225 -74.754  0.0328939 -104.936 
19.100000000  0.0727141  -5.931  0.8041382 -156.560  0.8041382 -156.560  0.0641907 -131.557 
19.200000000  0.0184133 -178.788  0.8053909 121.490  0.8053909 121.490  0.0275719 -122.247 
19.300000000  0.0941304  23.902  0.8008256  39.606  0.8008256  39.606  0.0854618 -133.960 
19.400000000  0.0534415 -36.054  0.8036059 -42.131  0.8036059 -42.131  0.0434685 134.643 
19.500000000  0.1095558   6.001  0.7976290 -124.410  0.7976290 -124.410  0.0972321 -83.502 
19.600000000  0.1452305 -65.050  0.7925917 154.574  0.7925917 154.574  0.1367525 -168.621 
19.700000000  0.0275580 -97.390  0.8029349  72.644  0.8029349  72.644  0.0254890  94.058 
19.800000000  0.1127558 -64.136  0.7960728  -9.485  0.7960728  -9.485  0.1000709 -140.600 
19.900000000  0.0834558 -141.292  0.7982356 -90.833  0.7982356 -90.833  0.0886697 140.827 
20.000000000  0.0253482 -54.270  0.8017664 -173.014  0.8017664 -173.014  0.0106305 -116.456 
20.100000000  0.0524540 -158.777  0.7990363 105.076  0.7990363 105.076  0.0567130 -171.486 
20.200000000  0.0610633  37.536  0.7982102  23.200  0.7982102  23.200  0.0603257 165.199 
20.300000000  0.0665780 -49.340  0.7984115 -58.589  0.7984115 -58.589  0.0543250 103.736 
20.400000000  0.0616980 -22.792  0.7972503 -140.706  0.7972503 -140.706  0.0403944 -96.030 
20.500000000  0.1247777 -67.032  0.7916258 137.645  0.7916258 137.645  0.1014217 151.663 
20.600000000  0.0873796 -105.204  0.7951743  56.037  0.7951743  56.037  0.0769271  37.938 
20.700000000  0.0837088 -99.310  0.7946844 -26.000  0.7946844 -26.000  0.0559663 -134.682 
20.800000000  0.0876866 -120.789  0.7940570 -107.791  0.7940570 -107.791  0.0747441  75.633 
20.900000000  0.0919779 -132.787  0.7926229 170.336  0.7926229 170.336  0.0808638 -62.552 
21.000000000  0.0759786 -164.898  0.7931978  88.635  0.7931978  88.635  0.0577966 163.743 
21.100000000  0.0500181 -156.548  0.7943420   6.651  0.7943420   6.651  0.0521999  -6.073 
21.200000000  0.0540925 166.405  0.7931778 -75.157  0.7931778 -75.157  0.0497290 -117.992 
21.300000000  0.0159672 -126.296  0.7940563 -157.111  0.7940563 -157.111  0.0142390 -19.232 
21.400000000  0.0508817 177.715  0.7922584 121.001  0.7922584 121.001  0.0499189 -92.139 
21.500000000  0.0249502 -16.084  0.7920470  39.124  0.7920470  39.124  0.0383885 -98.593 
21.600000000  0.0668418 -137.282  0.7902223 -42.717  0.7902223 -42.717  0.0544043 -122.535 
21.700000000  0.0066263  20.682  0.7911048 -124.677  0.7911048 -124.677  0.0301472 -87.903 
21.800000000  0.1060883 -120.098  0.7851064 153.468  0.7851064 153.468  0.1001832 -118.227 
21.900000000  0.0819493 160.005  0.7875532  72.005  0.7875532  72.005  0.0650105 172.571 
22.000000000  0.0557690 -132.219  0.7882240 -10.226  0.7882240 -10.226  0.0572358 -82.472 
22.100000000  0.1080716 150.966  0.7829514 -91.777  0.7829514 -91.777  0.1043961 -152.246 
22.200000000  0.0232848  26.964  0.7885355 -173.603  0.7885355 -173.603  0.0274787 -177.922 
22.300000000  0.0829929 165.972  0.7842028 104.326  0.7842028 104.326  0.0867437 -136.441 
22.400000000  0.0683561  46.996  0.7845847  22.756  0.7845847  22.756  0.0771590 179.651 
22.500000000  0.0619122 -133.808  0.7856785 -59.237  0.7856785 -59.237  0.0571060 -166.991 
22.600000000  0.0539931  87.175  0.7844206 -141.061  0.7844206 -141.061  0.0642859 179.800 
22.700000000  0.0650945 -102.235  0.7836637 137.023  0.7836637 137.023  0.0671367 -176.589 
22.800000000  0.0800021 139.669  0.7828617  55.302  0.7828617  55.302  0.0704445 153.818 
22.900000000  0.0211924 -64.708  0.7843075 -26.678  0.7843075 -26.678  0.0379411 175.385 
23.000000000  0.0891753 158.376  0.7809896 -108.489  0.7809896 -108.489  0.0805168 157.582 
23.100000000  0.0468513  59.646  0.7834778 169.771  0.7834778 169.771  0.0406539 109.996 
23.200000000  0.0569983 162.972  0.7819207  87.692  0.7819207  87.692  0.0556935 175.391 
23.300000000  0.0795604  74.177  0.7803628   6.085  0.7803628   6.085  0.0732743 112.963 
23.400000000  0.0082531  -7.866  0.7831657 -75.858  0.7831657 -75.858  0.0082582  72.879 
