! C:\Users\Focus\Desktop\Focus Traning\LOW FREQUENCY TUNERS\LOAD-PULL CALIBRATION\02-08-2024\focus_TRL\CONB.S2P
! TRL calculation phase shifted with thru length of 1.100000 ps
# GHZ S MA R 50
 1.800000000  0.0634841 176.994  0.9434823 -33.744  0.9434823 -33.744  0.0821936 -107.777 
 1.900000000  0.0536406 167.035  0.9436251 -115.596  0.9436251 -115.596  0.0608484  90.060 
 2.000000000  0.0483550 169.085  0.9417862 162.607  0.9417862 162.607  0.0636582 -76.037 
 2.100000000  0.0559500 -179.156  0.9398615  80.773  0.9398615  80.773  0.0646134 116.888 
 2.200000000  0.0706731 166.214  0.9387676  -0.963  0.9387676  -0.963  0.0784326 -24.841 
 2.300000000  0.0509580 159.659  0.9380582 -82.778  0.9380582 -82.778  0.0447459 -176.410 
 2.400000000  0.0778925 176.073  0.9346520 -164.621  0.9346520 -164.621  0.0849011  -3.795 
 2.500000000  0.0878015 140.447  0.9346527 113.781  0.9346527 113.781  0.0816543 -117.073 
 2.600000000  0.0479481 147.991  0.9342434  31.907  0.9342434  31.907  0.0326473  32.545 
 2.700000000  0.0889272 148.037  0.9318352 -49.859  0.9318352 -49.859  0.0862207 -105.018 
 2.800000000  0.0683895 105.979  0.9329540 -131.578  0.9329540 -131.578  0.0298135 147.908 
 2.900000000  0.0402878 141.585  0.9312294 146.540  0.9312294 146.540  0.0435218 -104.936 
 3.000000000  0.0640799 118.962  0.9300007  64.801  0.9300007  64.801  0.0395007 149.201 
 3.100000000  0.0378625  91.817  0.9299154 -17.035  0.9299154 -17.035  0.0084718 -53.983 
 3.200000000  0.0089191 100.839  0.9275818 -98.879  0.9275818 -98.879  0.0274141  76.580 
 3.300000000  0.0442338 -171.499  0.9247674 179.376  0.9247674 179.376  0.0701727 -47.728 
 3.400000000  0.0650152 133.512  0.9247298  97.727  0.9247298  97.727  0.0531801 -149.608 
 3.500000000  0.0281124 128.316  0.9241249  15.874  0.9241249  15.874  0.0272421 -18.958 
 3.600000000  0.0599319 119.466  0.9227773 -65.878  0.9227773 -65.878  0.0436255 -113.260 
 3.700000000  0.0330483  17.566  0.9218577 -147.746  0.9218577 -147.746  0.0423235 -78.972 
 3.800000000  0.0523662 -163.163  0.9180672 130.634  0.9180672 130.634  0.0801872 -146.092 
 3.900000000  0.0429067 106.980  0.9203867  48.892  0.9203867  48.892  0.0181624 124.315 
 4.000000000  0.0229504 -142.295  0.9183449 -32.963  0.9183449 -32.963  0.0550830 -136.271 
 4.100000000  0.0389313 146.074  0.9178158 -114.649  0.9178158 -114.649  0.0363772 111.817 
 4.200000000  0.0311559 -174.688  0.9165266 163.495  0.9165266 163.495  0.0487153 -81.573 
 4.300000000  0.0546833 126.736  0.9160514  81.806  0.9160514  81.806  0.0383192 -173.138 
 4.400000000  0.0128983 -56.977  0.9147568  -0.092  0.9147568  -0.092  0.0421987 -102.382 
 4.500000000  0.0649319 171.917  0.9126553 -81.734  0.9126553 -81.734  0.0713222 179.952 
 4.600000000  0.0333319  90.268  0.9138468 -163.515  0.9138468 -163.515  0.0062769 140.472 
 4.700000000  0.0335907 -164.561  0.9114832 114.674  0.9114832 114.674  0.0528633 -179.198 
 4.800000000  0.0272044 129.181  0.9118834  32.912  0.9118834  32.912  0.0169963  55.883 
 4.900000000  0.0438585 -154.275  0.9085827 -48.927  0.9085827 -48.927  0.0633559 -153.385 
 5.000000000  0.0671881 147.949  0.9081920 -130.518  0.9081920 -130.518  0.0612397 104.288 
 5.100000000  0.0453605 139.021  0.9086450 147.617  0.9086450 147.617  0.0345730 -66.214 
 5.200000000  0.0740375 107.958  0.9069882  65.875  0.9069882  65.875  0.0489919 -177.211 
 5.300000000  0.0475284  25.507  0.9066024 -15.914  0.9066024 -15.914  0.0372602 153.400 
 5.400000000  0.0197031 -144.370  0.9054229 -97.678  0.9054229 -97.678  0.0445725  98.353 
 5.500000000  0.0163294 110.137  0.9049856 -179.474  0.9049856 -179.474  0.0175774 -44.623 
 5.600000000  0.0147419 152.256  0.9031677  98.764  0.9031677  98.764  0.0256743 151.278 
 5.700000000  0.0191828  38.939  0.9027251  16.936  0.9027251  16.936  0.0155680 -96.538 
 5.800000000  0.0355444 -110.310  0.8995739 -64.803  0.8995739 -64.803  0.0615807 153.894 
 5.900000000  0.0369948 140.793  0.8996611 -146.461  0.8996611 -146.461  0.0381114  66.528 
 6.000000000  0.0370354 -15.198  0.8986051 131.625  0.8986051 131.625  0.0445848 120.391 
 6.100000000  0.0655613 -111.177  0.8944306  49.989  0.8944306  49.989  0.0936561  25.520 
 6.200000000  0.0524942 -176.204  0.8960739 -31.566  0.8960739 -31.566  0.0631145 -84.106 
 6.300000000  0.0070539 -91.038  0.8972886 -113.517  0.8972886 -113.517  0.0314353  40.430 
 6.400000000  0.0687087 -121.582  0.8923682 164.672  0.8923682 164.672  0.0912916 -94.248 
 6.500000000  0.0773493 -171.892  0.8921569  83.195  0.8921569  83.195  0.0810935 142.756 
 6.600000000  0.0455539 -178.361  0.8938964   1.332  0.8938964   1.332  0.0548956 -25.969 
 6.700000000  0.0764263 -176.012  0.8903041 -80.440  0.8903041 -80.440  0.0796936 178.898 
 6.800000000  0.0846436 142.242  0.8904636 -162.008  0.8904636 -162.008  0.0775443  55.011 
 6.900000000  0.0467983  90.618  0.8923963 116.188  0.8923963 116.188  0.0306657 -43.437 
 7.000000000  0.0245466 -114.914  0.8908240  34.270  0.8908240  34.270  0.0472489  -9.586 
 7.100000000  0.0749733 169.614  0.8878306 -47.367  0.8878306 -47.367  0.0777176 -98.903 
 7.200000000  0.0508093 105.474  0.8895941 -129.054  0.8895941 -129.054  0.0279704 166.840 
 7.300000000  0.0251048 176.792  0.8887353 149.072  0.8887353 149.072  0.0362761 -92.308 
 7.400000000  0.0519695 119.114  0.8876239  67.375  0.8876239  67.375  0.0351888 -175.011 
 7.500000000  0.0070474  57.543  0.8877028 -14.465  0.8877028 -14.465  0.0183998 -115.784 
 7.600000000  0.0408799 131.784  0.8861978 -96.226  0.8861978 -96.226  0.0353274 -166.115 
 7.700000000  0.0382472  15.948  0.8851901 -178.044  0.8851901 -178.044  0.0392315 -165.958 
 7.800000000  0.0509750 -126.966  0.8828241 100.263  0.8828241 100.263  0.0700717 137.646 
 7.900000000  0.0494679 127.915  0.8835267  18.607  0.8835267  18.607  0.0429403  69.097 
 8.000000000  0.0286475 -22.323  0.8826084 -63.271  0.8826084 -63.271  0.0415328  95.213 
 8.100000000  0.0534863 -142.376  0.8801959 -144.939  0.8801959 -144.939  0.0741122  19.589 
 8.200000000  0.0417296 141.917  0.8812169 133.391  0.8812169 133.391  0.0375346 -71.087 
 8.300000000  0.0066308 -135.816  0.8806967  51.522  0.8806967  51.522  0.0302806  17.791 
 8.400000000  0.0441060 168.114  0.8792620 -30.204  0.8792620 -30.204  0.0550898 -68.863 
 8.500000000  0.0420013  76.228  0.8790864 -111.953  0.8790864 -111.953  0.0264675 -111.055 
 8.600000000  0.0361012 -48.678  0.8774866 166.229  0.8774866 166.229  0.0472437 -137.365 
 8.700000000  0.0359525 -138.490  0.8763024  84.579  0.8763024  84.579  0.0465943 114.342 
 8.800000000  0.0193895 -176.303  0.8764602   2.823  0.8764602   2.823  0.0328593 -30.294 
 8.900000000  0.0060313 -145.956  0.8759954 -78.965  0.8759954 -78.965  0.0147881 130.174 
 9.000000000  0.0262325 -111.251  0.8745790 -160.756  0.8745790 -160.756  0.0441522 -33.181 
 9.100000000  0.0242025 -164.977  0.8739855 117.548  0.8739855 117.548  0.0278420 -154.116 
 9.200000000  0.0205708 -79.950  0.8729067  35.720  0.8729067  35.720  0.0385081 -25.602 
 9.300000000  0.0478900 -129.578  0.8712009 -45.981  0.8712009 -45.981  0.0538419 -144.267 
 9.400000000  0.0268017 -142.822  0.8714874 -127.732  0.8714874 -127.732  0.0343101  37.183 
 9.500000000  0.0553234 -133.114  0.8689970 150.493  0.8689970 150.493  0.0649431 -111.200 
 9.600000000  0.0512103 -173.359  0.8692172  68.863  0.8692172  68.863  0.0447917 112.767 
 9.700000000  0.0348142 -157.316  0.8687522 -12.956  0.8687522 -12.956  0.0433590 -67.927 
 9.800000000  0.0488909 -164.531  0.8676141 -94.700  0.8676141 -94.700  0.0447301 135.091 
 9.900000000  0.0541511 -176.176  0.8666886 -176.422  0.8666886 -176.422  0.0603991 -18.715 
10.000000000  0.0531356 147.948  0.8665560 101.883  0.8665560 101.883  0.0419437 -133.778 
10.100000000  0.0127174 155.049  0.8667449  20.052  0.8667449  20.052  0.0231371 -25.068 
10.200000000  0.0422495 169.361  0.8650801 -61.678  0.8650801 -61.678  0.0420087 -128.227 
10.300000000  0.0198696  98.970  0.8652289 -143.459  0.8652289 -143.459  0.0064208 -38.784 
10.400000000  0.0289772 -142.153  0.8633809 134.771  0.8633809 134.771  0.0424843 -139.922 
10.500000000  0.0364837 141.880  0.8632986  53.065  0.8632986  53.065  0.0232092 105.355 
10.600000000  0.0091102  23.770  0.8627000 -28.760  0.8627000 -28.760  0.0123666 -140.477 
10.700000000  0.0218293 -114.402  0.8613210 -110.531  0.8613210 -110.531  0.0384156  51.797 
10.800000000  0.0223592 -168.252  0.8606290 167.738  0.8606290 167.738  0.0440741 -60.332 
10.900000000  0.0153591 -31.313  0.8598824  85.875  0.8598824  85.875  0.0251779  30.165 
11.000000000  0.0630354 -111.966  0.8556774   4.147  0.8556774   4.147  0.0932834 -62.136 
11.100000000  0.0422448 166.801  0.8572974 -77.433  0.8572974 -77.433  0.0476269 -143.861 
11.200000000  0.0503021 -68.089  0.8549753 -159.496  0.8549753 -159.496  0.0776626 -67.599 
11.300000000  0.0945755 -151.107  0.8500439 119.130  0.8500439 119.130  0.1114202 -150.761 
11.400000000  0.0215424 116.801  0.8554176  37.373  0.8554176  37.373  0.0060661 172.143 
11.500000000  0.0852641 -116.083  0.8488997 -44.587  0.8488997 -44.587  0.1061285 -151.854 
11.600000000  0.0848166 173.664  0.8494569 -125.849  0.8494569 -125.849  0.0800603 109.198 
11.700000000  0.0229349 -138.429  0.8523680 152.149  0.8523680 152.149  0.0390893 -112.957 
11.800000000  0.0813727 -161.974  0.8478163  70.454  0.8478163  70.454  0.0817214 116.311 
11.900000000  0.0612399 162.245  0.8495011 -11.144  0.8495011 -11.144  0.0637914 -23.769 
12.000000000  0.0449061 166.740  0.8496435 -92.964  0.8496435 -92.964  0.0430735 -178.068 
12.100000000  0.0444070 -177.082  0.8488710 -174.800  0.8488710 -174.800  0.0504672 -21.502 
12.200000000  0.0745860 162.029  0.8461440 103.544  0.8461440 103.544  0.0816558 -140.153 
12.300000000  0.0408199 113.959  0.8482679  21.862  0.8482679  21.862  0.0206415 112.060 
12.400000000  0.0537519 -172.078  0.8460819 -60.089  0.8460819 -60.089  0.0700062 -140.297 
12.500000000  0.0900603 121.524  0.8436205 -141.573  0.8436205 -141.573  0.0819175 132.988 
12.600000000  0.0308654  31.886  0.8466529 136.641  0.8466529 136.641  0.0202726  98.932 
12.700000000  0.0567874 163.793  0.8439875  54.756  0.8439875  54.756  0.0601125 113.026 
12.800000000  0.0780522  74.571  0.8429228 -26.820  0.8429228 -26.820  0.0654890  46.417 
12.900000000  0.0394452 -33.379  0.8437522 -108.570  0.8437522 -108.570  0.0449695   6.743 
13.000000000  0.0306224 147.904  0.8435011 169.639  0.8435011 169.639  0.0384503 -19.020 
13.100000000  0.0465131  34.811  0.8427162  87.875  0.8427162  87.875  0.0426073 -43.023 
13.200000000  0.0386272 -45.482  0.8417255   6.132  0.8417255   6.132  0.0467834 -106.529 
13.300000000  0.0216772 -72.389  0.8418501 -75.629  0.8418501 -75.629  0.0193855 128.269 
13.400000000  0.0215903 -71.383  0.8410046 -157.398  0.8410046 -157.398  0.0301145 -63.099 
13.500000000  0.0269484 -65.684  0.8403456 120.809  0.8403456 120.809  0.0264978 151.924 
13.600000000  0.0353842 -82.674  0.8392261  39.054  0.8392261  39.054  0.0359680 -23.839 
13.700000000  0.0377570 -68.449  0.8383196 -42.757  0.8383196 -42.757  0.0376940 171.234 
13.800000000  0.0750104 -89.365  0.8351736 -124.504  0.8351736 -124.504  0.0721683  15.186 
13.900000000  0.0668409 -127.861  0.8352205 153.944  0.8352205 153.944  0.0682188 -105.612 
14.000000000  0.0542912 -112.537  0.8351828  72.069  0.8351828  72.069  0.0479508  65.289 
14.100000000  0.0788034 -136.791  0.8330477  -9.583  0.8330477  -9.583  0.0830488 -68.703 
14.200000000  0.0417086 -153.470  0.8346949 -91.306  0.8346949 -91.306  0.0302688 154.098 
14.300000000  0.0634688 -123.451  0.8325662 -173.177  0.8325662 -173.177  0.0667581 -58.372 
14.400000000  0.0726222 -152.350  0.8316205 105.191  0.8316205 105.191  0.0684994 179.711 
14.500000000  0.0470766 -154.351  0.8321951  23.390  0.8321951  23.390  0.0346614   3.707 
14.600000000  0.0691943 -130.156  0.8297486 -58.513  0.8297486 -58.513  0.0662659 178.091 
14.700000000  0.1122949 -161.562  0.8255363 -140.055  0.8255363 -140.055  0.1048295  50.988 
14.800000000  0.0723852 147.751  0.8293436 138.421  0.8293436 138.421  0.0612325 -47.809 
14.900000000  0.0571049 -123.233  0.8279695  56.261  0.8279695  56.261  0.0663997  25.488 
15.000000000  0.1298236 -179.906  0.8217318 -25.122  0.8217318 -25.122  0.1292591 -59.153 
15.100000000  0.0773106 130.544  0.8275151 -106.628  0.8275151 -106.628  0.0522395 -156.020 
15.200000000  0.0570434 163.475  0.8273255 171.360  0.8273255 171.360  0.0547113 -33.651 
15.300000000  0.0614600 126.627  0.8273040  89.684  0.8273040  89.684  0.0469856 -125.502 
15.400000000  0.0379810 145.685  0.8267843   7.827  0.8267843   7.827  0.0313008  -7.620 
15.500000000  0.0401009 120.748  0.8264129 -73.963  0.8264129 -73.963  0.0290042 -99.370 
15.600000000  0.0474844 167.106  0.8244979 -155.843  0.8244979 -155.843  0.0508045  15.316 
15.700000000  0.0962882 102.088  0.8213308 122.565  0.8213308 122.565  0.0903873 -48.362 
15.800000000  0.0486081   9.641  0.8233172  40.835  0.8233172  40.835  0.0575521 -75.730 
15.900000000  0.0511153 120.977  0.8220643 -41.048  0.8220643 -41.048  0.0663160 -57.082 
16.000000000  0.0981060  17.654  0.8183714 -122.765  0.8183714 -122.765  0.1019129 -77.657 
16.100000000  0.0531420 -82.667  0.8195468 155.686  0.8195468 155.686  0.0800170 -119.007 
16.200000000  0.0501714  17.969  0.8198879  73.698  0.8198879  73.698  0.0555094 -68.494 
16.300000000  0.0958674 -74.911  0.8141339  -7.915  0.8141339  -7.915  0.1204981 -111.705 
16.400000000  0.0241475 -161.140  0.8184815 -89.481  0.8184815 -89.481  0.0478438 -162.451 
16.500000000  0.0742227 -56.575  0.8154899 -171.511  0.8154899 -171.511  0.0865440 -106.005 
16.600000000  0.0741113 -114.097  0.8144319 106.994  0.8144319 106.994  0.0770719 167.503 
16.700000000  0.0694766 -113.932  0.8143196  25.114  0.8143196  25.114  0.0669862 -23.284 
16.800000000  0.0655880 -166.298  0.8132317 -56.421  0.8132317 -56.421  0.0873025 -119.960 
16.900000000  0.0405544 -57.712  0.8148587 -138.453  0.8148587 -138.453  0.0409905 -65.008 
17.000000000  0.1051384 -134.117  0.8084854 139.957  0.8084854 139.957  0.1215081 -120.551 
17.100000000  0.0293280 -179.377  0.8134694  58.344  0.8134694  58.344  0.0278434 176.519 
17.200000000  0.1015339 -133.087  0.8074744 -23.731  0.8074744 -23.731  0.1211277 -99.252 
17.300000000  0.0992206 147.085  0.8064752 -104.852  0.8064752 -104.852  0.1207595 -166.678 
17.400000000  0.0145812 -40.052  0.8121146 173.238  0.8121146 173.238  0.0368449 -145.813 
17.500000000  0.0562175 168.793  0.8093770  91.401  0.8093770  91.401  0.0856733 -156.294 
17.600000000  0.0299982  23.573  0.8106221   9.707  0.8106221   9.707  0.0520970 -177.130 
17.700000000  0.0280219 -112.626  0.8101735 -72.140  0.8101735 -72.140  0.0400180 -174.834 
17.800000000  0.0359071 -44.450  0.8093493 -154.010  0.8093493 -154.010  0.0480244 -124.699 
17.900000000  0.0702300 -122.666  0.8072110 124.317  0.8072110 124.317  0.0813091 -164.607 
18.000000000  0.0124737  27.344  0.8083486  42.467  0.8083486  42.467  0.0438469 -152.878 
18.100000000  0.0971505 -90.212  0.8033940 -39.300  0.8033940 -39.300  0.1057673 -173.098 
18.200000000  0.0498483 -163.943  0.8064104 -120.874  0.8064104 -120.874  0.0493271 138.947 
18.300000000  0.0869966 -68.874  0.8023222 156.998  0.8023222 156.998  0.1020820 -170.381 
18.400000000  0.1285348 -138.295  0.7982211  75.810  0.7982211  75.810  0.1207548 116.903 
18.500000000  0.0190815 -179.713  0.8053909  -6.029  0.8053909  -6.029  0.0148890 136.536 
18.600000000  0.1045786 -101.009  0.7990628 -88.037  0.7990628 -88.037  0.0984764 104.325 
18.700000000  0.1103603 -139.152  0.7989492 -169.466  0.7989492 -169.466  0.0738513 -29.010 
18.800000000  0.1074663 -146.121  0.7984912 108.759  0.7984912 108.759  0.1051063 172.872 
18.900000000  0.0970167 -169.573  0.7993111  27.198  0.7993111  27.198  0.0749150  52.605 
19.000000000  0.0735448 -155.863  0.8004210 -54.740  0.8004210 -54.740  0.0604976 -160.487 
19.100000000  0.0978411 -174.717  0.7979847 -136.375  0.7979847 -136.375  0.0892932  80.968 
19.200000000  0.0431845 -179.688  0.8010960 141.801  0.8010960 141.801  0.0173442 -86.662 
19.300000000  0.0946879 -154.334  0.7964941  59.909  0.7964941  59.909  0.0885679  85.601 
19.400000000  0.0783972 167.571  0.7981039 -21.600  0.7981039 -21.600  0.0609016 -32.056 
19.500000000  0.0755441 -150.231  0.7968050 -103.730  0.7968050 -103.730  0.0646745 106.384 
19.600000000  0.1302581 166.848  0.7910514 174.922  0.7910514 174.922  0.1136947  -2.425 
19.700000000  0.0468845 122.071  0.7981958  93.256  0.7981958  93.256  0.0361237 -105.841 
19.800000000  0.0938242 -167.807  0.7933624  11.124  0.7933624  11.124  0.0838426  -3.733 
19.900000000  0.1037887 131.767  0.7927134 -70.143  0.7927134 -70.143  0.0901579 -96.608 
20.000000000  0.0218228 175.581  0.7968191 -152.190  0.7968191 -152.190  0.0098718   3.525 
20.100000000  0.1027845 157.189  0.7912325 126.045  0.7912325 126.045  0.0931050 -96.535 
20.200000000  0.0812128 102.063  0.7933524  44.563  0.7933524  44.563  0.0717515 163.628 
20.300000000  0.0165722  81.633  0.7954917 -37.406  0.7954917 -37.406  0.0118672  81.111 
20.400000000  0.0550273 175.572  0.7928662 -119.405  0.7928662 -119.405  0.0550390 100.332 
20.500000000  0.1084039 114.572  0.7881066 159.015  0.7881066 159.015  0.1080909  14.237 
20.600000000  0.0727365  27.363  0.7908400  77.454  0.7908400  77.454  0.0771268 -45.398 
20.700000000  0.0522085 177.387  0.7903561  -4.645  0.7903561  -4.645  0.0733426 -30.202 
20.800000000  0.1197916  60.955  0.7845451 -86.218  0.7845451 -86.218  0.1244379 -61.645 
20.900000000  0.0916549 -50.833  0.7866827 -167.663  0.7866827 -167.663  0.1069137 -100.503 
21.000000000  0.0556865 127.792  0.7888241 110.427  0.7888241 110.427  0.0788449 -104.629 
21.100000000  0.1032982 -10.069  0.7852223  28.646  0.7852223  28.646  0.1077226 -115.770 
21.200000000  0.0654661 -122.516  0.7870575 -52.869  0.7870575 -52.869  0.0845407 -155.514 
21.300000000  0.0525030  30.934  0.7884033 -134.871  0.7884033 -134.871  0.0545562 -138.171 
21.400000000  0.0813851 -65.051  0.7854795 143.457  0.7854795 143.457  0.0789131 178.780 
21.500000000  0.0329640 -87.651  0.7877603  61.648  0.7877603  61.648  0.0197269  53.963 
21.600000000  0.0515254 -80.715  0.7861755 -20.221  0.7861755 -20.221  0.0509829 -125.507 
21.700000000  0.0505448 -67.216  0.7853967 -102.121  0.7853967 -102.121  0.0255752  31.900 
21.800000000  0.0923479 -105.500  0.7809864 176.179  0.7809864 176.179  0.0966689 -82.239 
21.900000000  0.0127336 -174.006  0.7840220  94.467  0.7840220  94.467  0.0443273 -132.333 
22.000000000  0.1255039 -77.954  0.7757396  12.333  0.7757396  12.333  0.1241472 -87.576 
22.100000000  0.1209093 -160.510  0.7741106 -68.505  0.7741106 -68.505  0.1450520 -150.183 
22.200000000  0.0467813 -17.410  0.7816159 -150.659  0.7816159 -150.659  0.0632163 -137.389 
22.300000000  0.1384142 -120.620  0.7723863 127.730  0.7723863 127.730  0.1460762 -162.802 
22.400000000  0.0475169 154.422  0.7801676  46.382  0.7801676  46.382  0.0717173 142.785 
22.500000000  0.0906944 -92.113  0.7782148 -35.881  0.7782148 -35.881  0.0861714 -165.309 
22.600000000  0.0864159 -154.857  0.7773680 -117.258  0.7773680 -117.258  0.0835704 115.975 
22.700000000  0.0469667 -123.114  0.7801672 160.738  0.7801672 160.738  0.0328757 -101.964 
22.800000000  0.0634578 -141.502  0.7784559  78.981  0.7784559  78.981  0.0534259 144.310 
22.900000000  0.0684606 -129.933  0.7776670  -2.901  0.7776670  -2.901  0.0509794 -65.723 
23.000000000  0.0641444 -172.074  0.7764455 -84.509  0.7764455 -84.509  0.0757338 -159.830 
23.100000000  0.0521189 -92.723  0.7771019 -166.520  0.7771019 -166.520  0.0402623 -103.988 
23.200000000  0.1077493 -155.993  0.7717248 111.916  0.7717248 111.916  0.1117779 -156.941 
23.300000000  0.0091575  82.636  0.7762048  30.224  0.7762048  30.224  0.0531532 173.010 
23.400000000  0.1102575 -120.368  0.7711500 -51.719  0.7711500 -51.719  0.1079172 -169.054 
