! fixture-S
# HZ S MA R 50
1800000000.000000 0.053744 -126.424455 0.949053 143.849392 0.949053 143.849392 0.026731 153.698973 
1900000000.000000 0.042094 76.354649 0.947427 61.984472 0.947427 61.984472 0.034147 142.512640 
2000000000.000000 0.043670 -85.387505 0.947019 -19.989533 0.947019 -19.989533 0.027651 135.916701 
2100000000.000000 0.040361 100.681151 0.945190 -101.907968 0.945190 -101.907968 0.028031 153.717370 
2200000000.000000 0.056873 -38.320016 0.943386 176.196271 0.943386 176.196271 0.041321 153.833165 
2300000000.000000 0.042608 -164.790989 0.942643 94.266659 0.942643 94.266659 0.049322 138.519695 
2400000000.000000 0.031974 14.492757 0.941214 12.385872 0.941214 12.385872 0.053710 120.011898 
2500000000.000000 0.018723 -95.116072 0.940338 -69.562271 0.940338 -69.562271 0.043594 86.172041 
2600000000.000000 0.043678 -24.395817 0.938589 -151.600056 0.938589 -151.600056 0.008936 -177.144151 
2700000000.000000 0.064707 -116.794177 0.935675 126.670454 0.935675 126.670454 0.063119 140.136003 
2800000000.000000 0.014702 -141.572909 0.936524 44.704017 0.936524 44.704017 0.057060 72.805018 
2900000000.000000 0.052138 -151.046139 0.933983 -37.234057 0.933983 -37.234057 0.004013 -143.253287 
3000000000.000000 0.041868 107.263108 0.933258 -119.059456 0.933258 -119.059456 0.046365 129.336032 
3100000000.000000 0.012427 -50.097069 0.932463 158.989214 0.932463 158.989214 0.039085 86.036200 
3200000000.000000 0.018047 65.067706 0.931506 77.045758 0.931506 77.045758 0.021588 71.174572 
3300000000.000000 0.040398 -58.435517 0.929626 -4.859814 0.929626 -4.859814 0.017445 123.267943 
3400000000.000000 0.004978 -143.745845 0.928687 -86.784925 0.928687 -86.784925 0.033335 78.707915 
3500000000.000000 0.067404 -60.828410 0.925770 -168.765244 0.925770 -168.765244 0.020818 -93.119603 
3600000000.000000 0.082748 -139.567675 0.923253 109.542914 0.923253 109.542914 0.077058 145.148916 
3700000000.000000 0.042396 -169.674800 0.924190 27.655347 0.924190 27.655347 0.079355 60.404848 
3800000000.000000 0.048100 162.539511 0.923262 -54.265691 0.923262 -54.265691 0.015703 -25.310602 
3900000000.000000 0.008803 53.115653 0.922853 -136.153247 0.922853 -136.153247 0.032500 80.260831 
4000000000.000000 0.025651 -171.820440 0.921378 141.927634 0.921378 141.927634 0.018951 33.209283 
4100000000.000000 0.018670 -45.564737 0.921141 59.955849 0.921141 59.955849 0.041425 40.737532 
4200000000.000000 0.073383 -151.588486 0.917292 -21.903343 0.917292 -21.903343 0.053425 -49.421901 
4300000000.000000 0.048535 114.212670 0.918242 -103.636869 0.918242 -103.636869 0.028054 -176.811183 
4400000000.000000 0.031044 -134.927778 0.918417 174.308265 0.918417 174.308265 0.031712 3.916768 
4500000000.000000 0.052721 118.738463 0.915650 92.497805 0.915650 92.497805 0.026979 -113.257678 
4600000000.000000 0.025738 -91.094250 0.916373 10.487776 0.916373 10.487776 0.020308 2.754302 
4700000000.000000 0.080102 132.055829 0.912130 -71.407390 0.912130 -71.407390 0.056968 -88.242641 
4800000000.000000 0.072025 2.032648 0.911635 -153.158161 0.911635 -153.158161 0.048704 -140.097750 
4900000000.000000 0.073881 -148.819293 0.910798 124.968596 0.910798 124.968596 0.054550 -158.843278 
5000000000.000000 0.049093 84.507313 0.911694 43.134167 0.911694 43.134167 0.045338 143.230196 
5100000000.000000 0.040032 -145.349226 0.910374 -38.911142 0.910374 -38.911142 0.018377 -115.043023 
5200000000.000000 0.076960 96.132194 0.907437 -120.664012 0.907437 -120.664012 0.065308 175.298848 
5300000000.000000 0.042855 -18.104722 0.909047 157.492477 0.909047 157.492477 0.048033 113.194456 
5400000000.000000 0.008429 131.679485 0.908485 75.532610 0.908485 75.532610 0.021734 97.517748 
5500000000.000000 0.034643 -91.183797 0.907224 -6.437457 0.907224 -6.437457 0.007820 -31.784412 
5600000000.000000 0.067435 158.317893 0.904616 -88.293979 0.904616 -88.293979 0.050034 -175.545881 
5700000000.000000 0.039540 79.064038 0.905173 -170.073771 0.905173 -170.073771 0.061588 94.091146 
5800000000.000000 0.034722 110.855146 0.904597 107.924873 0.904597 107.924873 0.023180 -29.897856 
5900000000.000000 0.039285 52.270559 0.903957 26.039478 0.903957 26.039478 0.032481 127.292394 
6000000000.000000 0.045288 88.697799 0.901980 -56.010230 0.901980 -56.010230 0.051243 -4.558990 
6100000000.000000 0.096456 14.968780 0.897700 -137.759094 0.897700 -137.759094 0.065052 -114.183591 
6200000000.000000 0.056889 -80.825712 0.899195 140.481091 0.899195 140.481091 0.043949 161.055076 
6300000000.000000 0.028089 20.251745 0.898580 58.462618 0.898580 58.462618 0.003279 -45.805927 
6400000000.000000 0.068230 -104.878295 0.895780 -23.416766 0.895780 -23.416766 0.041995 -126.232405 
6500000000.000000 0.079301 128.674009 0.893487 -105.161864 0.893487 -105.161864 0.073928 -177.682126 
6600000000.000000 0.056008 25.590360 0.895304 173.094567 0.895304 173.094567 0.067806 113.731293 
6700000000.000000 0.030652 64.784920 0.895718 91.029042 0.895718 91.029042 0.018415 -28.745008 
6800000000.000000 0.077200 -4.573422 0.892157 9.214560 0.892157 9.214560 0.058547 -179.763600 
6900000000.000000 0.027434 -94.907552 0.893831 -72.609790 0.893831 -72.609790 0.041032 108.487764 
7000000000.000000 0.057251 19.279440 0.891752 -154.610756 0.891752 -154.610756 0.038221 171.038496 
7100000000.000000 0.071328 -54.491887 0.890375 123.653865 0.890375 123.653865 0.078039 106.568683 
7200000000.000000 0.031623 -79.186863 0.891347 41.772764 0.891347 41.772764 0.041990 32.588197 
7300000000.000000 0.033420 -77.263491 0.890616 -40.149176 0.890616 -40.149176 0.021213 119.467628 
7400000000.000000 0.025787 -73.048820 0.889957 -122.062286 0.889957 -122.062286 0.036546 43.754349 
7500000000.000000 0.031436 -98.477721 0.888739 156.073070 0.888739 156.073070 0.002646 17.211845 
7600000000.000000 0.018075 -67.116267 0.888431 74.153587 0.888431 74.153587 0.031052 44.678857 
7700000000.000000 0.054638 -111.110047 0.886347 -7.748611 0.886347 -7.748611 0.034375 -58.570970 
7800000000.000000 0.049639 156.457893 0.885129 -89.532454 0.885129 -89.532454 0.034734 -176.000123 
7900000000.000000 0.026445 56.593797 0.885621 -171.438230 0.885621 -171.438230 0.040500 91.863825 
8000000000.000000 0.034054 42.097515 0.884386 106.612443 0.884386 106.612443 0.044630 6.378531 
8100000000.000000 0.070985 -25.816992 0.882113 24.797995 0.882113 24.797995 0.041367 -96.952937 
8199999999.999999 0.045603 -97.236400 0.882609 -57.003129 0.882609 -57.003129 0.032518 139.851701 
8300000000.000001 0.028675 -41.087573 0.882594 -138.967002 0.882594 -138.967002 0.021747 0.806776 
8400000000.000000 0.045562 -98.195235 0.880851 139.182750 0.880851 139.182750 0.018794 177.640102 
8500000000.000000 0.018287 -96.315114 0.881038 57.264348 0.881038 57.264348 0.032539 46.301972 
8600000000.000000 0.031153 -127.359171 0.879375 -24.617437 0.879375 -24.617437 0.021644 -39.715225 
8700000000.000000 0.011180 26.589957 0.878841 -106.522970 0.878841 -106.522970 0.013972 -0.488278 
8800000000.000000 0.024245 -94.171796 0.877904 171.592651 0.877904 171.592651 0.019496 -25.595493 
8900000000.000000 0.041006 19.505643 0.876452 89.599799 0.876452 89.599799 0.048177 -19.086639 
9000000000.000000 0.101155 -72.718329 0.871861 7.842398 0.871861 7.842398 0.082645 -84.257001 
9100000000.000000 0.057714 -161.065522 0.873753 -73.795473 0.873753 -73.795473 0.047027 -163.104928 
9200000000.000000 0.037720 -73.002930 0.874591 -155.879394 0.874591 -155.879394 0.029403 -32.857203 
9300000000.000000 0.060836 177.273077 0.871447 122.316371 0.871447 122.316371 0.057638 -101.545427 
9400000000.000000 0.058341 11.832134 0.871368 40.463441 0.871368 40.463441 0.047703 -121.650706 
9500000000.000000 0.065375 -119.736496 0.870523 -41.374100 0.870523 -41.374100 0.051482 -140.219478 
9600000000.000000 0.047225 55.575701 0.870117 -123.290288 0.870117 -123.290288 0.043677 -140.049972 
9700000000.000000 0.078250 -69.874294 0.868628 154.908799 0.868628 154.908799 0.061163 -168.791018 
9800000000.000000 0.005745 90.047095 0.869951 72.980063 0.869951 72.980063 0.013866 166.787895 
9900000000.000000 0.098843 -57.183926 0.865294 -8.982629 0.865294 -8.982629 0.074615 -151.386683 
10000000000.000000 0.077317 -126.596604 0.866010 -90.530795 0.866010 -90.530795 0.079959 124.609969 
10100000000.000000 0.050347 -93.374034 0.867071 -172.597582 0.867071 -172.597582 0.024348 -41.261782 
10200000000.000000 0.067499 -137.364872 0.865046 105.613500 0.865046 105.613500 0.057066 163.575662 
10300000000.000000 0.038324 -105.761614 0.866007 23.657832 0.866007 23.657832 0.027983 20.806700 
10400000000.000000 0.078830 -146.954129 0.862771 -58.191655 0.862771 -58.191655 0.055790 -153.700360 
10500000000.000000 0.031435 174.064637 0.864263 -139.979904 0.864263 -139.979904 0.048816 93.542823 
10600000000.000000 0.044833 -176.304144 0.863058 138.038109 0.863058 138.038109 0.030425 -55.166437 
10700000000.000000 0.038059 45.248326 0.862073 56.192150 0.862073 56.192150 0.027744 -135.319125 
10800000000.000000 0.065122 -87.049235 0.861005 -25.684154 0.861005 -25.684154 0.037960 -163.296740 
10900000000.000000 0.009936 -110.823859 0.861706 -107.621822 0.861706 -107.621822 0.018223 88.562155 
11000000000.000000 0.096329 -92.131775 0.857155 170.399421 0.857155 170.399421 0.058420 -107.416665 
11100000000.000000 0.075557 -167.626127 0.857187 88.854426 0.857187 88.854426 0.067362 157.665570 
11200000000.000000 0.059091 -93.062944 0.858289 6.681558 0.858289 6.681558 0.024929 -51.108878 
11300000000.000000 0.118819 -163.116940 0.851908 -74.963583 0.851908 -74.963583 0.090885 -173.653523 
11400000000.000000 0.037293 147.946034 0.856989 -156.683753 0.856989 -156.683753 0.060085 83.867430 
11500000000.000000 0.082801 -175.559363 0.853988 121.221166 0.853988 121.221166 0.047038 -115.256412 
11600000000.000000 0.067573 98.349719 0.853249 39.633070 0.853249 39.633070 0.068256 144.654007 
11700000000.000000 0.022965 -101.083887 0.855619 -42.349587 0.855619 -42.349587 0.020269 87.989082 
11800000000.000000 0.029716 117.095251 0.854295 -124.249672 0.854295 -124.249672 0.023160 133.231300 
11900000000.000000 0.038126 -83.525923 0.853730 153.819670 0.853730 153.819670 0.011412 147.382182 
12000000000.000000 0.037142 174.651173 0.852823 71.974349 0.852823 71.974349 0.029740 119.963348 
12100000000.000000 0.035029 -84.498351 0.852195 -9.978136 0.852195 -9.978136 0.004364 -66.910023 
12200000000.000000 0.073884 -164.165503 0.849701 -91.794071 0.849701 -91.794071 0.050899 143.911338 
12300000000.000000 0.033741 162.493625 0.850595 -173.629410 0.850595 -173.629410 0.050937 40.091150 
12400000000.000000 0.064384 165.608840 0.848264 104.427095 0.848264 104.427095 0.037155 -122.075609 
12500000000.000000 0.060514 95.947114 0.847406 22.715432 0.847406 22.715432 0.058944 113.877816 
12600000000.000000 0.017761 41.453415 0.848734 -59.165079 0.848734 -59.165079 0.042906 20.738890 
12700000000.000000 0.026298 32.668466 0.847854 -141.086525 0.847854 -141.086525 0.012096 -116.619973 
12800000000.000000 0.036944 -48.805143 0.846892 137.034493 0.846892 137.034493 0.031848 99.222545 
12900000000.000000 0.031721 -101.483382 0.846545 55.158399 0.846545 55.158399 0.043205 24.699149 
13000000000.000000 0.030122 -110.030619 0.845715 -26.739712 0.845715 -26.739712 0.013915 -62.529992 
13100000000.000000 0.048007 -116.087569 0.844305 -108.671961 0.844305 -108.671961 0.047205 54.983751 
13200000000.000000 0.070272 -166.045729 0.842338 169.543487 0.842338 169.543487 0.076017 -24.298082 
13300000000.000000 0.034453 126.108258 0.842774 87.753204 0.842774 87.753204 0.032262 -92.063599 
13400000000.000000 0.034472 -159.527729 0.842401 5.751030 0.842401 5.751030 0.040900 -8.991906 
13500000000.000000 0.051631 98.715830 0.840261 -76.060274 0.840261 -76.060274 0.061205 -58.194339 
13600000000.000000 0.043901 -52.499845 0.840146 -157.900627 0.840146 -157.900627 0.048843 -78.741941 
13700000000.000000 0.036880 155.207051 0.839923 120.202515 0.839923 120.202515 0.040923 -82.027806 
13800000000.000000 0.052836 -32.670496 0.838296 38.263931 0.838296 38.263931 0.056164 -71.815675 
13900000000.000000 0.061858 -151.817704 0.837019 -43.513713 0.837019 -43.513713 0.063399 -106.243396 
14000000000.000000 0.044560 -10.952184 0.837034 -125.540457 0.837034 -125.540457 0.049257 -76.572297 
14100000000.000000 0.119968 -123.799775 0.830379 152.742223 0.830379 152.742223 0.111795 -112.516490 
14200000000.000000 0.064663 147.282787 0.834748 71.223482 0.834748 71.223482 0.067036 -176.074272 
14300000000.000000 0.067008 -132.109281 0.834267 -11.049533 0.834267 -11.049533 0.055930 -80.795779 
14400000000.000000 0.107305 139.362708 0.829653 -92.562873 0.829653 -92.562873 0.105363 -146.150037 
14500000000.000000 0.023871 27.183427 0.835158 -174.403727 0.835158 -174.403727 0.033313 164.128023 
14600000000.000000 0.066855 132.807195 0.832371 103.497569 0.832371 103.497569 0.063995 -115.901120 
14700000000.000000 0.082597 12.063563 0.830704 21.824822 0.830704 21.824822 0.082357 -158.528262 
14800000000.000000 0.046856 -117.897258 0.832884 -60.042454 0.832884 -60.042454 0.052340 175.302054 
14900000000.000000 0.052488 0.313264 0.831811 -142.154715 0.831811 -142.154715 0.045337 -132.814800 
15000000000.000000 0.118326 -106.926853 0.825821 136.143591 0.825821 136.143591 0.108931 -169.401912 
15100000000.000000 0.067276 173.689525 0.829940 54.592825 0.829940 54.592825 0.080853 119.991179 
15200000000.000000 0.060042 -143.813358 0.830253 -27.611366 0.830253 -27.611366 0.034434 -93.667495 
15300000000.000000 0.085548 138.187601 0.826526 -109.254474 0.826526 -109.254474 0.088137 175.775984 
15400000000.000000 0.019187 -16.092313 0.830407 168.878500 0.830407 168.878500 0.036592 126.251493 
15500000000.000000 0.053795 159.230806 0.828459 86.899631 0.828459 86.899631 0.046971 175.996165 
15600000000.000000 0.034594 10.012171 0.828629 5.067087 0.828629 5.067087 0.043702 142.295756 
15700000000.000000 0.049325 -144.124866 0.828266 -76.840500 0.828266 -76.840500 0.045598 143.673718 
15800000000.000000 0.013570 76.644975 0.828341 -158.696260 0.828341 -158.696260 0.034655 100.735662 
15900000000.000000 0.043664 -124.852928 0.827321 119.340566 0.827321 119.340566 0.026153 144.907327 
16000000000.000000 0.020699 -160.918591 0.827438 37.467372 0.827438 37.467372 0.037966 67.458091 
16100000000.000002 0.057670 -147.853255 0.825104 -44.480433 0.825104 -44.480433 0.027561 -96.376725 
16200000000.000000 0.035494 136.798361 0.825066 -126.253664 0.825066 -126.253664 0.031292 137.557364 
16300000000.000000 0.052856 -122.527630 0.824396 151.733150 0.824396 151.733150 0.016887 -101.298624 
16399999999.999998 0.077461 169.065300 0.821803 69.986263 0.821803 69.986263 0.053140 136.521915 
16500000000.000000 0.048384 170.859709 0.823052 -11.957729 0.823052 -11.957729 0.053241 3.142910 
16600000000.000002 0.087059 135.094973 0.819253 -93.760013 0.819253 -93.760013 0.058683 -132.268720 
16700000000.000000 0.035119 61.772258 0.821392 -175.480067 0.821392 -175.480067 0.031130 106.115932 
16800000000.000000 0.041625 154.233860 0.820965 102.471481 0.820965 102.471481 0.025875 -96.719900 
16899999999.999998 0.027117 37.182199 0.820329 20.632342 0.820329 20.632342 0.015617 -176.291844 
17000000000.000000 0.065388 -153.671818 0.817893 -61.349894 0.817893 -61.349894 0.042859 -143.292623 
17100000000.000002 0.070977 124.912192 0.816732 -143.009760 0.816732 -143.009760 0.057790 123.003619 
17200000000.000000 0.026566 156.676516 0.818446 135.035887 0.818446 135.035887 0.029156 -26.228032 
17300000000.000000 0.066932 128.372116 0.815826 53.145013 0.815826 53.145013 0.042757 162.089714 
17400000000.000000 0.042927 109.284699 0.816135 -28.705340 0.816135 -28.705340 0.046798 14.172504 
17500000000.000000 0.068633 97.969506 0.813931 -110.589885 0.813931 -110.589885 0.057780 -122.132352 
17600000000.000000 0.041924 40.657245 0.814253 167.653895 0.814253 167.653895 0.035340 120.476298 
17700000000.000000 0.019712 145.878778 0.814553 85.680963 0.814553 85.680963 0.004281 -94.979666 
17800000000.000000 0.039487 124.227669 0.813333 3.753056 0.813333 3.753056 0.028518 38.425579 
17900000000.000000 0.068064 111.548872 0.810992 -78.167028 0.810992 -78.167028 0.060104 -88.005521 
18000000000.000000 0.079195 84.370883 0.809578 -159.988392 0.809578 -159.988392 0.056778 131.612269 
18100000000.000000 0.099743 69.236589 0.806833 118.152983 0.806833 118.152983 0.092921 -19.882290 
18200000000.000000 0.105754 25.122587 0.805613 36.631477 0.805613 36.631477 0.098591 -129.895150 
18300000000.000000 0.049823 15.252516 0.809874 -45.318120 0.809874 -45.318120 0.035745 72.601402 
18400000000.000000 0.085116 14.573764 0.806298 -127.254474 0.806298 -127.254474 0.081511 -92.094993 
18500000000.000000 0.059331 -29.003323 0.807977 151.027332 0.807977 151.027332 0.053298 155.382756 
18600000000.000000 0.056989 -11.792858 0.807552 69.005442 0.807552 69.005442 0.054113 -31.858182 
18700000000.000000 0.054321 -85.468073 0.806547 -12.741461 0.806547 -12.741461 0.060907 -116.357500 
18800000000.000000 0.042720 82.316599 0.807326 -94.734219 0.807326 -94.734219 0.040213 -104.830206 
18900000000.000000 0.058028 -31.576123 0.805688 -176.547222 0.805688 -176.547222 0.055554 -137.247447 
19000000000.000000 0.027877 109.470330 0.806322 101.484018 0.806322 101.484018 0.032894 -112.460189 
19100000000.000000 0.072714 -5.931065 0.804138 19.658282 0.804138 19.658282 0.064191 -139.120741 
19200000000.000000 0.018413 -178.787822 0.805391 -62.311755 0.805391 -62.311755 0.027572 -129.849846 
19300000000.000000 0.094130 23.902354 0.800826 -144.215154 0.800826 -144.215154 0.085462 -141.603032 
19400000000.000000 0.053441 -36.054383 0.803606 134.027776 0.803606 134.027776 0.043469 126.960116 
19500000000.000000 0.109556 6.001322 0.797629 51.728635 0.797629 51.728635 0.097232 -91.224497 
19600000000.000000 0.145230 -65.049857 0.792592 -29.307136 0.792592 -29.307136 0.136753 -176.382763 
19700000000.000000 0.027558 -97.390178 0.802935 -111.256802 0.802935 -111.256802 0.025489 86.257175 
19800000000.000000 0.112756 -64.135755 0.796073 166.594883 0.796073 166.594883 0.100071 -148.441207 
19900000000.000000 0.083456 -141.291905 0.798236 85.226970 0.798236 85.226970 0.088670 132.946566 
20000000000.000000 0.025348 -54.269660 0.801766 3.026236 0.801766 3.026236 0.010631 -124.376483 
20100000000.000000 0.052454 -158.776714 0.799036 -78.903746 0.799036 -78.903746 0.056713 -179.445190 
20200000000.000000 0.061063 37.536010 0.798210 -160.799179 0.798210 -160.799179 0.060326 157.200080 
20300000000.000000 0.066578 -49.339859 0.798411 117.391122 0.798411 117.391122 0.054325 95.696824 
20400000000.000000 0.061698 -22.792128 0.797250 35.254330 0.797250 35.254330 0.040394 -104.108741 
20500000000.000000 0.124778 -67.032208 0.791626 -46.414432 0.791626 -46.414432 0.101422 143.544564 
20600000000.000000 0.087380 -105.204085 0.795174 -128.042290 0.795174 -128.042290 0.076927 29.779985 
20700000000.000000 0.083709 -99.310111 0.794684 149.901617 0.794684 149.901617 0.055966 -142.879521 
20800000000.000000 0.087687 -120.788759 0.794057 68.090900 0.794057 68.090900 0.074744 67.396448 
20900000000.000000 0.091978 -132.787066 0.792623 -13.801830 0.792623 -13.801830 0.080864 -70.828648 
21000000000.000000 0.075979 -164.898428 0.793198 -95.522829 0.793198 -95.522829 0.057797 155.427131 
21100000000.000000 0.050018 -156.548004 0.794342 -177.526601 0.794342 -177.526601 0.052200 -14.429028 
21200000000.000000 0.054092 166.405018 0.793178 100.645360 0.793178 100.645360 0.049729 -126.387425 
21300000000.000000 0.015967 -126.296083 0.794056 18.671872 0.794056 18.671872 0.014239 -27.666370 
21400000000.000000 0.050882 177.715228 0.792258 -63.236347 0.792258 -63.236347 0.049919 -100.613381 
21500000000.000000 0.024950 -16.083507 0.792047 -145.133419 0.792047 -145.133419 0.038388 -107.107397 
21600000000.000000 0.066842 -137.281705 0.790222 133.006290 0.790222 133.006290 0.054404 -131.088309 
21700000000.000000 0.006626 20.682111 0.791105 51.026274 0.791105 51.026274 0.030147 -96.496120 
