! C:\Users\Focus\Desktop\Focus Traning\LOW FREQUENCY TUNERS\LOAD-PULL CALIBRATION\02-08-2024\focus_TRL\src_short.S1P
! measured on: 08/02/24 14:52:59
# GHZ S MA R 50
 1.800000000  0.8925975 110.184 
 1.900000000  0.8946612 -54.872 
 2.000000000  0.8848435 141.319 
 2.100000000  0.8944157 -21.962 
 2.200000000  0.8759531 173.660 
 2.300000000  0.8807013   6.699 
 2.400000000  0.8784551 -157.160 
 2.500000000  0.8686423  38.026 
 2.600000000  0.8841202 -119.826 
 2.700000000  0.8560094  72.124 
 2.800000000  0.8719415 -93.804 
 2.900000000  0.8656670 109.649 
 3.000000000  0.8569146 -58.947 
 3.100000000  0.8549689 136.491 
 3.200000000  0.8619186 -25.209 
 3.300000000  0.8469142 172.178 
 3.400000000  0.8529266   5.097 
 3.500000000  0.8550331 -151.110 
 3.600000000  0.8272652  36.861 
 3.700000000  0.8530489 -129.648 
 3.800000000  0.8421578  75.909 
 3.900000000  0.8400183 -92.990 
 4.000000000  0.8391403 105.850 
 4.100000000  0.8411707 -60.424 
 4.200000000  0.8414195 143.971 
 4.300000000  0.8310897 -24.107 
 4.400000000  0.8360579 171.155 
 4.500000000  0.8296375  10.793 
 4.600000000  0.8340091 -156.487 
 4.700000000  0.8319791  46.960 
 4.800000000  0.8233458 -119.307 
 4.900000000  0.8198708  75.630 
 5.000000000  0.8143206 -94.158 
 5.100000000  0.8225522 106.861 
 5.200000000  0.8117649 -58.285 
 5.300000000  0.8057628 132.122 
 5.400000000  0.8210505 -28.814 
 5.500000000  0.8133234 170.942 
 5.600000000  0.8029860   7.054 
 5.700000000  0.8057813 -164.950 
 5.800000000  0.8140779  40.031 
 5.900000000  0.7958268 -128.211 
 6.000000000  0.8179493  70.424 
 6.100000000  0.8056410 -84.111 
 6.200000000  0.7881572 101.598 
 6.300000000  0.8109522 -59.677 
 6.400000000  0.7922465 140.861 
 6.500000000  0.7903868 -26.467 
 6.600000000  0.7836798 161.231 
 6.700000000  0.8057865   5.836 
 6.800000000  0.7770366 -157.677 
 6.900000000  0.7939133  32.447 
 7.000000000  0.7801468 -125.775 
 7.100000000  0.7792855  59.850 
 7.200000000  0.7990527 -95.575 
 7.300000000  0.7695439 100.072 
 7.400000000  0.7984276 -64.312 
 7.500000000  0.7700610 135.543 
 7.600000000  0.7884008 -32.103 
 7.700000000  0.7822757 171.728 
 7.800000000  0.7687826   4.464 
 7.900000000  0.7672465 -164.764 
 8.000000000  0.7846979  34.904 
 8.100000000  0.7724314 -121.155 
 8.200000000  0.7574069  65.560 
 8.300000000  0.7806902 -94.515 
 8.400000000  0.7493000 101.234 
 8.500000000  0.7768779 -65.724 
 8.600000000  0.7577345 135.679 
 8.700000000  0.7699988 -30.520 
 8.800000000  0.7553619 167.258 
 8.900000000  0.7750137   2.753 
 9.000000000  0.7664878 -150.218 
 9.100000000  0.7457954  36.498 
 9.200000000  0.7695427 -126.642 
 9.300000000  0.7515090  74.326 
 9.400000000  0.7644983 -90.432 
 9.500000000  0.7417281 104.652 
 9.600000000  0.7631502 -59.661 
 9.700000000  0.7331652 135.123 
 9.800000000  0.7666962 -31.720 
 9.900000000  0.7339270 171.860 
10.000000000  0.7485263  -7.683 
10.100000000  0.7601982 -158.609 
10.200000000  0.7290209  31.658 
10.300000000  0.7688571 -129.851 
10.400000000  0.7223842  71.027 
10.500000000  0.7562820 -102.862 
10.600000000  0.7407598 103.211 
10.700000000  0.7495415 -61.345 
10.800000000  0.7236918 134.958 
10.900000000  0.7494321 -34.649 
11.000000000  0.7367200 173.850 
11.100000000  0.7168945  -2.714 
11.200000000  0.7521318 -158.926 
11.300000000  0.6911715  36.171 
11.400000000  0.7452751 -137.189 
11.500000000  0.7150285  73.322 
11.600000000  0.7156750 -102.352 
11.700000000  0.7170469  97.083 
11.800000000  0.7196215 -67.237 
11.900000000  0.7117174 131.366 
12.000000000  0.7141355 -36.640 
12.100000000  0.7190627 165.218 
12.200000000  0.6916961  -4.914 
12.300000000  0.7326487 -168.166 
12.400000000  0.6979122  36.984 
12.500000000  0.7068560 -139.219 
12.600000000  0.7152785  62.540 
12.700000000  0.7112912 -97.614 
12.800000000  0.6982334  92.796 
12.900000000  0.7221351 -69.794 
13.000000000  0.7011538 131.699 
13.100000000  0.7107785 -41.010 
13.200000000  0.7283714 165.828 
13.300000000  0.6950688   2.029 
13.400000000  0.7208146 -165.535 
13.500000000  0.7090326  36.888 
13.600000000  0.7116443 -127.204 
13.700000000  0.7048446  68.151 
13.800000000  0.7155826 -94.200 
13.900000000  0.6961788 103.887 
14.000000000  0.7206791 -62.972 
14.100000000  0.7014999 143.933 
14.200000000  0.6858241 -34.660 
14.300000000  0.7219534 168.416 
14.400000000  0.6783307   7.538 
14.500000000  0.7012481 -167.028 
14.600000000  0.7048518  38.545 
14.700000000  0.6850285 -127.402 
14.800000000  0.6890647  62.617 
14.900000000  0.7090555 -95.281 
15.000000000  0.6604180 100.859 
15.100000000  0.6977606 -77.105 
15.200000000  0.6993912 134.529 
15.300000000  0.6689583 -34.997 
15.400000000  0.6907998 158.834 
15.500000000  0.6736399  -1.985 
15.600000000  0.6819783 -168.375 
15.700000000  0.6689859  27.178 
15.800000000  0.6846656 -137.037 
15.900000000  0.6613430  61.201 
16.000000000  0.6918265 -105.554 
16.100000000  0.6626567 100.059 
16.200000000  0.6712923 -72.077 
16.300000000  0.6699379 131.684 
16.400000000  0.6416090 -42.361 
16.500000000  0.6953353 159.623 
16.600000000  0.6410686   3.537 
16.700000000  0.6652273 -172.013 
16.800000000  0.6573933  32.429 
16.900000000  0.6621331 -135.321 
17.000000000  0.6448807  65.295 
17.100000000  0.6520417 -110.647 
17.200000000  0.6689517  95.734 
17.300000000  0.6363143 -73.378 
17.400000000  0.6828468 123.886 
17.500000000  0.6399967 -30.685 
17.600000000  0.6622265 153.346 
17.700000000  0.6496443  -4.509 
17.800000000  0.6677983 -173.557 
17.900000000  0.6693759  35.962 
18.000000000  0.6300922 -144.226 
18.100000000  0.6986217  62.059 
18.200000000  0.6373172 -90.824 
18.300000000  0.6665453  86.410 
18.400000000  0.6674805 -59.407 
18.500000000  0.6366633 121.698 
18.600000000  0.6759904 -35.253 
18.700000000  0.6474163 165.533 
18.800000000  0.6623537  -0.186 
18.900000000  0.6357579 -163.720 
19.000000000  0.6631191  30.566 
19.100000000  0.6358009 -129.437 
19.200000000  0.6515645  61.507 
19.300000000  0.6354769 -94.501 
19.400000000  0.6359572  85.691 
19.500000000  0.6715852 -58.482 
19.600000000  0.5866023 128.867 
19.700000000  0.6611827 -42.380 
19.800000000  0.6152619 167.826 
19.900000000  0.6289225 -15.285 
20.000000000  0.6373360 -167.663 
20.100000000  0.6263318  26.582 
20.200000000  0.6166110 -138.686 
20.300000000  0.6304551  49.567 
20.400000000  0.6546365 -98.072 
20.500000000  0.5762608  82.237 
20.600000000  0.6722333 -78.386 
20.700000000  0.6052229 131.473 
20.800000000  0.6420024 -51.552 
20.900000000  0.6511881 167.840 
21.000000000  0.5989972 -11.239 
21.100000000  0.6512690 -169.552 
21.200000000  0.6092271  31.033 
21.300000000  0.6408028 -138.088 
21.400000000  0.6116705  64.550 
21.500000000  0.6366367 -101.911 
21.600000000  0.6070946  97.366 
21.700000000  0.6290269 -71.629 
21.800000000  0.6196311 136.479 
21.900000000  0.5901960 -44.407 
22.000000000  0.6429481 162.740 
22.100000000  0.5827450  -1.563 
22.200000000  0.6198174 -172.747 
22.300000000  0.6010590  32.390 
22.400000000  0.6014758 -140.526 
22.500000000  0.5956228  58.304 
22.600000000  0.6069508 -108.631 
22.700000000  0.5962329  90.295 
22.800000000  0.5905071 -81.071 
22.900000000  0.6193294 121.568 
23.000000000  0.5765634 -47.544 
23.100000000  0.6207205 148.007 
23.200000000  0.5917431  -9.416 
23.300000000  0.6016792 175.984 
23.400000000  0.6200072  22.499 
23.500000000  0.5882787 -146.590 
23.600000000  0.6191008  51.401 
23.700000000  0.5972510 -108.201 
23.800000000  0.6135201  82.409 
23.900000000  0.6062299 -73.242 
24.000000000  0.6025761 117.985 
24.100000000  0.6206402 -39.560 
24.200000000  0.5839342 154.466 
24.300000000  0.6205471 -11.062 
24.400000000  0.5936766 -168.847 
24.500000000  0.6062986  24.143 
24.600000000  0.5897662 -136.013 
24.700000000  0.6022247  54.333 
24.800000000  0.6010330 -98.948 
24.900000000  0.5700578  83.984 
25.000000000  0.6235067 -69.906 
25.100000000  0.5382006 122.958 
25.200000000  0.6244598 -49.091 
25.300000000  0.5706313 165.640 
25.400000000  0.5839263 -20.137 
25.500000000  0.5925527 -166.189 
25.600000000  0.5425253  11.628 
25.700000000  0.6211416 -142.832 
25.800000000  0.5345887  55.730 
25.900000000  0.6015637 -116.493 
26.000000000  0.5568419  88.526 
26.100000000  0.5990202 -81.929 
26.200000000  0.5558208 124.581 
26.300000000  0.5881209 -55.406 
26.400000000  0.5908602 161.667 
26.500000000  0.5372098 -23.186 
26.600000000  0.6352897 -171.267 
26.700000000  0.5222555  33.110 
26.800000000  0.5979035 -147.770 
26.900000000  0.5582022  64.211 
27.000000000  0.5733722 -113.277 
27.100000000  0.5653404  96.376 
27.200000000  0.5478950 -83.735 
27.300000000  0.5889115 125.606 
27.400000000  0.5293371 -44.749 
27.500000000  0.5869783 153.496 
27.600000000  0.5180182 -10.594 
27.700000000  0.5784064 177.791 
27.800000000  0.5286097  20.800 
27.900000000  0.5809435 -154.767 
28.000000000  0.5628033  61.982 
28.100000000  0.5224266 -125.775 
28.200000000  0.5936382  82.236 
28.300000000  0.5133086 -79.715 
28.400000000  0.5691858 105.296 
28.500000000  0.5408407 -49.445 
28.600000000  0.5653015 135.450 
28.700000000  0.5695279 -15.961 
28.800000000  0.5391998 173.646 
28.900000000  0.5729129  11.629 
29.000000000  0.5451332 -152.324 
29.100000000  0.5589362  41.008 
29.200000000  0.5726881 -118.058 
29.300000000  0.5595477  83.246 
29.400000000  0.5448568 -83.680 
29.500000000  0.5748510 109.990 
29.600000000  0.5651072 -37.512 
29.700000000  0.5135217 145.834 
29.800000000  0.5754789 -19.566 
29.900000000  0.5462831 -169.979 
30.000000000  0.5380766  13.043 
