! C:\Users\Focus\Desktop\Focus Traning\LOW FREQUENCY TUNERS\LOAD-PULL CALIBRATION\02-08-2024\focus_TRL\short_load.S1P
! measured on: 08/02/24 14:54:36
# GHZ S MA R 50
 1.800000000  0.8892179 115.350 
 1.900000000  0.8923742 -49.891 
 2.000000000  0.8839295 146.955 
 2.100000000  0.8910242 -15.903 
 2.200000000  0.8737683 178.486 
 2.300000000  0.8800911  13.400 
 2.400000000  0.8782960 -146.978 
 2.500000000  0.8586853  41.836 
 2.600000000  0.8814369 -117.173 
 2.700000000  0.8517234  77.013 
 2.800000000  0.8683804 -89.131 
 2.900000000  0.8605999 112.741 
 3.000000000  0.8551239 -55.336 
 3.100000000  0.8572184 143.348 
 3.200000000  0.8602496 -17.042 
 3.300000000  0.8479251 -178.082 
 3.400000000  0.8438789  10.817 
 3.500000000  0.8515038 -148.837 
 3.600000000  0.8357313  43.335 
 3.700000000  0.8578642 -114.984 
 3.800000000  0.8358223  85.495 
 3.900000000  0.8414542 -85.949 
 4.000000000  0.8425580 117.678 
 4.100000000  0.8358057 -50.653 
 4.200000000  0.8355732 148.839 
 4.300000000  0.8326479 -20.977 
 4.400000000  0.8414219 -177.562 
 4.500000000  0.8220802  16.390 
 4.600000000  0.8373252 -150.180 
 4.700000000  0.8252112  51.725 
 4.800000000  0.8294693 -116.140 
 4.900000000  0.8264847  85.988 
 5.000000000  0.8137966 -84.798 
 5.100000000  0.8203141 112.460 
 5.200000000  0.8132469 -56.196 
 5.300000000  0.8256550 146.453 
 5.400000000  0.8172988 -12.826 
 5.500000000  0.8120942 -179.977 
 5.600000000  0.8098648  17.367 
 5.700000000  0.8139633 -146.998 
 5.800000000  0.8096716  55.487 
 5.900000000  0.7960340 -115.550 
 6.000000000  0.8166184  84.595 
 6.100000000  0.8039857 -71.096 
 6.200000000  0.7895921 117.388 
 6.300000000  0.8078769 -45.599 
 6.400000000  0.7936560 157.600 
 6.500000000  0.7891951 -11.963 
 6.600000000  0.7898935 -176.718 
 6.700000000  0.7846444  19.993 
 6.800000000  0.7781056 -150.838 
 6.900000000  0.7958617  46.201 
 7.000000000  0.7948438 -108.152 
 7.100000000  0.7743305  83.190 
 7.200000000  0.7921291 -84.197 
 7.300000000  0.7797855 117.958 
 7.400000000  0.7877379 -51.408 
 7.500000000  0.7846860 150.698 
 7.600000000  0.7770524 -16.966 
 7.700000000  0.7950775 -177.435 
 7.800000000  0.7772251  26.124 
 7.900000000  0.7708400 -148.417 
 8.000000000  0.7920681  54.666 
 8.100000000  0.7667222 -105.201 
 8.200000000  0.7701877  82.484 
 8.300000000  0.7784825 -76.022 
 8.400000000  0.7546852 117.891 
 8.500000000  0.7776413 -49.506 
 8.600000000  0.7714913 155.750 
 8.700000000  0.7658755  -8.244 
 8.800000000  0.7588180 -174.582 
 8.900000000  0.7681814  21.617 
 9.000000000  0.7613972 -138.624 
 9.100000000  0.7598162  54.734 
 9.200000000  0.7667320 -106.236 
 9.300000000  0.7539188  91.712 
 9.400000000  0.7653958 -73.915 
 9.500000000  0.7499655 125.552 
 9.600000000  0.7576784 -42.405 
 9.700000000  0.7503368 155.241 
 9.800000000  0.7563980  -8.560 
 9.900000000  0.7422594 -172.595 
10.000000000  0.7506412  18.781 
10.100000000  0.7525174 -140.482 
10.200000000  0.7418343  54.406 
10.300000000  0.7555081 -109.453 
10.400000000  0.7392266  91.152 
10.500000000  0.7468102 -77.221 
10.600000000  0.7396916 121.340 
10.700000000  0.7513373 -38.908 
10.800000000  0.7255518 155.726 
10.900000000  0.7538357  -8.477 
11.000000000  0.7313150 -163.312 
11.100000000  0.7255290  21.596 
11.200000000  0.7523670 -132.746 
11.300000000  0.7004689  63.413 
11.400000000  0.7456569 -108.940 
11.500000000  0.7172132 100.907 
11.600000000  0.7156937 -75.094 
11.700000000  0.7253747 125.479 
11.800000000  0.7136950 -37.358 
11.900000000  0.7096387 153.903 
12.000000000  0.7198857  -9.696 
12.100000000  0.7182674 -170.014 
12.200000000  0.6997679  21.050 
12.300000000  0.7313260 -142.568 
12.400000000  0.6976559  59.308 
12.500000000  0.7158395 -116.417 
12.600000000  0.7238717  90.027 
12.700000000  0.6997478 -74.929 
12.800000000  0.7192442 114.465 
12.900000000  0.7274454 -36.071 
13.000000000  0.6974157 155.149 
13.100000000  0.7235934 -10.351 
13.200000000  0.7183637 -165.665 
13.300000000  0.7062661  28.597 
13.400000000  0.7171271 -134.200 
13.500000000  0.7033663  62.249 
13.600000000  0.7141315 -99.985 
13.700000000  0.7071336  96.533 
13.800000000  0.7141987 -61.930 
13.900000000  0.6944033 132.459 
14.000000000  0.7094252 -32.193 
14.100000000  0.6903937 166.174 
14.200000000  0.6999671  -3.749 
14.300000000  0.7051367 -161.193 
14.400000000  0.6850431  32.009 
14.500000000  0.7017443 -133.316 
14.600000000  0.6997937  67.874 
14.700000000  0.6772081 -97.134 
14.800000000  0.6891192  87.857 
14.900000000  0.7117405 -62.504 
15.000000000  0.6520182 127.246 
15.100000000  0.6998634 -43.952 
15.200000000  0.6741730 159.356 
15.300000000  0.6904166 -10.296 
15.400000000  0.6793708 -168.088 
15.500000000  0.6830373  24.790 
15.600000000  0.6728320 -133.658 
15.700000000  0.6687726  48.814 
15.800000000  0.7027322 -99.871 
15.900000000  0.6403606  88.847 
16.000000000  0.7164650 -71.217 
16.100000000  0.6499144 137.663 
16.200000000  0.6931916 -39.117 
16.300000000  0.6789602 176.150 
16.400000000  0.6462397  -3.478 
16.500000000  0.6956902 -156.967 
16.600000000  0.6405945  39.380 
16.700000000  0.6732046 -124.201 
16.800000000  0.6259184  64.814 
16.900000000  0.6905257 -96.684 
17.000000000  0.6262988 107.913 
17.100000000  0.6747089 -69.295 
17.200000000  0.6402677 141.642 
17.300000000  0.6402488 -45.615 
17.400000000  0.6805889 165.605 
17.500000000  0.6209864  -5.436 
17.600000000  0.6933466 -165.988 
17.700000000  0.6328323  34.920 
17.800000000  0.6901287 -130.079 
17.900000000  0.6358529  73.862 
18.000000000  0.6756893 -102.324 
18.100000000  0.6691829 112.028 
18.200000000  0.6418378 -66.949 
18.300000000  0.6914542 141.527 
18.400000000  0.6153607 -20.889 
18.500000000  0.6766618 163.197 
18.600000000  0.6475004  14.381 
18.700000000  0.6554988 -153.904 
18.800000000  0.6323402  43.380 
18.900000000  0.6338321 -129.267 
19.000000000  0.6510285  71.961 
19.100000000  0.6184251 -96.435 
19.200000000  0.6551301  99.433 
19.300000000  0.6238273 -57.798 
19.400000000  0.6320552 129.649 
19.500000000  0.6376122 -25.610 
19.600000000  0.6061952 160.458 
19.700000000  0.6433695  -3.215 
19.800000000  0.6189917 -158.136 
19.900000000  0.6198330  23.829 
20.000000000  0.6438934 -128.138 
20.100000000  0.6027220  62.082 
20.200000000  0.6319884 -106.238 
20.300000000  0.6435320  99.636 
20.400000000  0.6143446 -62.184 
20.500000000  0.6091370 118.323 
20.600000000  0.6628220 -32.643 
20.700000000  0.5912175 167.960 
20.800000000  0.6489558 -11.675 
20.900000000  0.6556451 -147.952 
21.000000000  0.5874489  28.612 
21.100000000  0.6689574 -124.186 
21.200000000  0.5942813  79.022 
21.300000000  0.6372921 -98.831 
21.400000000  0.6296676 113.477 
21.500000000  0.6162931 -57.692 
21.600000000  0.6137740 142.632 
21.700000000  0.6233365 -24.138 
21.800000000  0.6127788 -178.386 
21.900000000  0.5941864   1.361 
22.000000000  0.6520581 -143.081 
22.100000000  0.5391476  42.977 
22.200000000  0.6494750 -126.293 
22.300000000  0.5881442  90.132 
22.400000000  0.5999331 -99.215 
22.500000000  0.6234991 116.535 
22.600000000  0.5759808 -56.585 
22.700000000  0.6124321 141.482 
22.800000000  0.5884468 -23.799 
22.900000000  0.6104586 176.276 
23.000000000  0.5723967   4.493 
23.100000000  0.6346738 -152.162 
23.200000000  0.5589799  44.747 
23.300000000  0.6293526 -129.257 
23.400000000  0.5985145  86.608 
23.500000000  0.5899746 -97.912 
23.600000000  0.6280920 115.213 
23.700000000  0.5681007 -58.583 
23.800000000  0.6291164 143.073 
23.900000000  0.5647849 -19.675 
24.000000000  0.6228081 171.808 
24.100000000  0.5666281  12.640 
24.200000000  0.6138611 -159.520 
24.300000000  0.5877241  49.394 
24.400000000  0.5888847 -130.484 
24.500000000  0.6140468  80.964 
24.600000000  0.5565360 -94.082 
24.700000000  0.6209119 107.895 
24.800000000  0.5496430 -57.246 
24.900000000  0.6148259 133.152 
25.000000000  0.5764530 -16.468 
25.100000000  0.5855256 164.928 
25.200000000  0.5965366  13.664 
25.300000000  0.5598826 -158.948 
25.400000000  0.6038704  42.183 
25.500000000  0.5534883 -119.341 
25.600000000  0.5903091  71.628 
25.700000000  0.5502796 -90.853 
25.800000000  0.5778383 100.106 
25.900000000  0.5767032 -55.325 
26.000000000  0.5694042 134.281 
26.100000000  0.5789065 -23.287 
26.200000000  0.5590606 169.863 
26.300000000  0.5955884  12.061 
26.400000000  0.5256904 -156.378 
26.500000000  0.6066692  34.718 
26.600000000  0.5783824 -107.768 
26.700000000  0.5474700  70.393 
26.800000000  0.6069602 -81.180 
26.900000000  0.5242713 117.998 
27.000000000  0.5956874 -56.670 
27.100000000  0.5591946 156.635 
27.200000000  0.5517273 -21.413 
27.300000000  0.5580681 -177.486 
27.400000000  0.5355894   6.594 
27.500000000  0.5819044 -151.101 
27.600000000  0.5395976  47.580 
27.700000000  0.5619822 -120.481 
27.800000000  0.5387674  76.151 
27.900000000  0.5816161 -88.071 
28.000000000  0.5116235 113.667 
28.100000000  0.5674075 -72.703 
28.200000000  0.5984679 151.274 
28.300000000  0.5028235 -25.024 
28.400000000  0.5979837 172.157 
28.500000000  0.5310660  22.118 
28.600000000  0.5630555 -160.703 
28.700000000  0.5697165  52.379 
28.800000000  0.5326909 -119.090 
28.900000000  0.5572500  80.802 
29.000000000  0.5343232 -90.328 
29.100000000  0.5654018 111.057 
29.200000000  0.5417180 -49.901 
29.300000000  0.5596564 145.478 
29.400000000  0.5307107 -12.440 
29.500000000  0.5525421 171.608 
29.600000000  0.5600670  25.827 
29.700000000  0.4834634 -160.295 
29.800000000  0.6009460  45.163 
29.900000000  0.5166183 -101.999 
30.000000000  0.5409620  71.763 
