! C:\Users\Focus\Desktop\Focus Traning\LOW FREQUENCY TUNERS\LOAD-PULL CALIBRATION\02-08-2024\focus_TRL\verify_CONB.S2P
# GHZ S MA R 50
 1.800000000  0.0634632 175.553  0.9435680 -34.457  0.9434114 -34.452  0.0821864 -107.783 
 1.900000000  0.0536304 165.515  0.9437424 -116.351  0.9435421 -116.340  0.0608679  90.066 
 2.000000000  0.0483474 167.480  0.9418760 161.814  0.9417694 161.826  0.0636341 -76.013 
 2.100000000  0.0559261 179.195  0.9399390  79.940  0.9398231  79.948  0.0646175 116.892 
 2.200000000  0.0706845 164.465  0.9388821  -1.837  0.9386186  -1.833  0.0784585 -24.812 
 2.300000000  0.0509378 157.792  0.9381540 -83.691  0.9379548 -83.688  0.0447517 -176.394 
 2.400000000  0.0778933 174.159  0.9347783 -165.572  0.9346897 -165.565  0.0849175  -3.770 
 2.500000000  0.0878171 138.430  0.9347893 112.789  0.9346875 112.796  0.0816807 -117.062 
 2.600000000  0.0479356 145.911  0.9343919  30.877  0.9342506  30.880  0.0326555  32.604 
 2.700000000  0.0889388 145.874  0.9319338 -50.928  0.9317898 -50.925  0.0862394 -104.993 
 2.800000000  0.0684034 103.732  0.9330836 -132.686  0.9328727 -132.683  0.0298386 147.908 
 2.900000000  0.0402686 139.265  0.9313520 145.389  0.9311507 145.391  0.0434811 -104.880 
 3.000000000  0.0641054 116.543  0.9301460  63.610  0.9300380  63.612  0.0394728 149.176 
 3.100000000  0.0378707  89.305  0.9300193 -18.265  0.9299043 -18.262  0.0084410 -53.733 
 3.200000000  0.0088927  98.171  0.9276937 -100.146  0.9276795 -100.146  0.0274042  76.596 
 3.300000000  0.0442052 -174.173  0.9248556 178.066  0.9247395 178.066  0.0701758 -47.731 
 3.400000000  0.0649749 130.812  0.9247935  96.381  0.9247364  96.383  0.0532051 -149.584 
 3.500000000  0.0280673 125.565  0.9242160  14.485  0.9241602  14.485  0.0272387 -18.924 
 3.600000000  0.0599683 116.579  0.9228703 -67.305  0.9228539 -67.302  0.0436338 -113.306 
 3.700000000  0.0330548  14.593  0.9219827 -149.213  0.9218973 -149.215  0.0423209 -78.970 
 3.800000000  0.0523526 -166.126  0.9182251 129.126  0.9181390 129.124  0.0802352 -146.103 
 3.900000000  0.0429398 103.894  0.9205773  47.345  0.9204698  47.342  0.0181791 124.261 
 4.000000000  0.0229815 -145.315  0.9184860 -34.551  0.9183472 -34.551  0.0550754 -136.249 
 4.100000000  0.0388985 142.876  0.9178792 -116.276  0.9178691 -116.277  0.0364085 111.823 
 4.200000000  0.0311427 -178.122  0.9166258 161.829  0.9165272 161.828  0.0487116 -81.568 
 4.300000000  0.0546782 123.343  0.9161871  80.098  0.9161327  80.101  0.0383328 -173.227 
 4.400000000  0.0128516 -60.369  0.9148806  -1.840  0.9148100  -1.835  0.0421437 -102.376 
 4.500000000  0.0649213 168.365  0.9127649 -83.522  0.9127328 -83.518  0.0713687 179.967 
 4.600000000  0.0333250  86.627  0.9139561 -165.339  0.9139554 -165.338  0.0062493 140.176 
 4.700000000  0.0335649 -168.329  0.9115972 112.810  0.9116047 112.811  0.0528579 -179.146 
 4.800000000  0.0272371 125.242  0.9119867  31.008  0.9119516  31.008  0.0169841  56.199 
 4.900000000  0.0438208 -158.234  0.9087134 -50.872  0.9087359 -50.871  0.0634200 -153.416 
 5.000000000  0.0671802 143.968  0.9082772 -132.502  0.9082815 -132.499  0.0612671 104.335 
 5.100000000  0.0453780 134.947  0.9087197 145.595  0.9086021 145.594  0.0345903 -66.024 
 5.200000000  0.0741208 103.812  0.9070933  63.808  0.9069898  63.808  0.0489115 -177.267 
 5.300000000  0.0475812  21.364  0.9067682 -18.019  0.9067005 -18.017  0.0372725 153.181 
 5.400000000  0.0196644 -148.711  0.9055298 -99.822  0.9054383 -99.820  0.0445574  98.369 
 5.500000000  0.0163467 105.665  0.9051400 178.341  0.9050883 178.340  0.0175993 -44.740 
 5.600000000  0.0147142 147.758  0.9032830  96.539  0.9032120  96.541  0.0256060 151.474 
 5.700000000  0.0192126  34.339  0.9027735  14.672  0.9027201  14.672  0.0155727 -96.608 
 5.800000000  0.0355682 -114.849  0.8996781 -67.107  0.8995672 -67.106  0.0616175 153.890 
 5.900000000  0.0370268 136.065  0.8997807 -148.805  0.8996761 -148.804  0.0381237  66.525 
 6.000000000  0.0370703 -20.037  0.8986795 129.244  0.8985566 129.246  0.0445913 120.379 
 6.100000000  0.0655779 -115.998  0.8945274  47.569  0.8944327  47.569  0.0936895  25.523 
 6.200000000  0.0524666 178.892  0.8961616 -34.028  0.8960391 -34.026  0.0631128 -84.067 
 6.300000000  0.0071467 -96.150  0.8974091 -116.017  0.8972134 -116.015  0.0314524  40.495 
 6.400000000  0.0686859 -126.635  0.8924585 162.132  0.8923578 162.133  0.0913746 -94.279 
 6.500000000  0.0773268 -177.029  0.8921879  80.614  0.8921487  80.617  0.0810951 142.780 
 6.600000000  0.0455696 176.500  0.8939487  -1.287  0.8938663  -1.288  0.0549580 -26.018 
 6.700000000  0.0764866 178.576  0.8904213 -83.103  0.8903421 -83.107  0.0797417 178.925 
 6.800000000  0.0845577 136.959  0.8905389 -164.706  0.8904534 -164.705  0.0776379  55.052 
 6.900000000  0.0468268  85.129  0.8925321 113.449  0.8923751 113.451  0.0306300 -43.509 
 7.000000000  0.0245495 -120.496  0.8909480  31.491  0.8908285  31.490  0.0472259  -9.566 
 7.100000000  0.0749774 164.003  0.8879437 -50.185  0.8878586 -50.188  0.0777468 -98.842 
 7.200000000  0.0508446  99.769  0.8897017 -131.911  0.8895465 -131.914  0.0279138 166.736 
 7.300000000  0.0251299 170.833  0.8888906 146.175  0.8886959 146.173  0.0363015 -92.201 
 7.400000000  0.0520478 113.234  0.8878022  64.438  0.8876342  64.441  0.0353386 -174.911 
 7.500000000  0.0070074  51.379  0.8878485 -17.443  0.8876448 -17.438  0.0185208 -115.738 
 7.600000000  0.0409320 125.704  0.8863203 -99.242  0.8861749 -99.240  0.0354248 -165.971 
 7.700000000  0.0382491   9.787  0.8853210 178.902  0.8851407 178.903  0.0392428 -165.994 
 7.800000000  0.0508922 -133.204  0.8829176  97.164  0.8827465  97.168  0.0701173 137.631 
 7.900000000  0.0494281 121.651  0.8835636  15.472  0.8834287  15.474  0.0430650  69.243 
 8.000000000  0.0286863 -28.732  0.8826850 -66.445  0.8825101 -66.443  0.0415325  95.277 
 8.100000000  0.0534101 -148.832  0.8803553 -148.152  0.8801503 -148.151  0.0741297  19.598 
 8.200000000  0.0417144 135.450  0.8813555 130.138  0.8811531 130.139  0.0375994 -71.085 
 8.300000000  0.0066074 -142.187  0.8807862  48.228  0.8806802  48.231  0.0303300  17.718 
 8.400000000  0.0440587 161.629  0.8793314 -33.535  0.8791522 -33.536  0.0551397 -68.902 
 8.500000000  0.0420840  69.539  0.8791757 -115.324  0.8789885 -115.325  0.0265507 -111.283 
 8.600000000  0.0361512 -55.576  0.8775916 162.820  0.8773952 162.819  0.0472745 -137.313 
 8.700000000  0.0359804 -145.317  0.8764548  81.130  0.8762340  81.129  0.0466314 114.382 
 8.800000000  0.0193974 176.655  0.8766253  -0.667  0.8764125  -0.668  0.0328768 -30.306 
 8.900000000  0.0061158 -152.880  0.8761471 -82.496  0.8759648 -82.495  0.0148870 130.177 
 9.000000000  0.0262452 -118.355  0.8747055 -164.324  0.8744617 -164.323  0.0441951 -33.176 
 9.100000000  0.0242408 -172.082  0.8741269 113.941  0.8739343 113.941  0.0278788 -154.005 
 9.200000000  0.0205717 -87.248  0.8730501  32.072  0.8727828  32.072  0.0385002 -25.539 
 9.300000000  0.0478523 -136.966  0.8713667 -49.672  0.8711062 -49.669  0.0539271 -144.277 
 9.400000000  0.0268274 -150.160  0.8716502 -131.462  0.8714062 -131.461  0.0342482  37.309 
 9.500000000  0.0553281 -140.664  0.8691392 146.727  0.8689508 146.728  0.0650525 -111.243 
 9.600000000  0.0512242 178.969  0.8693388  65.056  0.8691589  65.051  0.0448217 112.842 
 9.700000000  0.0348249 -165.045  0.8688863 -16.801  0.8687579 -16.808  0.0433385 -67.826 
 9.800000000  0.0489046 -172.232  0.8677062 -98.585  0.8675582 -98.588  0.0447452 135.153 
 9.900000000  0.0541280 175.899  0.8668121 179.651  0.8666536 179.653  0.0604195 -18.702 
10.000000000  0.0532061 139.981  0.8666803  97.918  0.8664929  97.916  0.0420652 -133.693 
10.100000000  0.0127025 147.116  0.8668362  16.048  0.8666951  16.047  0.0231803 -25.168 
10.200000000  0.0422659 161.253  0.8651770 -65.723  0.8650297 -65.725  0.0420310 -128.074 
10.300000000  0.0199963  90.869  0.8653768 -147.547  0.8651582 -147.548  0.0064095 -38.892 
10.400000000  0.0290168 -150.194  0.8635149 130.644  0.8633941 130.644  0.0424725 -139.943 
10.500000000  0.0365378 133.556  0.8633800  48.898  0.8632476  48.898  0.0232642 105.603 
10.600000000  0.0091310  15.941  0.8628022 -32.968  0.8626759 -32.968  0.0124916 -140.615 
10.700000000  0.0220684 -122.446  0.8614637 -114.776  0.8612658 -114.780  0.0383360  51.830 
10.800000000  0.0223561 -177.072  0.8607256 163.451  0.8605160 163.452  0.0441089 -60.395 
10.900000000  0.0153172 -39.900  0.8599990  81.552  0.8598616  81.552  0.0251972  30.180 
11.000000000  0.0631275 -120.609  0.8557434  -0.217  0.8556179  -0.220  0.0932422 -62.121 
11.100000000  0.0422498 158.117  0.8573540 -81.837  0.8571983 -81.838  0.0476319 -144.010 
11.200000000  0.0502747 -76.936  0.8550536 -163.941  0.8548651 -163.940  0.0776650 -67.587 
11.300000000  0.0946062 -160.043  0.8501110 114.645  0.8498967 114.648  0.1114789 -150.766 
11.400000000  0.0213758 108.093  0.8555434  32.851  0.8553102  32.855  0.0059655 171.981 
11.500000000  0.0851724 -125.249  0.8490231 -49.151  0.8487838 -49.152  0.1061347 -151.833 
11.600000000  0.0848402 164.545  0.8496110 -130.448  0.8494150 -130.444  0.0801157 109.206 
11.700000000  0.0229360 -147.806  0.8525013 147.509  0.8522585 147.512  0.0391837 -113.001 
11.800000000  0.0813939 -171.425  0.8479352  65.771  0.8477362  65.771  0.0817629 116.383 
11.900000000  0.0611786 153.051  0.8496337 -15.859  0.8494493 -15.857  0.0638601 -23.775 
12.000000000  0.0449654 157.195  0.8497338 -97.721  0.8495695 -97.721  0.0431660 -178.063 
12.100000000  0.0444268 173.232  0.8489817 -179.600  0.8487998 -179.599  0.0504702 -21.416 
12.200000000  0.0746158 152.398  0.8462468  98.706  0.8461280  98.705  0.0817079 -140.139 
12.300000000  0.0408516 104.219  0.8483624  16.983  0.8482236  16.985  0.0206949 112.038 
12.400000000  0.0537376 177.941  0.8461691 -65.010  0.8460599 -65.006  0.0700222 -140.198 
12.500000000  0.0898399 111.706  0.8437295 -146.530  0.8435967 -146.531  0.0819558 132.939 
12.600000000  0.0309404  22.290  0.8467431 131.642  0.8466040 131.643  0.0202472  98.899 
12.700000000  0.0568204 153.698  0.8440358  49.717  0.8438662  49.720  0.0601804 113.140 
12.800000000  0.0778876  64.393  0.8430162 -31.900  0.8428112 -31.899  0.0654709  46.412 
12.900000000  0.0393099 -43.446  0.8438655 -113.688  0.8436472 -113.685  0.0449505   6.722 
13.000000000  0.0306272 137.655  0.8435446 164.481  0.8434376 164.484  0.0385002 -18.894 
13.100000000  0.0463391  24.104  0.8427918  82.675  0.8425338  82.682  0.0425503 -43.017 
13.200000000  0.0384088 -55.744  0.8418318   0.892  0.8415797   0.899  0.0468083 -106.520 
13.300000000  0.0218519 -83.093  0.8419223 -80.907  0.8417549 -80.901  0.0192821 128.503 
13.400000000  0.0217496 -82.132  0.8410675 -162.716  0.8408958 -162.710  0.0303231 -63.030 
13.500000000  0.0268244 -76.418  0.8403878 115.452  0.8402228 115.453  0.0264553 152.025 
13.600000000  0.0354380 -93.502  0.8392945  33.657  0.8391499  33.659  0.0359245 -23.774 
13.700000000  0.0378977 -79.414  0.8384362 -48.193  0.8382657 -48.187  0.0378338 171.257 
13.800000000  0.0750518 -100.316  0.8352866 -129.977  0.8351326 -129.969  0.0721012  15.218 
13.900000000  0.0668961 -138.896  0.8353655 148.430  0.8351954 148.431  0.0683049 -105.673 
14.000000000  0.0543806 -123.637  0.8353045  66.517  0.8351304  66.520  0.0480082  65.314 
14.100000000  0.0787503 -147.988  0.8332006 -15.175  0.8329887 -15.171  0.0830197 -68.656 
14.200000000  0.0417581 -164.682  0.8348436 -96.940  0.8346703 -96.936  0.0303217 153.872 
14.300000000  0.0634951 -134.824  0.8326566 -178.852  0.8324926 -178.847  0.0667012 -58.306 
14.400000000  0.0726229 -163.906  0.8316938  99.475  0.8315582  99.483  0.0684852 179.790 
14.500000000  0.0471412 -165.685  0.8322811  17.641  0.8320705  17.640  0.0346991   3.564 
14.600000000  0.0690979 -141.786  0.8298737 -64.301  0.8296983 -64.301  0.0662271 178.123 
14.700000000  0.1122749 -173.234  0.8256735 -145.884  0.8254546 -145.884  0.1048057  51.036 
14.800000000  0.0723610 136.127  0.8294310 132.551  0.8292671 132.554  0.0611989 -47.882 
14.900000000  0.0568824 -135.280  0.8280800  50.349  0.8278564  50.357  0.0662881  25.491 
15.000000000  0.1298001 168.280  0.8218661 -31.072  0.8216578 -31.070  0.1293028 -59.117 
15.100000000  0.0773529 118.626  0.8276725 -112.618  0.8274127 -112.615  0.0521989 -156.112 
15.200000000  0.0571559 151.313  0.8274612 165.331  0.8273035 165.336  0.0547164 -33.608 
15.300000000  0.0614281 114.581  0.8274095  83.617  0.8272787  83.617  0.0470552 -125.495 
15.400000000  0.0380883 133.451  0.8269690   1.718  0.8268004   1.715  0.0313243  -7.787 
15.500000000  0.0400831 108.560  0.8265508 -80.109  0.8264106 -80.105  0.0290740 -99.357 
15.600000000  0.0475360 154.786  0.8245890 -162.027  0.8243992 -162.028  0.0508345  15.357 
15.700000000  0.0962195  89.722  0.8214494 116.343  0.8212586 116.347  0.0902811 -48.434 
15.800000000  0.0485258  -2.815  0.8234350  34.572  0.8232847  34.574  0.0574163 -75.841 
15.900000000  0.0508942 108.598  0.8222372 -47.349  0.8220646 -47.344  0.0662893 -57.223 
16.000000000  0.0980880   5.169  0.8185251 -129.107  0.8183358 -129.100  0.1019175 -77.644 
16.100000000  0.0535506 -95.445  0.8196701 149.303  0.8195146 149.310  0.0799313 -118.957 
16.200000000  0.0501013   5.255  0.8200456  67.274  0.8198591  67.281  0.0554101 -68.374 
16.300000000  0.0956780 -87.847  0.8143381 -14.379  0.8142175 -14.379  0.1204220 -111.695 
16.400000000  0.0243121 -173.349  0.8186606 -95.982  0.8184310 -95.973  0.0480411 -162.370 
16.500000000  0.0739606 -69.649  0.8156773 -178.055  0.8154953 -178.045  0.0866648 -105.994 
16.600000000  0.0740102 -127.314  0.8146269 100.407  0.8144621 100.411  0.0771245 167.520 
16.700000000  0.0696250 -127.173  0.8144573  18.489  0.8142847  18.496  0.0669185 -23.232 
16.800000000  0.0656651 -179.635  0.8133661 -63.086  0.8132004 -63.081  0.0873552 -120.043 
16.900000000  0.0401872 -71.051  0.8149873 -145.158  0.8148434 -145.153  0.0408824 -65.119 
17.000000000  0.1052263 -147.565  0.8086330 133.212  0.8084658 133.220  0.1215083 -120.513 
17.100000000  0.0293920 166.911  0.8136029  51.562  0.8134343  51.567  0.0279096 176.436 
17.200000000  0.1013956 -146.859  0.8076602 -30.559  0.8074176 -30.557  0.1210963 -99.212 
17.300000000  0.0992741 133.373  0.8066442 -111.713  0.8065050 -111.713  0.1208281 -166.684 
17.400000000  0.0145035 -54.148  0.8122816 166.337  0.8121289 166.340  0.0368236 -145.866 
17.500000000  0.0564857 154.459  0.8095510  84.456  0.8093566  84.454  0.0858063 -156.239 
17.600000000  0.0298485   9.179  0.8108347   2.723  0.8105814   2.722  0.0520995 -177.154 
17.700000000  0.0278745 -126.950  0.8103533 -79.167  0.8101526 -79.167  0.0400142 -174.620 
17.800000000  0.0357007 -58.428  0.8094878 -161.075  0.8093399 -161.076  0.0480151 -124.827 
17.900000000  0.0704695 -136.580  0.8073750 117.220  0.8072184 117.218  0.0813990 -164.693 
18.000000000  0.0125140  14.785  0.8084992  35.325  0.8083897  35.324  0.0438951 -152.906 
18.100000000  0.0974492 -104.554  0.8035238 -46.477  0.8034416 -46.477  0.1059591 -173.149 
18.200000000  0.0498456 -178.124  0.8065916 -128.090  0.8064205 -128.096  0.0493413 138.965 
18.300000000  0.0866997 -83.463  0.8024950 149.737  0.8022928 149.739  0.1020855 -170.374 
18.400000000  0.1286717 -152.752  0.7983970  68.516  0.7982387  68.512  0.1208084 116.866 
18.500000000  0.0191580 166.177  0.8055758 -13.368  0.8054253 -13.372  0.0148387 136.722 
18.600000000  0.1043955 -115.858  0.7992269 -95.417  0.7989698 -95.421  0.0986763 104.241 
18.700000000  0.1107104 -153.681  0.7991016 -176.875  0.7988786 -176.879  0.0738720 -29.044 
18.800000000  0.1075694 -161.020  0.7986064 101.306  0.7984091 101.305  0.1053049 172.793 
18.900000000  0.0971825 175.449  0.7994385  19.707  0.7992561  19.703  0.0750359  52.591 
19.000000000  0.0737755 -170.631  0.8006074 -62.271  0.8003865 -62.267  0.0605521 -160.420 
19.100000000  0.0979914 170.018  0.7981239 -143.950  0.7979651 -143.947  0.0893972  80.917 
19.200000000  0.0434100 164.826  0.8012533 134.184  0.8010859 134.187  0.0174798 -86.572 
19.300000000  0.0947408 -169.495  0.7966422  52.254  0.7965086  52.248  0.0885506  85.661 
19.400000000  0.0784668 152.293  0.7982316 -29.291  0.7980950 -29.291  0.0610369 -32.086 
19.500000000  0.0754256 -166.126  0.7969577 -111.467  0.7968241 -111.461  0.0646539 106.441 
19.600000000  0.1302254 151.494  0.7912373 167.154  0.7909996 167.145  0.1138557  -2.390 
19.700000000  0.0475228 106.424  0.7982686  85.439  0.7982451  85.448  0.0363030 -105.948 
19.800000000  0.0938745 176.361  0.7935173   3.265  0.7933857   3.270  0.0838853  -3.678 
19.900000000  0.1037017 116.105  0.7929258 -78.034  0.7927602 -78.032  0.0903218 -96.636 
20.000000000  0.0220448 158.497  0.7969814 -160.123  0.7968706 -160.117  0.0098204   3.404 
20.100000000  0.1027582 141.337  0.7914224 118.073  0.7912861 118.070  0.0932118 -96.484 
20.200000000  0.0814298  86.138  0.7935460  36.553  0.7934176  36.555  0.0717778 163.571 
20.300000000  0.0166729  66.252  0.7956622 -45.459  0.7955094 -45.455  0.0118035  80.012 
20.400000000  0.0550011 159.510  0.7930802 -127.495  0.7929766 -127.491  0.0550571 100.313 
20.500000000  0.1085264  98.383  0.7882756 150.886  0.7881876 150.886  0.1079239  14.158 
20.600000000  0.0725498  11.062  0.7910231  69.286  0.7909671  69.288  0.0771673 -45.580 
20.700000000  0.0522023 161.107  0.7905271 -12.853  0.7904505 -12.846  0.0734031 -30.331 
20.800000000  0.1195273  44.554  0.7847139 -94.468  0.7846584 -94.463  0.1243580 -61.716 
20.900000000  0.0914797 -67.392  0.7868215 -175.953  0.7867162 -175.949  0.1067330 -100.520 
21.000000000  0.0555607 111.463  0.7890227 102.102  0.7889475 102.105  0.0787232 -104.825 
21.100000000  0.1030946 -26.842  0.7853952  20.278  0.7852508  20.281  0.1076288 -115.819 
21.200000000  0.0655036 -139.422  0.7872043 -61.270  0.7870356 -61.269  0.0846497 -155.616 
21.300000000  0.0522360  13.617  0.7885676 -143.312  0.7884041 -143.311  0.0544686 -138.130 
21.400000000  0.0810702 -82.059  0.7855983 134.973  0.7855224 134.969  0.0787621 178.876 
21.500000000  0.0329264 -105.168  0.7878921  53.121  0.7877284  53.115  0.0198088  54.208 
21.600000000  0.0516165 -97.976  0.7863435 -28.784  0.7862191 -28.784  0.0509480 -125.363 
21.700000000  0.0503504 -84.549  0.7855551 -110.725  0.7854087 -110.726  0.0255903  32.006 
21.800000000  0.0924442 -122.807  0.7811370 167.537  0.7810025 167.535  0.0965930 -82.238 
21.900000000  0.0129005 168.166  0.7841677  85.786  0.7839791  85.787  0.0443671 -132.455 
22.000000000  0.1251143 -95.436  0.7759522   3.610  0.7757972   3.611  0.1239749 -87.622 
22.100000000  0.1209102 -178.025  0.7743036 -77.265  0.7741163 -77.269  0.1451937 -150.141 
22.200000000  0.0466701 -34.812  0.7817962 -159.459  0.7816802 -159.466  0.0631683 -137.328 
22.300000000  0.1382617 -138.373  0.7725681 118.886  0.7724307 118.876  0.1459045 -162.776 
22.400000000  0.0475359 136.901  0.7803593  37.497  0.7801775  37.497  0.0717738 142.771 
22.500000000  0.0902632 -110.011  0.7783527 -44.808  0.7782503 -44.803  0.0862097 -165.415 
22.600000000  0.0864410 -172.863  0.7775044 -126.224  0.7773341 -126.235  0.0836730 116.262 
22.700000000  0.0470289 -141.020  0.7803520 151.738  0.7802293 151.743  0.0329756 -102.081 
22.800000000  0.0634256 -160.014  0.7786346  69.939  0.7785101  69.941  0.0534809 144.294 
22.900000000  0.0684814 -147.985  0.7778402 -11.979  0.7776830 -11.984  0.0508949 -65.579 
23.000000000  0.0643195 169.893  0.7766106 -93.623  0.7765091 -93.623  0.0755826 -160.015 
23.100000000  0.0518967 -111.219  0.7772743 -175.685  0.7771221 -175.686  0.0401915 -104.078 
23.200000000  0.1078994 -174.416  0.7718942 102.714  0.7717884 102.719  0.1118785 -156.959 
23.300000000  0.0086976  64.057  0.7763620  20.979  0.7762938  20.984  0.0530190 172.930 
23.400000000  0.1102144 -138.976  0.7712858 -61.004  0.7711783 -60.999  0.1080199 -169.051 
23.500000000  0.0643810 147.792  0.7734335 -142.405  0.7733256 -142.402  0.0765351 135.563 
