! C:\Users\Focus\Desktop\Focus Traning\LOW FREQUENCY TUNERS\LOAD-PULL CALIBRATION\02-08-2024\focus_TRL\verify.S2P
# GHZ S MA R 50
 1.800000000  0.0000314  41.591  1.0000900  -0.713  0.9999240  -0.708  0.0000129 -169.429 
 1.900000000  0.0000233  44.093  1.0001253  -0.755  0.9999130  -0.744  0.0000229 -21.979 
 2.000000000  0.0000283  53.774  1.0000957  -0.793  0.9999825  -0.781  0.0000404  90.921 
 2.100000000  0.0000278 -20.287  1.0000828  -0.833  0.9999595  -0.825  0.0000069   2.874 
 2.200000000  0.0000151 140.092  1.0001256  -0.874  0.9998449  -0.870  0.0000544  34.386 
 2.300000000  0.0000435  40.780  1.0001028  -0.913  0.9998904  -0.910  0.0000159  54.611 
 2.400000000  0.0000291  57.279  1.0001383  -0.951  1.0000436  -0.944  0.0000466  31.653 
 2.500000000  0.0000612  47.711  1.0001492  -0.992  1.0000403  -0.985  0.0000348  45.182 
 2.600000000  0.0000281   8.849  1.0001608  -1.030  1.0000095  -1.027  0.0000395  45.065 
 2.700000000  0.0000437  64.060  1.0001096  -1.069  0.9999551  -1.066  0.0000480  58.031 
 2.800000000  0.0000414  28.109  1.0001407  -1.108  0.9999147  -1.105  0.0000288  51.301 
 2.900000000  0.0000254  -7.082  1.0001331  -1.151  0.9999169  -1.149  0.0000676  96.002 
 3.000000000  0.0000458  43.172  1.0001538  -1.191  1.0000377  -1.189  0.0000378 -129.155 
 3.100000000  0.0000369   6.129  1.0001137  -1.230  0.9999900  -1.227  0.0000555 110.075 
 3.200000000  0.0000352 -45.490  1.0001208  -1.267  1.0001054  -1.267  0.0000144  57.317 
 3.300000000  0.0000524  58.971  1.0000954  -1.310  0.9999698  -1.310  0.0000062 -100.404 
 3.400000000  0.0000468 -35.388  1.0000714  -1.346  1.0000096  -1.344  0.0000392  56.620 
 3.500000000  0.0000508 -69.817  1.0000991  -1.389  1.0000388  -1.389  0.0000195  51.025 
 3.600000000  0.0000457  60.392  1.0000996  -1.427  1.0000818  -1.424  0.0000422 -58.212 
 3.700000000  0.0000214 -73.736  1.0001355  -1.467  1.0000429  -1.469  0.0000035   8.988 
 3.800000000  0.0000568 -47.988  1.0001741  -1.508  1.0000803  -1.510  0.0000596 -64.496 
 3.900000000  0.0000220 126.025  1.0002070  -1.547  1.0000902  -1.550  0.0000284 -19.417 
 4.000000000  0.0000683 -79.111  1.0001538  -1.588  1.0000026  -1.588  0.0000269  39.257 
 4.100000000  0.0000541 -82.879  1.0000701  -1.627  1.0000591  -1.628  0.0000374 -11.698 
 4.200000000  0.0000574  75.141  1.0001082  -1.666  1.0000007  -1.667  0.0000067  81.942 
 4.300000000  0.0000258 -102.371  1.0001470  -1.708  1.0000876  -1.705  0.0000725 -53.911 
 4.400000000  0.0000540  95.222  1.0001345  -1.748  1.0000573  -1.743  0.0000659  73.428 
 4.500000000  0.0000328 -54.098  1.0001240  -1.788  1.0000888  -1.784  0.0000601   5.102 
 4.600000000  0.0000152 -105.690  1.0001189  -1.824  1.0001182  -1.823  0.0000509 -23.052 
 4.700000000  0.0000421  46.615  1.0001259  -1.864  1.0001342  -1.863  0.0000584  47.831 
 4.800000000  0.0000682  59.074  1.0001158  -1.904  1.0000773  -1.904  0.0001135  87.618 
 4.900000000  0.0000744  68.006  1.0001459  -1.945  1.0001707  -1.944  0.0000879 -83.543 
 5.000000000  0.0000284   6.044  1.0000976  -1.984  1.0001024  -1.981  0.0000697  66.930 
 5.100000000  0.0000275  79.676  1.0000872  -2.022  0.9999577  -2.023  0.0001408  80.097 
 5.200000000  0.0000769  91.707  1.0001076  -2.067  0.9999935  -2.067  0.0001138 -98.185 
 5.300000000  0.0000663  75.613  1.0001877  -2.105  1.0001130  -2.103  0.0001739 100.060 
 5.400000000  0.0000455  55.997  1.0001179  -2.144  1.0000168  -2.142  0.0000240  73.642 
 5.500000000  0.0000314  39.547  1.0001698  -2.185  1.0001126  -2.186  0.0000515 -104.376 
 5.600000000  0.0000329  -9.242  1.0001288  -2.225  1.0000502  -2.223  0.0001363  81.720 
 5.700000000  0.0000376  -5.588  1.0000541  -2.264  0.9999949  -2.264  0.0000241 153.415 
 5.800000000  0.0000467 -50.090  1.0001174  -2.304  0.9999941  -2.303  0.0000457 -82.728 
 5.900000000  0.0000375  90.866  1.0001333  -2.344  1.0000170  -2.343  0.0000154 -10.627 
 6.000000000  0.0000612 -76.495  1.0000832  -2.381  0.9999465  -2.379  0.0000144 161.236 
 6.100000000  0.0000238 -48.591  1.0001110  -2.420  1.0000051  -2.420  0.0000422 -65.701 
 6.200000000  0.0000348 -29.087  1.0000986  -2.462  0.9999619  -2.460  0.0000536  71.363 
 6.300000000  0.0000935 -104.797  1.0001345  -2.500  0.9999164  -2.498  0.0000489 -28.293 
 6.400000000  0.0000428   6.676  1.0001079  -2.540  0.9999951  -2.539  0.0001211 -94.259 
 6.500000000  0.0000390 -47.974  1.0000358  -2.581  0.9999918  -2.578  0.0000422  63.724 
 6.600000000  0.0000805 -103.914  1.0000604  -2.619  0.9999683  -2.620  0.0000979 -65.741 
 6.700000000  0.0001192 111.615  1.0001371  -2.663  1.0000482  -2.667  0.0000775  18.251 
 6.800000000  0.0001895 -103.685  1.0000959  -2.698  0.9999999  -2.697  0.0001374  49.797 
 6.900000000  0.0000249  60.326  1.0001499  -2.739  0.9999739  -2.737  0.0000659 -48.742 
 7.000000000  0.0000098 145.769  1.0001386  -2.779  1.0000045  -2.780  0.0000355  66.582 
 7.100000000  0.0000376 -93.540  1.0001320  -2.818  1.0000362  -2.821  0.0001111  66.356 
 7.200000000  0.0000337 117.836  1.0001168  -2.857  0.9999424  -2.860  0.0000960 -73.247 
 7.300000000  0.0000746  97.850  1.0001766  -2.897  0.9999575  -2.899  0.0000919  39.133 
 7.400000000  0.0000672 106.699  1.0002113  -2.937  1.0000221  -2.934  0.0002057  72.705 
 7.500000000  0.0000484 -95.780  1.0001631  -2.978  0.9999337  -2.973  0.0001547 -79.911 
 7.600000000  0.0000590  88.893  1.0001447  -3.016  0.9999806  -3.014  0.0001679  68.817 
 7.700000000  0.0000362 -82.805  1.0001489  -3.054  0.9999452  -3.053  0.0000342 124.952 
 7.800000000  0.0000925  71.825  1.0001086  -3.099  0.9999148  -3.095  0.0000631 -84.998 
 7.900000000  0.0000371 -64.318  1.0000516  -3.135  0.9998989  -3.133  0.0002127  73.275 
 8.000000000  0.0000506 -67.285  1.0000862  -3.174  0.9998880  -3.172  0.0000597 -47.896 
 8.100000000  0.0000879  50.104  1.0001825  -3.213  0.9999496  -3.212  0.0000276 -15.669 
 8.200000000  0.0000333 -99.964  1.0001606  -3.253  0.9999310  -3.252  0.0000835  23.429 
 8.300000000  0.0000344  -8.206  1.0001017  -3.294  0.9999814  -3.291  0.0000807 -123.131 
 8.400000000  0.0001438 -90.086  1.0000809  -3.331  0.9998770  -3.332  0.0000806 -45.262 
 8.500000000  0.0000918  95.014  1.0001070  -3.371  0.9998940  -3.372  0.0001737  61.066 
 8.600000000  0.0000701 -100.762  1.0001203  -3.409  0.9998965  -3.410  0.0000684 -55.558 
 8.700000000  0.0000512 -83.776  1.0001760  -3.449  0.9999240  -3.450  0.0000643 -13.481 
 8.800000000  0.0000212 101.054  1.0001886  -3.490  0.9999459  -3.491  0.0000245 -57.504 
 8.900000000  0.0000849 -143.108  1.0001738  -3.531  0.9999657  -3.530  0.0001289 -71.518 
 9.000000000  0.0000188 -69.712  1.0001461  -3.568  0.9998673  -3.567  0.0000563 -66.439 
 9.100000000  0.0000585 -119.845  1.0001633  -3.607  0.9999430  -3.607  0.0000856  26.551 
 9.200000000  0.0000009 -143.878  1.0001640  -3.648  0.9998578  -3.648  0.0000567   3.539 
 9.300000000  0.0000426  53.452  1.0001957  -3.691  0.9998966  -3.688  0.0001129 -58.332 
 9.400000000  0.0000612 -82.497  1.0001863  -3.730  0.9999063  -3.729  0.0001285  62.053 
 9.500000000  0.0000190 123.672  1.0001713  -3.766  0.9999545  -3.765  0.0001586 -76.245 
 9.600000000  0.0000483 100.957  1.0001431  -3.807  0.9999361  -3.812  0.0000876  38.129 
 9.700000000  0.0000199 119.753  1.0001546  -3.845  1.0000068  -3.852  0.0001046  63.069 
 9.800000000  0.0000630 -92.810  1.0001081  -3.885  0.9999376  -3.888  0.0000675  37.204 
 9.900000000  0.0000744  63.244  1.0001443  -3.927  0.9999614  -3.925  0.0000331   8.946 
10.000000000  0.0000735 114.290  1.0001527  -3.965  0.9999364  -3.967  0.0001820  49.790 
10.100000000  0.0000229 -80.472  1.0001046  -4.004  0.9999418  -4.005  0.0000788 -108.304 
10.200000000  0.0000180 122.218  1.0001149  -4.045  0.9999446  -4.047  0.0001526  73.936 
10.300000000  0.0001277 102.732  1.0001713  -4.088  0.9999186  -4.089  0.0000221 114.828 
10.400000000  0.0001130 -78.174  1.0001546  -4.127  1.0000147  -4.127  0.0000261 -176.884 
10.500000000  0.0000530 140.249  1.0000995  -4.167  0.9999461  -4.167  0.0001537  60.639 
10.600000000  0.0000956  93.557  1.0001180  -4.208  0.9999716  -4.208  0.0001727 -96.502 
10.700000000  0.0002930 -86.646  1.0001637  -4.245  0.9999340  -4.249  0.0001114  77.313 
10.800000000  0.0000964  91.456  1.0001126  -4.287  0.9998691  -4.286  0.0000802 -89.941 
10.900000000  0.0000464 120.201  1.0001360  -4.323  0.9999762  -4.323  0.0000276 -122.750 
11.000000000  0.0001335 -74.112  1.0000737  -4.364  0.9999270  -4.367  0.0000649  79.723 
11.100000000  0.0000923 -116.348  1.0000660  -4.404  0.9998844  -4.405  0.0001682 -76.759 
11.200000000  0.0000450  47.652  1.0000917  -4.445  0.9998712  -4.444  0.0000230 -26.701 
11.300000000  0.0000644 -107.235  1.0000866  -4.485  0.9998345  -4.482  0.0000823 -38.019 
11.400000000  0.0002081 -108.701  1.0001449  -4.522  0.9998723  -4.518  0.0001394 -73.108 
11.500000000  0.0001076  85.501  1.0001460  -4.564  0.9998641  -4.565  0.0000538  18.158 
11.600000000  0.0001115 -111.591  1.0001880  -4.599  0.9999573  -4.595  0.0000783  12.057 
11.700000000  0.0000401 122.872  1.0001590  -4.640  0.9998741  -4.637  0.0001363 -74.850 
11.800000000  0.0001236 106.524  1.0001462  -4.682  0.9999115  -4.682  0.0001541  43.417 
11.900000000  0.0002585 -101.948  1.0001614  -4.715  0.9999443  -4.713  0.0000956  -7.043 
12.000000000  0.0000630 134.629  1.0001120  -4.757  0.9999186  -4.757  0.0001282  10.001 
12.100000000  0.0000698  97.878  1.0001328  -4.800  0.9999185  -4.799  0.0001049  55.875 
12.200000000  0.0000644 -137.306  1.0001271  -4.838  0.9999867  -4.839  0.0000782  34.109 
12.300000000  0.0000314 126.172  1.0001145  -4.879  0.9999508  -4.877  0.0000751  59.757 
12.400000000  0.0001353  80.110  1.0001062  -4.921  0.9999771  -4.917  0.0001704  62.413 
12.500000000  0.0002769 -102.214  1.0001337  -4.958  0.9999763  -4.959  0.0001127  -5.375 
12.600000000  0.0002284  93.323  1.0001060  -4.999  0.9999417  -4.998  0.0000391  30.404 
12.700000000  0.0000424 125.959  1.0000646  -5.039  0.9998637  -5.036  0.0001935  64.065 
12.800000000  0.0001648 -106.481  1.0001088  -5.080  0.9998656  -5.079  0.0000270 -60.858 
12.900000000  0.0001773  96.374  1.0001334  -5.118  0.9998747  -5.115  0.0000352  84.650 
13.000000000  0.0000345 -141.407  1.0000552  -5.158  0.9999284  -5.155  0.0001377  61.170 
13.100000000  0.0003047 -99.192  1.0000860  -5.200  0.9997798  -5.193  0.0000805 -43.173 
13.200000000  0.0002591  90.881  1.0001275  -5.240  0.9998280  -5.233  0.0000367 -102.142 
13.300000000  0.0001848 -101.406  1.0000819  -5.278  0.9998830  -5.272  0.0001837  62.240 
13.400000000  0.0001666 -97.793  1.0000812  -5.318  0.9998770  -5.312  0.0002994 -98.363 
13.500000000  0.0001217 108.123  1.0000480  -5.357  0.9998516  -5.356  0.0000895  42.601 
13.600000000  0.0000587 -115.997  1.0000795  -5.397  0.9999072  -5.395  0.0000844  35.159 
13.700000000  0.0001524 -104.825  1.0001464  -5.436  0.9999430  -5.430  0.0002001 -97.028 
13.800000000  0.0000390 -125.119  1.0001285  -5.473  0.9999441  -5.465  0.0001118  53.522 
13.900000000  0.0000460 -150.500  1.0001817  -5.514  0.9999780  -5.513  0.0001614 -93.624 
14.000000000  0.0000846 -122.885  1.0001504  -5.552  0.9999420  -5.549  0.0000877 -58.508 
14.100000000  0.0000657  51.914  1.0001811  -5.592  0.9999268  -5.588  0.0001069  63.596 
14.200000000  0.0000571 -123.781  1.0001817  -5.634  0.9999741  -5.630  0.0001878 -89.560 
14.300000000  0.0000397 174.673  1.0001054  -5.675  0.9999085  -5.670  0.0001374  54.668 
14.400000000  0.0001696 106.087  1.0000872  -5.715  0.9999241  -5.707  0.0001384  67.912 
14.500000000  0.0001509 -102.034  1.0001040  -5.749  0.9998510  -5.750  0.0001361 -109.570 
14.600000000  0.0001213  70.651  1.0001480  -5.788  0.9999366  -5.788  0.0000782  71.249 
14.700000000  0.0000406  54.297  1.0001650  -5.828  0.9998998  -5.828  0.0001329  76.367 
14.800000000  0.0001440 -123.953  1.0001023  -5.870  0.9999047  -5.867  0.0001242 -77.881 
14.900000000  0.0003195  90.856  1.0001256  -5.912  0.9998556  -5.904  0.0001629  90.923 
15.000000000  0.0001904 -91.359  1.0001742  -5.949  0.9999207  -5.947  0.0001380  53.163 
15.100000000  0.0000902 -175.935  1.0001869  -5.991  0.9998730  -5.988  0.0001359 -58.653 
15.200000000  0.0001505 105.352  1.0001662  -6.029  0.9999756  -6.024  0.0000606  66.553 
15.300000000  0.0001023 -133.539  1.0001337  -6.067  0.9999756  -6.067  0.0001021  59.982 
15.400000000  0.0000986 128.218  1.0002198  -6.109  1.0000159  -6.112  0.0001379 -98.902 
15.500000000  0.0000743 -142.192  1.0001710  -6.146  1.0000013  -6.142  0.0001027  53.961 
15.600000000  0.0000657 -167.443  1.0001138  -6.184  0.9998835  -6.185  0.0000690  17.306 
15.700000000  0.0001451 -150.370  1.0001263  -6.223  0.9998940  -6.219  0.0002303 -66.651 
15.800000000  0.0001049 143.343  1.0001391  -6.264  0.9999566  -6.262  0.0002594  61.963 
15.900000000  0.0003029 -111.682  1.0002017  -6.302  0.9999918  -6.297  0.0002447 -74.347 
16.000000000  0.0003314 100.645  1.0001881  -6.342  0.9999568  -6.335  0.0000343 -113.560 
16.100000000  0.0004035 -97.912  1.0001419  -6.383  0.9999522  -6.376  0.0001650  70.279 
16.200000000  0.0001348 130.434  1.0001880  -6.423  0.9999605  -6.416  0.0002275 -85.346 
16.300000000  0.0002226  95.769  1.0002395  -6.464  1.0000913  -6.464  0.0001188  69.296 
16.400000000  0.0003688 -109.580  1.0002232  -6.501  0.9999427  -6.492  0.0003114  35.495 
16.500000000  0.0002807 109.180  1.0002433  -6.544  1.0000201  -6.534  0.0001834 -114.895 
16.600000000  0.0001363  79.283  1.0002441  -6.587  1.0000418  -6.583  0.0000863 -23.364 
16.700000000  0.0001401 -126.072  1.0001629  -6.625  0.9999509  -6.618  0.0001374  64.469 
16.800000000  0.0000693 170.657  1.0001719  -6.666  0.9999682  -6.661  0.0002074 -74.544 
16.900000000  0.0003754 101.800  1.0001498  -6.705  0.9999732  -6.700  0.0002022  68.221 
17.000000000  0.0000931 -107.639  1.0001813  -6.744  0.9999745  -6.736  0.0001235  49.434 
17.100000000  0.0000990 114.562  1.0001671  -6.782  0.9999598  -6.777  0.0001170  28.552 
17.200000000  0.0002612  87.040  1.0002264  -6.827  0.9999259  -6.825  0.0001383  58.603 
17.300000000  0.0000326 164.182  1.0002202  -6.861  1.0000476  -6.861  0.0001072  32.765 
17.400000000  0.0001106 168.973  1.0002053  -6.901  1.0000173  -6.898  0.0000612 105.787 
17.500000000  0.0005064  95.177  1.0002250  -6.944  0.9999848  -6.946  0.0002387  52.626 
17.600000000  0.0002713 -115.736  1.0002625  -6.984  0.9999500  -6.985  0.0000335  79.997 
17.700000000  0.0002016  93.887  1.0002180  -7.027  0.9999703  -7.027  0.0002277  61.002 
17.800000000  0.0002325  97.234  1.0001669  -7.065  0.9999842  -7.066  0.0001638  88.268 
17.900000000  0.0004137 -79.479  1.0002138  -7.098  1.0000198  -7.100  0.0002321 -106.808 
18.000000000  0.0003782  98.252  1.0001869  -7.142  1.0000514  -7.143  0.0000809  97.949 
18.100000000  0.0002755 -99.907  1.0001892  -7.178  1.0000868  -7.178  0.0003308 -120.576 
18.200000000  0.0002241 -84.538  1.0002249  -7.216  1.0000127  -7.222  0.0000323  68.097 
18.300000000  0.0003295 115.040  1.0002163  -7.261  0.9999642  -7.259  0.0000210 -49.422 
18.400000000  0.0003223 -81.659  1.0002330  -7.295  1.0000347  -7.299  0.0001489 -90.345 
18.500000000  0.0002038 -124.589  1.0002301  -7.339  1.0000433  -7.343  0.0001074 -75.037 
18.600000000  0.0002492 102.382  1.0002378  -7.381  0.9999161  -7.385  0.0003860 -115.458 
18.700000000  0.0006587 -94.758  1.0001931  -7.409  0.9999139  -7.413  0.0000758 -114.765 
18.800000000  0.0000975 -149.686  1.0001726  -7.455  0.9999255  -7.456  0.0003849 -80.660 
18.900000000  0.0001559 -179.338  1.0001779  -7.491  0.9999497  -7.495  0.0001912 -10.120 
19.000000000  0.0004307 -110.882  1.0002421  -7.531  0.9999661  -7.527  0.0001395   1.474 
19.100000000  0.0002408 113.923  1.0001902  -7.576  0.9999912  -7.573  0.0002054 -43.604 
19.200000000  0.0002902 123.412  1.0002056  -7.617  0.9999967  -7.614  0.0002155   1.176 
19.300000000  0.0002561 -87.113  1.0001854  -7.654  1.0000177  -7.660  0.0001475  66.449 
19.400000000  0.0001533 -139.443  1.0001766  -7.691  1.0000054  -7.691  0.0002184  -2.326 
19.500000000  0.0005779  90.604  1.0001915  -7.737  1.0000238  -7.731  0.0001060  61.661 
19.600000000  0.0004358 -110.776  1.0002697  -7.767  0.9999693  -7.776  0.0002804  31.166 
19.700000000  0.0006307 104.753  1.0001051  -7.817  1.0000756  -7.808  0.0003007  46.982 
19.800000000  0.0001999  94.584  1.0002043  -7.858  1.0000384  -7.853  0.0001452  36.227 
19.900000000  0.0002489 -124.155  1.0002944  -7.892  1.0000854  -7.890  0.0002701  28.646 
20.000000000  0.0005162  93.867  1.0002021  -7.933  1.0000631  -7.927  0.0000873 149.786 
20.100000000  0.0001787 -109.090  1.0002599  -7.971  1.0000877  -7.974  0.0002167  49.469 
20.200000000  0.0002329 121.323  1.0002468  -8.011  1.0000850  -8.009  0.0001211   4.646 
20.300000000  0.0002304 131.061  1.0002184  -8.053  1.0000263  -8.049  0.0003727  49.698 
20.400000000  0.0001194 -86.456  1.0002706  -8.090  1.0001400  -8.086  0.0000409 -66.157 
20.500000000  0.0001603 153.446  1.0001815  -8.130  1.0000698  -8.130  0.0003605 -82.071 
20.600000000  0.0002205 179.202  1.0002396  -8.170  1.0001688  -8.168  0.0003976  78.973 
20.700000000  0.0001214 -97.704  1.0002154  -8.209  1.0001185  -8.202  0.0002825 -90.929 
20.800000000  0.0003651 -168.829  1.0001955  -8.252  1.0001247  -8.247  0.0002808  -6.765 
20.900000000  0.0001946 104.980  1.0001500  -8.290  1.0000162  -8.286  0.0002962  64.498 
21.000000000  0.0003430 -133.228  1.0002340  -8.326  1.0001387  -8.323  0.0004752 -79.880 
21.100000000  0.0002388 170.165  1.0002037  -8.369  1.0000197  -8.366  0.0002140  51.603 
21.200000000  0.0001215 143.097  1.0002000  -8.402  0.9999857  -8.401  0.0002996 -103.879 
21.300000000  0.0004858 -111.028  1.0002023  -8.441  0.9999950  -8.440  0.0001545 -72.664 
21.400000000  0.0003342 107.129  1.0001294  -8.483  1.0000328  -8.487  0.0003255  30.681 
21.500000000  0.0002661 156.011  1.0001696  -8.527  0.9999618  -8.533  0.0001895 -23.375 
21.600000000  0.0001451 -155.624  1.0002082  -8.562  1.0000500  -8.562  0.0002148  20.237 
21.700000000  0.0002324 123.395  1.0002036  -8.604  1.0000172  -8.605  0.0000808 -51.500 
21.800000000  0.0000845 -145.964  1.0001813  -8.642  1.0000091  -8.644  0.0001244 104.343 
21.900000000  0.0001955 136.098  1.0001878  -8.681  0.9999472  -8.680  0.0001671 -28.545 
22.000000000  0.0004353  94.813  1.0002350  -8.724  1.0000352  -8.723  0.0003306  97.710 
22.100000000  0.0000380 -26.947  1.0002754  -8.759  1.0000334  -8.763  0.0002962  23.852 
22.200000000  0.0002096  91.988  1.0002305  -8.800  1.0000820  -8.807  0.0001353 -70.558 
22.300000000  0.0002320  77.762  1.0001952  -8.843  1.0000174  -8.853  0.0003078 100.978 
22.400000000  0.0002065 -135.018  1.0002503  -8.885  1.0000173  -8.885  0.0000971  33.053 
22.500000000  0.0004581  79.572  1.0001805  -8.928  1.0000489  -8.923  0.0002716 -170.128 
22.600000000  0.0001025 104.939  1.0001733  -8.962  0.9999542  -8.973  0.0007143  66.887 
22.700000000  0.0000864 -84.014  1.0002439  -9.000  1.0000866  -8.995  0.0001976 -97.326 
22.800000000  0.0004784 104.010  1.0002354  -9.042  1.0000755  -9.040  0.0000940 -28.643 
22.900000000  0.0001293 -60.075  1.0002158  -9.077  1.0000136  -9.082  0.0002537  63.580 
23.000000000  0.0002709 -135.538  1.0002048  -9.116  1.0000741  -9.116  0.0004762 -112.693 
23.100000000  0.0002785 101.442  1.0002137  -9.165  1.0000178  -9.166  0.0001568  90.630 
23.200000000  0.0001245 163.750  1.0002380  -9.202  1.0001010  -9.197  0.0001786 -39.677 
23.300000000  0.0004630 -114.088  1.0002009  -9.245  1.0001130  -9.240  0.0002545 -38.513 
23.400000000  0.0001072  91.204  1.0001951  -9.285  1.0000558  -9.280  0.0001730 -62.540 
23.500000000  0.0003167 -141.631  1.0001516  -9.326  1.0000120  -9.323  0.0003346 -67.125 
23.600000000  0.0002414 -133.685  1.0001364  -9.362  0.9999810  -9.361  0.0000234 -19.183 
