# Hz S MA R 50.0 
!freq magS11 angS11 magS21 angS21 magS12 angS12 magS22 angS22
100000000.0 0.000688235280020442 14.433295606109654 0.9994349228758526 -3.269979606458001 0.9994349228758526 -3.269979606458001 0.000688235280020442 14.433295606109654
125000000.0 0.0008140008399880186 6.438687336825766 0.9992921569559875 -4.0801967631186455 0.9992921569559875 -4.0801967631186455 0.0008140008399880186 6.438687336825766
150000000.0 0.0009050050837289073 -1.6991204459085139 0.9991739957191849 -4.8886645176718035 0.9991739957191849 -4.8886645176718035 0.0009050050837289073 -1.6991204459085139
175000000.0 0.0010014912390978012 -9.339463015881547 0.9990351952511355 -5.694555487004059 0.9990351952511355 -5.694555487004059 0.0010014912390978012 -9.339463015881547
200000000.0 0.0010965941796818592 -16.83651284218619 0.9989149870768086 -6.5012166403163905 0.9989149870768086 -6.5012166403163905 0.0010965941796818592 -16.83651284218619
225000000.0 0.001221578115332965 -20.900708073506646 0.9987981679063175 -7.307556776176689 0.9987981679063175 -7.307556776176689 0.001221578115332965 -20.900708073506646
250000000.0 0.0012903516025060354 -26.2205666504789 0.9986956256147145 -8.112494222314455 0.9986956256147145 -8.112494222314455 0.0012903516025060354 -26.2205666504789
275000000.0 0.0014084300390359275 -33.52592447778844 0.9986177839905529 -8.917131963920221 0.9986177839905529 -8.917131963920221 0.0014084300390359275 -33.52592447778844
300000000.0 0.0015371978423646248 -38.99926613037888 0.9985063017483661 -9.721833882228136 0.9985063017483661 -9.721833882228136 0.0015371978423646248 -38.99926613037888
325000000.0 0.0016526467275211642 -42.795184340770064 0.9984360467570712 -10.52599839153103 0.9984360467570712 -10.52599839153103 0.0016526467275211642 -42.795184340770064
350000000.0 0.0017424184685299775 -47.530676335061 0.9983442845448675 -11.330675289810156 0.9983442845448675 -11.330675289810156 0.0017424184685299775 -47.530676335061
375000000.0 0.0018585690070653984 -52.56851293144539 0.9983176466754026 -12.134419139726024 0.9983176466754026 -12.134419139726024 0.0018585690070653984 -52.56851293144539
400000000.0 0.001964806018239882 -55.57481018149445 0.9982387201118571 -12.939168298727818 0.9982387201118571 -12.939168298727818 0.001964806018239882 -55.57481018149445
425000000.0 0.0021043537141586144 -57.826063164763426 0.9981702959796995 -13.743674437744762 0.9981702959796995 -13.743674437744762 0.0021043537141586144 -57.826063164763426
450000000.0 0.002275440305054154 -63.02181831450421 0.9980696840744256 -14.54571974375684 0.9980696840744256 -14.54571974375684 0.002275440305054154 -63.02181831450421
475000000.0 0.0023570713463337925 -65.1923291803671 0.9980043563034988 -15.351647808330416 0.9980043563034988 -15.351647808330416 0.0023570713463337925 -65.1923291803671
500000000.0 0.002542120407531602 -68.52272859333348 0.9979162261317601 -16.156625474913987 0.9979162261317601 -16.156625474913987 0.002542120407531602 -68.52272859333348
525000000.0 0.0027087487040332093 -72.52689805170571 0.9979078631045412 -16.95516475239201 0.9979078631045412 -16.95516475239201 0.0027087487040332093 -72.52689805170571
550000000.0 0.002874668009033706 -75.57715532833343 0.9978693662965039 -17.760605233235744 0.9978693662965039 -17.760605233235744 0.002874668009033706 -75.57715532833343
575000000.0 0.0029757305388611044 -78.38824517562878 0.9977940847779319 -18.566189534793466 0.9977940847779319 -18.566189534793466 0.0029757305388611044 -78.38824517562878
600000000.0 0.003114315459128697 -80.12428650812001 0.9977137221701985 -19.368765311585566 0.9977137221701985 -19.368765311585566 0.003114315459128697 -80.12428650812001
625000000.0 0.0033354362529452205 -83.35400916914388 0.9976476437093372 -20.1703461712797 0.9976476437093372 -20.1703461712797 0.0033354362529452205 -83.35400916914388
650000000.0 0.0034319910048627215 -85.86346713658074 0.9976711612779683 -20.977965566976764 0.9976711612779683 -20.977965566976764 0.0034319910048627215 -85.86346713658074
675000000.0 0.003604018849950562 -87.90835137235528 0.997600935228412 -21.77968081860106 0.997600935228412 -21.77968081860106 0.003604018849950562 -87.90835137235528
700000000.0 0.0037074732232657667 -89.18638303528765 0.9975202135689711 -22.586227584225487 0.9975202135689711 -22.586227584225487 0.0037074732232657667 -89.18638303528765
725000000.0 0.0038930428717727037 -91.82186607469652 0.9974900420974809 -23.38735759787348 0.9974900420974809 -23.38735759787348 0.0038930428717727037 -91.82186607469652
750000000.0 0.004122470353756175 -94.42839145955455 0.9974395417468995 -24.191864588178564 0.9974395417468995 -24.191864588178564 0.004122470353756175 -94.42839145955455
775000000.0 0.004255212438449676 -95.9023468911312 0.9973704604759944 -24.99616258789211 0.9973704604759944 -24.99616258789211 0.004255212438449676 -95.9023468911312
800000000.0 0.004439587379214438 -97.8697774068149 0.9973331007950248 -25.79991019059056 0.9973331007950248 -25.79991019059056 0.004439587379214438 -97.8697774068149
825000000.0 0.004605647948661378 -100.03477847258668 0.9972633499010117 -26.60306693531039 0.9972633499010117 -26.60306693531039 0.004605647948661378 -100.03477847258668
850000000.0 0.004909558751808792 -101.1188094297439 0.9971598486605661 -27.405563519408194 0.9971598486605661 -27.405563519408194 0.004909558751808792 -101.1188094297439
875000000.0 0.005101798164870237 -102.91649339655112 0.9970566603975151 -28.206452954685858 0.9970566603975151 -28.206452954685858 0.005101798164870237 -102.91649339655112
900000000.0 0.005336902386141438 -105.90995209358017 0.9970779833880807 -29.008561276448386 0.9970779833880807 -29.008561276448386 0.005336902386141438 -105.90995209358017
925000000.0 0.005506475013865155 -108.6105266267376 0.9971181703403702 -29.81150139876324 0.9971181703403702 -29.81150139876324 0.005506475013865155 -108.6105266267376
950000000.0 0.0056905306837293015 -110.25361401985667 0.9970351797833914 -30.617360024309587 0.9970351797833914 -30.617360024309587 0.0056905306837293015 -110.25361401985667
975000000.0 0.005876988330542152 -111.28843951081382 0.9969404057350246 -31.42134562307853 0.9969404057350246 -31.42134562307853 0.005876988330542152 -111.28843951081382
1000000000.0 0.00611157204722702 -113.33778406037935 0.9968997837240453 -32.22407942709247 0.9968997837240453 -32.22407942709247 0.00611157204722702 -113.33778406037935
1025000000.0 0.006345403195875044 -114.75551783508757 0.996833731291961 -33.02866354443785 0.996833731291961 -33.02866354443785 0.006345403195875044 -114.75551783508757
1050000000.0 0.006618378375565402 -116.18470830597393 0.9967865959208857 -33.8294030909624 0.9967865959208857 -33.8294030909624 0.006618378375565402 -116.18470830597393
1075000000.0 0.006909310715874393 -118.0682612492575 0.9967465639330287 -34.63015802157729 0.9967465639330287 -34.63015802157729 0.006909310715874393 -118.0682612492575
1100000000.0 0.007171765755879714 -120.21437670931373 0.9967293477235494 -35.43317205274771 0.9967293477235494 -35.43317205274771 0.007171765755879714 -120.21437670931373
1125000000.0 0.0073424115336895406 -122.11186107661828 0.9967237760351926 -36.23834841108468 0.9967237760351926 -36.23834841108468 0.0073424115336895406 -122.11186107661828
1150000000.0 0.0075998820289637815 -123.75662814818426 0.9966718639865102 -37.04320644810218 0.9966718639865102 -37.04320644810218 0.0075998820289637815 -123.75662814818426
1175000000.0 0.007836124156071718 -125.59370559635433 0.9966157177530339 -37.84892088974409 0.9966157177530339 -37.84892088974409 0.007836124156071718 -125.59370559635433
1200000000.0 0.008177661232341935 -126.29969563597065 0.9965124490688217 -38.6508188433785 0.9965124490688217 -38.6508188433785 0.008177661232341935 -126.29969563597065
1225000000.0 0.0085031086858739 -128.42080910315494 0.9965108187158896 -39.453835404596525 0.9965108187158896 -39.453835404596525 0.0085031086858739 -128.42080910315494
1250000000.0 0.008765296745339171 -129.4505757752623 0.9964141136902908 -40.25945744730485 0.9964141136902908 -40.25945744730485 0.008765296745339171 -129.4505757752623
1275000000.0 0.009071468887244869 -130.88404637606402 0.9963167964828624 -41.06291444843403 0.9963167964828624 -41.06291444843403 0.009071468887244869 -130.88404637606402
1300000000.0 0.009465552814535337 -132.1749562358898 0.9962817439267012 -41.864597706308864 0.9962817439267012 -41.864597706308864 0.009465552814535337 -132.1749562358898
1325000000.0 0.009781752278851351 -133.792401814317 0.9962807041439725 -42.66755849637249 0.9962807041439725 -42.66755849637249 0.009781752278851351 -133.792401814317
1350000000.0 0.010131202751628949 -135.1945407678122 0.9962008976624521 -43.47367037751696 0.9962008976624521 -43.47367037751696 0.010131202751628949 -135.1945407678122
1375000000.0 0.010445266683745095 -136.0349460935292 0.9960716696437938 -44.27867059006468 0.9960716696437938 -44.27867059006468 0.010445266683745095 -136.0349460935292
1400000000.0 0.010927479397377175 -137.26995241940216 0.9959909516935004 -45.07747240894662 0.9959909516935004 -45.07747240894662 0.010927479397377175 -137.26995241940216
1425000000.0 0.011315918760533181 -138.9243908099842 0.9959842576163311 -45.8802305877404 0.9959842576163311 -45.8802305877404 0.011315918760533181 -138.9243908099842
1450000000.0 0.011761887703636864 -140.3382449771665 0.995948965071465 -46.6830292172835 0.995948965071465 -46.6830292172835 0.011761887703636864 -140.3382449771665
1475000000.0 0.01214264249446008 -141.6777885672547 0.9958872700357251 -47.48649551729715 0.9958872700357251 -47.48649551729715 0.01214264249446008 -141.6777885672547
1500000000.0 0.012559669144437275 -142.77429372371233 0.9958325996124531 -48.291190495168344 0.9958325996124531 -48.291190495168344 0.012559669144437275 -142.77429372371233
1525000000.0 0.013053712928714994 -144.01311164456436 0.995777570108992 -49.09451648150429 0.995777570108992 -49.09451648150429 0.013053712928714994 -144.01311164456436
1550000000.0 0.013482242143375315 -145.04824478072257 0.9956993771885388 -49.89830812215846 0.9956993771885388 -49.89830812215846 0.013482242143375315 -145.04824478072257
1575000000.0 0.013995899832174509 -146.64895965820435 0.9956501180451963 -50.70097199457397 0.9956501180451963 -50.70097199457397 0.013995899832174509 -146.64895965820435
1600000000.0 0.014537011375989535 -147.80091630328658 0.9955881112280314 -51.504282606292556 0.9955881112280314 -51.504282606292556 0.014537011375989535 -147.80091630328658
1625000000.0 0.014989261148891975 -149.08479226965056 0.9955455386340407 -52.30954728181561 0.9955455386340407 -52.30954728181561 0.014989261148891975 -149.08479226965056
1650000000.0 0.015467221785824194 -150.43177517126747 0.9954397351281471 -53.1149413141836 0.9954397351281471 -53.1149413141836 0.015467221785824194 -150.43177517126747
1675000000.0 0.016039170163623793 -151.24772645396558 0.9953599163796994 -53.919849260957754 0.9953599163796994 -53.919849260957754 0.016039170163623793 -151.24772645396558
1700000000.0 0.016739289422535764 -152.1425137622769 0.9952207469605107 -54.723858588155395 0.9952207469605107 -54.723858588155395 0.016739289422535764 -152.1425137622769
1725000000.0 0.017339853636615988 -152.93758655330325 0.9951291983949886 -55.52504073275131 0.9951291983949886 -55.52504073275131 0.017339853636615988 -152.93758655330325
1750000000.0 0.01812544929098941 -154.04780472285384 0.9950287892934375 -56.32609339048726 0.9950287892934375 -56.32609339048726 0.01812544929098941 -154.04780472285384
1775000000.0 0.018927450993214228 -155.21461917846855 0.994951054627576 -57.12835407629711 0.994951054627576 -57.12835407629711 0.018927450993214228 -155.21461917846855
1800000000.0 0.019609742568916642 -156.3827886675619 0.994912866747745 -57.932199543878404 0.994912866747745 -57.932199543878404 0.019609742568916642 -156.3827886675619
1825000000.0 0.02036601418602334 -157.2305707363846 0.9948201008563021 -58.73760570765801 0.9948201008563021 -58.73760570765801 0.02036601418602334 -157.2305707363846
1850000000.0 0.02116166590507436 -157.95950337634528 0.9946601429040515 -59.54138760255915 0.9946601429040515 -59.54138760255915 0.02116166590507436 -157.95950337634528
1875000000.0 0.02228113480019861 -158.51833411103505 0.9944798510375659 -60.338223771688895 0.9944798510375659 -60.338223771688895 0.02228113480019861 -158.51833411103505
1900000000.0 0.023524450000757764 -160.0550232105927 0.9944762389930285 -61.13619398789451 0.9944762389930285 -61.13619398789451 0.023524450000757764 -160.0550232105927
1925000000.0 0.024513494770049972 -161.42714903336818 0.9944702922432241 -61.94122995932296 0.9944702922432241 -61.94122995932296 0.024513494770049972 -161.42714903336818
1950000000.0 0.025311472448677718 -162.58215613562476 0.9943841781051219 -62.74680959186015 0.9943841781051219 -62.74680959186015 0.025311472448677718 -162.58215613562476
1975000000.0 0.026477389842351002 -162.9327196741245 0.9941729226901038 -63.54938877758982 0.9941729226901038 -63.54938877758982 0.026477389842351002 -162.9327196741245
2000000000.0 0.02805774911901315 -164.03037000134285 0.994110556054404 -64.34469870953367 0.994110556054404 -64.34469870953367 0.02805774911901315 -164.03037000134285
2025000000.0 0.029486329840937953 -165.1038981675767 0.994073988020695 -65.1445523808081 0.994073988020695 -65.1445523808081 0.029486329840937953 -165.1038981675767
2050000000.0 0.030830126406095174 -166.81588861786338 0.994032410642807 -65.9457864273246 0.994032410642807 -65.9457864273246 0.030830126406095174 -166.81588861786338
2075000000.0 0.03214262114850503 -167.76032086974678 0.9939887965970319 -66.7537882780188 0.9939887965970319 -66.7537882780188 0.03214262114850503 -167.76032086974678
2100000000.0 0.03355112424568483 -168.80343726110272 0.993847581271184 -67.56000053071352 0.993847581271184 -67.56000053071352 0.03355112424568483 -168.80343726110272
2125000000.0 0.03521029605077013 -169.70084912071533 0.9936721348901546 -68.36169971622579 0.9936721348901546 -68.36169971622579 0.03521029605077013 -169.70084912071533
2150000000.0 0.03717329803202153 -170.15245758874414 0.9934862522104813 -69.165838860737 0.9934862522104813 -69.165838860737 0.03717329803202153 -170.15245758874414
2175000000.0 0.03913982714028947 -171.21456350717898 0.9933119498685049 -69.96559044067686 0.9933119498685049 -69.96559044067686 0.03913982714028947 -171.21456350717898
2200000000.0 0.041383118736473073 -172.07731355362424 0.9931938293219411 -70.76520286592017 0.9931938293219411 -70.76520286592017 0.041383118736473073 -172.07731355362424
2225000000.0 0.04368152961228841 -173.42504876391234 0.9930560579855914 -71.56533384239117 0.9930560579855914 -71.56533384239117 0.04368152961228841 -173.42504876391234
2250000000.0 0.04641153049345612 -174.10365074287975 0.992876272487017 -72.36723800734507 0.992876272487017 -72.36723800734507 0.04641153049345612 -174.10365074287975
2275000000.0 0.04925716899578523 -175.30669778801348 0.9927446335547322 -73.16691078022592 0.9927446335547322 -73.16691078022592 0.04925716899578523 -175.30669778801348
2300000000.0 0.052209015147681864 -176.39498390783695 0.9925596165862293 -73.96838709757513 0.9925596165862293 -73.96838709757513 0.052209015147681864 -176.39498390783695
2325000000.0 0.05551522112341954 -177.35025610874138 0.9923005674421744 -74.76993223180997 0.9923005674421744 -74.76993223180997 0.05551522112341954 -177.35025610874138
2350000000.0 0.05927212337556845 -178.27390191092493 0.9920481195608639 -75.56943665143916 0.9920481195608639 -75.56943665143916 0.05927212337556845 -178.27390191092493
2375000000.0 0.06353397366848691 -179.27610960718363 0.9916966560196 -76.36924588778076 0.9916966560196 -76.36924588778076 0.06353397366848691 -179.27610960718363
2400000000.0 0.06833672236515075 179.71397684393463 0.9913340849714913 -77.16430278953823 0.9913340849714913 -77.16430278953823 0.06833672236515075 179.71397684393463
2425000000.0 0.0739439171773356 178.81664290072254 0.9909585200524169 -77.95888841533217 0.9909585200524169 -77.95888841533217 0.0739439171773356 178.81664290072254
2450000000.0 0.08014459214411726 177.55903059769372 0.9904759209141539 -78.75312177198992 0.9904759209141539 -78.75312177198992 0.08014459214411726 177.55903059769372
2475000000.0 0.0865314793002417 176.3114379520712 0.989948760337794 -79.54725636567665 0.989948760337794 -79.54725636567665 0.0865314793002417 176.3114379520712
2500000000.0 0.09425091941355995 175.3725590970456 0.9892388729596229 -80.33885982418333 0.9892388729596229 -80.33885982418333 0.09425091941355995 175.3725590970456
2525000000.0 0.10375945955497468 174.36358190320246 0.9882477979138061 -81.12414818920139 0.9882477979138061 -81.12414818920139 0.10375945955497468 174.36358190320246
2550000000.0 0.11597700390379732 173.60421495212503 0.986901348518426 -81.89907415765435 0.986901348518426 -81.89907415765435 0.11597700390379732 173.60421495212503
2575000000.0 0.12944972117966716 172.41536897109947 0.9853104940752563 -82.6588477349435 0.9853104940752563 -82.6588477349435 0.12944972117966716 172.41536897109947
2600000000.0 0.1469805344891818 171.070745961537 0.9830570543373102 -83.39538289391137 0.9830570543373102 -83.39538289391137 0.1469805344891818 171.070745961537
2625000000.0 0.1696498234299537 169.73258318904774 0.9798273901443149 -84.09298313736402 0.9798273901443149 -84.09298313736402 0.1696498234299537 169.73258318904774
2650000000.0 0.19906378474974712 168.2888483320115 0.9750649678998123 -84.72571915280598 0.9750649678998123 -84.72571915280598 0.19906378474974712 168.2888483320115
2675000000.0 0.24092908477970348 166.63205481900724 0.9672691190498176 -85.20607432440903 0.9672691190498176 -85.20607432440903 0.24092908477970348 166.63205481900724
2700000000.0 0.303386423622458 164.29273212080463 0.9539871609905646 -85.30727272473744 0.9539871609905646 -85.30727272473744 0.303386423622458 164.29273212080463
2725000000.0 0.40608852385305777 161.14571872332806 0.9292148793826942 -84.29074260413688 0.9292148793826942 -84.29074260413688 0.40608852385305777 161.14571872332806
2750000000.0 0.6028346562363927 155.61476319213375 0.8928073338168089 -78.52150381671476 0.8928073338168089 -78.52150381671476 0.6028346562363927 155.61476319213375
2775000000.0 1.1273682574552475 142.0232387341077 1.1807559022853402 -58.85352993834242 1.1807559022853402 -58.85352993834242 1.1273682574552475 142.0232387341077
2800000000.0 2.486858575116648 76.06656812493708 2.642941495283896 -102.05707767053106 2.642941495283896 -102.05707767053106 2.486858575116648 76.06656812493708
2825000000.0 1.105820392663851 14.267046225902945 0.7618831725172599 -139.44103900678624 0.7618831725172599 -139.44103900678624 1.105820392663851 14.267046225902945
2850000000.0 0.6103488897198917 1.2636670497673956 0.7868083878366086 -92.36428804227101 0.7868083878366086 -92.36428804227101 0.6103488897198917 1.2636670497673956
2875000000.0 0.41771229087000084 -4.429317638649361 0.9034406892283823 -91.48927101861362 0.9034406892283823 -91.48927101861362 0.41771229087000084 -4.429317638649361
2900000000.0 0.3168972417904131 -7.400877868551941 0.943578148111852 -92.41066692149444 0.943578148111852 -92.41066692149444 0.3168972417904131 -7.400877868551941
2925000000.0 0.25618864702975225 -9.61408707641713 0.9616205974943434 -93.36690021336578 0.9616205974943434 -93.36690021336578 0.25618864702975225 -9.61408707641713
2950000000.0 0.21494889985898694 -11.561923503096004 0.9715157304232248 -94.2868032455124 0.9715157304232248 -94.2868032455124 0.21494889985898694 -11.561923503096004
2975000000.0 0.1852706593387834 -12.871288743184206 0.9772853019299247 -95.1942332380051 0.9772853019299247 -95.1942332380051 0.1852706593387834 -12.871288743184206
3000000000.0 0.16236101030390718 -14.075500415813277 0.9810205919893005 -96.07538506171447 0.9810205919893005 -96.07538506171447 0.16236101030390718 -14.075500415813277
3025000000.0 0.1453073844013125 -15.080941809714771 0.9834421164300263 -96.93460513046998 0.9834421164300263 -96.93460513046998 0.1453073844013125 -15.080941809714771
