!Keysight Technologies,N5247B,MY61255062,A.15.50.07
!Date: Thursday, February 06, 2025 12:00:36
!Correction: S11(Cdelta 2-Port  ) 
!S21(Cdelta 2-Port  ) 
!S12(Cdelta 2-Port  ) 
!S22(Cdelta 2-Port  ) 
!S2P File: Measurements: S11, S21, S12, S22:
# Hz S  MA   R 50
100000000 0.84759969 -38.944931 0.52874523 51.033451 0.52866393 51.024231 0.84753698 -38.714874
125000000 0.78718072 -46.676758 0.61424023 43.268482 0.61411488 43.26532 0.78701806 -46.388302
150000000 0.72800529 -53.559082 0.6823411 36.361912 0.6821965 36.361782 0.72795159 -53.214111
175000000 0.67273968 -59.695179 0.73622966 30.186369 0.73609537 30.18474 0.67260033 -59.299656
200000000 0.62205237 -65.190422 0.77871758 24.652538 0.77856779 24.654482 0.62199014 -64.742271
225000000 0.57626957 -70.129143 0.81257057 19.659164 0.81241447 19.657822 0.57624531 -69.65873
250000000 0.5353651 -74.630226 0.83961147 15.114362 0.83933145 15.115675 0.5352906 -74.120865
275000000 0.49881902 -78.739182 0.86135513 10.942014 0.86116534 10.93963 0.49880427 -78.207664
300000000 0.46613106 -82.558044 0.87906176 7.0774102 0.87879729 7.0779586 0.46609682 -81.981796
325000000 0.43693379 -86.084007 0.89354348 3.4719956 0.89327568 3.4786127 0.43683636 -85.502861
350000000 0.41064313 -89.408997 0.90554738 0.09225934 0.90527326 0.096160643 0.41070244 -88.829292
375000000 0.38715026 -92.540421 0.91561693 -3.1029248 0.9152894 -3.1011496 0.38707283 -91.950378
400000000 0.36575443 -95.503723 0.92395777 -6.1470809 0.92371207 -6.1498551 0.36579064 -94.922569
425000000 0.34638497 -98.324997 0.93120223 -9.0607176 0.93097824 -9.0509138 0.34633255 -97.792816
450000000 0.32895061 -101.03651 0.9372499 -11.8455 0.93692172 -11.845389 0.3289474 -100.53246
475000000 0.3128188 -103.64291 0.94255143 -14.5344 0.94214815 -14.534684 0.31292081 -103.15701
500000000 0.29834601 -106.17198 0.94702619 -17.139841 0.94692016 -17.140186 0.2983759 -105.76617
525000000 0.28489766 -108.56998 0.9507786 -19.67104 0.95077449 -19.671776 0.28485864 -108.26176
550000000 0.27264935 -110.93491 0.95432913 -22.129827 0.9542402 -22.128653 0.27255282 -110.68586
575000000 0.26107019 -113.26688 0.95730674 -24.53499 0.95713741 -24.537786 0.26100618 -113.09539
600000000 0.25053853 -115.41402 0.95975202 -26.890469 0.95939571 -26.892387 0.25034398 -115.37639
625000000 0.24108222 -117.65461 0.96226668 -29.176394 0.96203125 -29.175932 0.24091369 -117.74433
650000000 0.23180971 -119.81621 0.96442807 -31.446455 0.9643684 -31.445635 0.23177114 -120.05389
675000000 0.22336893 -121.92017 0.96633869 -33.67762 0.96600914 -33.676765 0.22317475 -122.31367
700000000 0.21534966 -123.96627 0.96790802 -35.875767 0.96775597 -35.873287 0.21511166 -124.51421
725000000 0.20790374 -125.98466 0.9694826 -38.03252 0.96915787 -38.03001 0.20755644 -126.75193
750000000 0.2012632 -127.98424 0.97075039 -40.160721 0.97050375 -40.154835 0.20082724 -128.93234
775000000 0.19451629 -129.98953 0.97210473 -42.272228 0.97191983 -42.270947 0.19414032 -131.15295
800000000 0.18829681 -131.94743 0.97323555 -44.361351 0.9730193 -44.358112 0.18782334 -133.35477
825000000 0.18231507 -133.85579 0.97418261 -46.43573 0.97400695 -46.436901 0.18198732 -135.54582
850000000 0.17685233 -135.68784 0.97506195 -48.486099 0.97485012 -48.487591 0.17652379 -137.64021
875000000 0.17154574 -137.47235 0.97551906 -50.523479 0.97544986 -50.519222 0.1711808 -139.76067
900000000 0.16697665 -139.24408 0.97622019 -52.511883 0.97617191 -52.507572 0.16667971 -141.9382
925000000 0.16244575 -141.14999 0.97721255 -54.503754 0.97711492 -54.501472 0.16207276 -144.21614
950000000 0.15795957 -142.95837 0.97792292 -56.50185 0.97777629 -56.500462 0.15725647 -146.40448
975000000 0.15368791 -144.62556 0.97815686 -58.476604 0.97808599 -58.474712 0.15302517 -148.49266
1000000000 0.14991689 -146.46088 0.9788996 -60.424076 0.97877491 -60.423576 0.1492569 -150.72209
1025000000 0.14612667 -148.22498 0.9795022 -62.375938 0.9792574 -62.372692 0.14539671 -152.89914
1050000000 0.14244181 -149.92693 0.97987938 -64.319977 0.97988135 -64.315041 0.14186472 -155.11523
1075000000 0.13904959 -151.6676 0.9804213 -66.243439 0.98033309 -66.242874 0.13835679 -157.34882
1100000000 0.13573043 -153.37781 0.9808867 -68.17469 0.9806338 -68.169121 0.13482164 -159.6118
1125000000 0.13243379 -155.03342 0.98126948 -70.092583 0.98108917 -70.088989 0.13154836 -161.8432
1150000000 0.12954421 -156.69087 0.98143005 -71.998146 0.98129249 -71.99836 0.1284976 -164.03032
1175000000 0.12664121 -158.41916 0.98174638 -73.897293 0.98164505 -73.896408 0.12549347 -166.30104
1200000000 0.12380147 -159.96208 0.98196244 -75.794952 0.9818759 -75.794327 0.12277122 -168.50156
1225000000 0.12106444 -161.63199 0.98220587 -77.681747 0.98209006 -77.680901 0.12017009 -170.76691
1250000000 0.11855208 -163.11232 0.98230946 -79.559982 0.98220837 -79.556252 0.11762253 -172.98116
1275000000 0.11606204 -164.6869 0.98253709 -81.433868 0.98239011 -81.432632 0.11519507 -175.37604
1300000000 0.11381669 -166.19232 0.98272628 -83.300758 0.98249322 -83.299927 0.11290729 -177.60239
1325000000 0.11162513 -167.80449 0.98293537 -85.165642 0.98280686 -85.162743 0.11066767 -179.96152
1350000000 0.10943109 -169.37178 0.98312324 -87.029297 0.98294353 -87.026161 0.10853283 177.69301
1375000000 0.10735219 -170.7493 0.9831475 -88.883072 0.98307252 -88.88343 0.10645592 175.34634
1400000000 0.10554612 -172.21819 0.98323476 -90.729698 0.98309577 -90.727669 0.10449445 172.99968
1425000000 0.10365525 -173.75433 0.98344606 -92.572464 0.98336619 -92.574409 0.10261317 170.59299
1450000000 0.10188629 -175.27782 0.9836573 -94.41806 0.98342407 -94.416618 0.10083786 168.18164
1475000000 0.10005089 -176.75575 0.98375577 -96.262337 0.98354781 -96.261093 0.099107303 165.74187
1500000000 0.098437212 -178.21411 0.9838832 -98.099121 0.98364615 -98.097343 0.09743657 163.37436
1525000000 0.096824206 -179.62419 0.98387182 -99.936584 0.98374331 -99.936211 0.095695503 160.97377
1550000000 0.095277138 179.07268 0.98368025 -101.76704 0.98352361 -101.7659 0.094059639 158.66193
1575000000 0.09404891 177.50133 0.98376709 -103.578 0.98372942 -103.57827 0.092941768 156.21561
1600000000 0.09261965 175.98608 0.98395759 -105.40436 0.98389703 -105.40176 0.091493011 153.71979
1625000000 0.091110975 174.58226 0.98401874 -107.22742 0.98394483 -107.22626 0.090035833 151.24171
1650000000 0.089518987 173.14418 0.98422796 -109.04996 0.98395818 -109.0512 0.08874169 148.7067
1675000000 0.088162154 171.81868 0.98414522 -110.8777 0.98392719 -110.87476 0.087446064 146.2554
1700000000 0.087106012 170.54807 0.98392946 -112.6876 0.98391569 -112.68485 0.086331949 143.82347
1725000000 0.085961372 169.1579 0.98397666 -114.49889 0.98388553 -114.49674 0.085215174 141.30383
1750000000 0.084695823 167.82877 0.98388171 -116.31235 0.98391962 -116.31356 0.08415477 138.78091
1775000000 0.083560549 166.50842 0.98384273 -118.12563 0.98386478 -118.12542 0.083139136 136.32016
1800000000 0.082397282 165.23128 0.98381311 -119.93481 0.98383164 -119.93932 0.082036518 133.85612
1825000000 0.081366956 164.15529 0.98356694 -121.74599 0.98351103 -121.74973 0.081007682 131.46011
1850000000 0.080389954 163.03835 0.98329312 -123.54903 0.98317176 -123.55046 0.080158062 129.12756
1875000000 0.07976301 161.93109 0.98289782 -125.34186 0.98270154 -125.34083 0.079371266 126.95953
1900000000 0.079375416 160.6227 0.98267007 -127.10898 0.98250401 -127.11512 0.078996442 124.66451
1925000000 0.078883767 159.21559 0.98274016 -128.88857 0.98263431 -128.89433 0.078638792 122.01598
1950000000 0.078119345 157.84828 0.98283756 -130.67142 0.9826715 -130.67268 0.07823021 119.45893
1975000000 0.077540465 156.44026 0.9829573 -132.45891 0.98273498 -132.45866 0.077714033 116.98804
2000000000 0.076866508 154.88982 0.98308617 -134.24265 0.98289824 -134.24347 0.077200972 114.35188
2025000000 0.076294251 153.47713 0.98316664 -136.02711 0.9830426 -136.02583 0.076843731 111.89247
2050000000 0.075396933 151.9547 0.98341954 -137.81343 0.98326129 -137.81302 0.076440647 109.16013
2075000000 0.074529774 150.62608 0.98357022 -139.60976 0.98338604 -139.60951 0.075962156 106.5443
2100000000 0.073738955 149.24411 0.98355317 -141.4016 0.98333865 -141.40311 0.075518526 103.9092
2125000000 0.072892591 147.90974 0.98358113 -143.19055 0.98358667 -143.19479 0.07506828 101.13559
2150000000 0.072338238 146.75439 0.9837051 -144.99438 0.98355806 -144.99393 0.074316859 98.583328
2175000000 0.071441889 145.47786 0.98353684 -146.78827 0.98350561 -146.78734 0.073647916 96.046028
2200000000 0.07092113 144.45586 0.98333627 -148.5799 0.98317599 -148.58157 0.072974704 93.708549
2225000000 0.070412338 143.12468 0.98305625 -150.35782 0.98293388 -150.35677 0.072590843 91.382454
2250000000 0.06993001 141.8662 0.9830451 -152.14435 0.98287261 -152.14212 0.072142422 89.033089
2275000000 0.069406018 140.59404 0.98276871 -153.92598 0.98269778 -153.92827 0.071590953 86.611626
2300000000 0.068889789 139.40063 0.98263091 -155.70119 0.98251325 -155.70349 0.071263812 84.269447
2325000000 0.068390876 138.12498 0.98254555 -157.48239 0.98248446 -157.47891 0.070892066 81.871529
2350000000 0.067895405 136.8893 0.98240858 -159.25766 0.98229921 -159.2587 0.070454113 79.697937
2375000000 0.067635842 135.6057 0.98224396 -161.03004 0.98228598 -161.03386 0.07026545 77.33577
2400000000 0.067077182 134.33084 0.98215318 -162.80638 0.98208541 -162.81058 0.069884382 74.908722
2425000000 0.066708781 133.09813 0.98203802 -164.58861 0.98194855 -164.58618 0.069545925 72.685364
2450000000 0.066370085 131.91557 0.98195481 -166.36864 0.98175114 -166.36855 0.069046512 70.353973
2475000000 0.066043667 130.80225 0.98150611 -168.14532 0.98149014 -168.14244 0.068423405 68.131302
2500000000 0.065885469 129.57625 0.98128659 -169.90729 0.9811939 -169.90816 0.068035074 66.125305
2525000000 0.065655157 127.99084 0.98108882 -171.66737 0.9809491 -171.66451 0.067685477 64.092232
2550000000 0.065420978 126.43022 0.98114038 -173.42847 0.98099202 -173.42802 0.067571498 61.969639
2575000000 0.064787276 125.04731 0.98111027 -175.19814 0.98106265 -175.19798 0.067212127 59.712963
2600000000 0.064333946 123.76649 0.98087305 -176.97212 0.98085058 -176.96712 0.066800825 57.570511
2625000000 0.064073071 122.41968 0.9806639 -178.72923 0.98058057 -178.73087 0.066525452 55.715511
2650000000 0.063646443 120.95436 0.98070192 179.51451 0.98073947 179.50735 0.066451371 53.547043
2675000000 0.063059218 119.66321 0.98073798 177.72964 0.98062438 177.73015 0.065906592 51.194645
2700000000 0.062615 118.47966 0.98048282 175.95702 0.98042268 175.95412 0.065428607 49.218224
2725000000 0.062323339 117.23933 0.98020095 174.18471 0.98006076 174.18172 0.06480246 47.239212
2750000000 0.062124874 116.05039 0.97977543 172.42181 0.97964114 172.41992 0.064131342 45.486797
2775000000 0.062180873 114.53308 0.97937214 170.68929 0.97930676 170.68625 0.063952804 43.905872
2800000000 0.061999831 112.97459 0.97947913 168.94212 0.97936481 168.94041 0.063819684 41.976578
2825000000 0.061410882 111.45374 0.97949499 167.17714 0.9794417 167.18097 0.06355565 40.032459
2850000000 0.061057825 109.93908 0.97953677 165.43103 0.97936094 165.4249 0.063243732 38.130653
2875000000 0.060666602 108.05975 0.97965753 163.67798 0.97957981 163.67943 0.063158892 36.029919
2900000000 0.060146753 106.61308 0.97979629 161.9174 0.97969103 161.91623 0.06279292 34.019543
2925000000 0.059559751 104.99803 0.97983992 160.15636 0.97976464 160.14909 0.062425189 31.996609
2950000000 0.059069291 103.40668 0.97981358 158.39568 0.97967803 158.39642 0.061901826 30.016312
2975000000 0.058497317 101.70315 0.98002148 156.63997 0.97999316 156.6377 0.061722893 27.923923
3000000000 0.057687577 100.14838 0.98027819 154.86885 0.98010933 154.87154 0.06115339 25.732725
3025000000 0.056832805 98.512466 0.98047107 153.08847 0.98034281 153.09334 0.060519222 23.678873
3050000000 0.05604288 97.165695 0.98045182 151.31999 0.98039114 151.31857 0.05963403 21.489136
3075000000 0.055211801 95.75354 0.98035872 149.54063 0.98032272 149.53275 0.058915459 19.474369
3100000000 0.054562073 94.478127 0.98026502 147.77 0.98017079 147.76804 0.05783207 17.706242
3125000000 0.053917807 93.287659 0.98009157 145.99274 0.97998607 145.99063 0.056956388 15.804178
3150000000 0.053176407 92.084068 0.97978592 144.22198 0.97980762 144.22331 0.055984143 13.999829
3175000000 0.052596241 90.696152 0.97963494 142.46872 0.97942859 142.46748 0.055307336 12.428358
3200000000 0.052123081 89.318512 0.97948951 140.71994 0.97944629 140.7126 0.054379351 10.696639
3225000000 0.051464941 87.847374 0.97929591 138.95708 0.9793933 138.95578 0.053628054 8.9859486
3250000000 0.05082728 86.292137 0.97945666 137.20366 0.9794395 137.19371 0.052891172 7.1781378
3275000000 0.049936272 84.708527 0.97953206 135.43192 0.97939795 135.42885 0.051909219 5.2646766
3300000000 0.04916399 83.335846 0.97950983 133.66853 0.97941601 133.66356 0.050944258 3.5194418
3325000000 0.048317619 81.927902 0.97949904 131.89645 0.97938836 131.89633 0.04988949 1.575242
3350000000 0.047642518 80.642197 0.97941154 130.13672 0.97929883 130.12804 0.048804644 -0.19126332
3375000000 0.04674169 79.232239 0.97926646 128.37102 0.97931999 128.3636 0.047770783 -1.82946
3400000000 0.045880247 77.6427 0.97937232 126.60875 0.97918344 126.59863 0.046691645 -3.5168831
3425000000 0.045117147 76.331116 0.97921008 124.84351 0.97925383 124.83605 0.045595892 -5.2481856
3450000000 0.044108395 74.978012 0.97929281 123.07881 0.97931695 123.07493 0.044479623 -7.0004673
3475000000 0.043070111 73.374069 0.97926456 121.31543 0.97919971 121.30778 0.043117464 -8.6199064
3500000000 0.042082153 71.798714 0.97940004 119.54798 0.97934544 119.53891 0.041975524 -10.524816
3525000000 0.040899564 70.552086 0.97947878 117.77081 0.97933125 117.76891 0.04067849 -12.512581
3550000000 0.039830141 69.351219 0.97936749 115.99471 0.97930956 115.99257 0.039180871 -14.197653
3575000000 0.038655177 68.313568 0.9793334 114.21992 0.97914457 114.22128 0.037670195 -15.85173
3600000000 0.037391793 67.086395 0.9791609 112.4463 0.97914952 112.44085 0.036203224 -17.534277
3625000000 0.03630073 66.022835 0.97910839 110.67093 0.97912252 110.66919 0.03449912 -18.780392
3650000000 0.03507835 65.189583 0.97910714 108.89774 0.97887659 108.88974 0.032988753 -20.504087
3675000000 0.033927351 64.621941 0.97875965 107.11613 0.97871989 107.11513 0.031190287 -21.972057
3700000000 0.032868907 63.890022 0.97843504 105.34664 0.97849101 105.34312 0.02951004 -23.029587
3725000000 0.031995691 63.151733 0.9781763 103.58593 0.97810137 103.58167 0.02793579 -23.925531
3750000000 0.030997239 61.879303 0.97815484 101.83134 0.97809541 101.82854 0.02663794 -24.740763
3775000000 0.029734161 60.794777 0.97831106 100.05911 0.97829688 100.05558 0.025059797 -26.316851
3800000000 0.028205985 60.230705 0.97836697 98.283966 0.97833228 98.277786 0.02343698 -27.936749
3825000000 0.026858153 59.538391 0.97839862 96.500137 0.97835922 96.49704 0.021689666 -28.922207
3850000000 0.025302021 59.641636 0.97836214 94.717712 0.97828102 94.712456 0.019660003 -30.371887
3875000000 0.024009485 60.124046 0.97820151 92.927277 0.97806925 92.929993 0.017655313 -31.229137
3900000000 0.022799302 60.742302 0.97794044 91.145256 0.97790962 91.141151 0.015755473 -31.744797
3925000000 0.021614142 62.396259 0.97760165 89.356842 0.97762167 89.35173 0.013655467 -31.601391
3950000000 0.020551663 63.802662 0.977274 87.574677 0.97714192 87.572662 0.01154394 -29.854321
3975000000 0.01967755 65.264999 0.9769702 85.798012 0.97681743 85.794495 0.0096737407 -27.382727
4000000000 0.018811231 67.266167 0.97667706 84.022507 0.97650665 84.018013 0.007800784 -21.959301
4025000000 0.017876236 69.641724 0.97627556 82.248596 0.97620791 82.240173 0.0061331671 -12.640152
4050000000 0.017238064 71.746613 0.97587711 80.465958 0.97579467 80.463799 0.0048642722 5.5280275
4075000000 0.016750688 74.775803 0.97553188 78.693748 0.97543567 78.689568 0.0043098633 30.363163
4100000000 0.016401455 77.756104 0.97515512 76.919815 0.97498721 76.916679 0.0049251132 54.30735
4125000000 0.015870001 80.898621 0.97470963 75.153137 0.97468942 75.147774 0.0062591778 69.929604
4150000000 0.015473012 84.070335 0.97443348 73.383377 0.97433901 73.379982 0.0080657937 78.935883
4175000000 0.015142498 87.84697 0.97414726 71.618629 0.97409779 71.609749 0.0098332502 84.038292
4200000000 0.015202844 91.548828 0.97384816 69.851563 0.97378296 69.843567 0.011729622 86.442001
4225000000 0.0148436 95.680374 0.97384322 68.090843 0.97369301 68.08371 0.013522923 88.513802
4250000000 0.014774466 100.21422 0.97384506 66.318047 0.97376245 66.310211 0.015447476 89.927055
4275000000 0.014962372 105.20921 0.97382867 64.536972 0.97373956 64.531769 0.017192254 91.335388
4300000000 0.015430471 110.67326 0.97383893 62.746887 0.97388411 62.740105 0.019284431 92.487473
4325000000 0.016289109 115.81824 0.97385222 60.950199 0.97392046 60.946907 0.0215929 93.111664
4350000000 0.017415596 119.92456 0.97361791 59.152294 0.97367555 59.142982 0.023970535 93.461952
4375000000 0.018753923 123.40723 0.97349858 57.352196 0.97344989 57.346256 0.026386447 93.18441
4400000000 0.020365639 125.97021 0.97322839 55.548847 0.97321314 55.542175 0.028940732 92.608101
4425000000 0.022192681 127.90266 0.97282881 53.742455 0.97299039 53.736691 0.031655036 91.654861
4450000000 0.024127653 129.01495 0.97243273 51.935566 0.97241628 51.931126 0.034341004 90.671127
4475000000 0.026033832 129.43527 0.97195667 50.138401 0.97190297 50.130863 0.036895607 89.349991
4500000000 0.028121235 129.55904 0.97151536 48.334259 0.97139871 48.33321 0.039690677 88.205208
4525000000 0.03014854 129.29526 0.97109634 46.530849 0.97099864 46.522968 0.042305607 87.113335
4550000000 0.032204386 128.98058 0.97073847 44.719631 0.97050256 44.718987 0.04516482 85.984901
4575000000 0.034307729 128.33304 0.97015202 42.908791 0.970101 42.906231 0.048093699 84.679268
4600000000 0.036376104 127.69601 0.96947628 41.093315 0.96941817 41.087646 0.051103141 83.387527
4625000000 0.038606744 126.57618 0.96884084 39.28083 0.96872133 39.278992 0.054212749 81.901878
4650000000 0.040926795 125.32748 0.96797585 37.462292 0.96802443 37.454292 0.057280127 80.541985
4675000000 0.043262016 124.30112 0.96737856 35.651314 0.96714085 35.641464 0.060548369 78.878113
4700000000 0.045427818 123.09288 0.96655196 33.834423 0.96652997 33.825443 0.063603379 77.209785
4725000000 0.047731698 121.61449 0.96569085 32.012478 0.96559936 32.005821 0.066808052 75.62059
4750000000 0.050328817 120.00067 0.96497893 30.185867 0.96475554 30.178574 0.069988325 74.165565
4775000000 0.052883867 118.5614 0.96396255 28.351501 0.9638167 28.347397 0.073505566 72.467377
4800000000 0.055640101 116.81096 0.96286601 26.519264 0.96272629 26.505415 0.077125728 70.954811
4825000000 0.058324508 114.91706 0.96158338 24.67214 0.96149498 24.668745 0.080836065 69.286697
4850000000 0.06101165 112.89715 0.96025217 22.835514 0.96002883 22.83387 0.084548205 67.517067
4875000000 0.0638941 110.77956 0.95866358 20.992474 0.95857108 20.987354 0.088509887 65.776085
4900000000 0.066724643 108.5417 0.95706314 19.148666 0.95698738 19.146214 0.092527054 63.905281
4925000000 0.069548078 106.31391 0.95526677 17.300497 0.9550336 17.298225 0.096549325 62.008377
4950000000 0.072480388 103.81216 0.95303214 15.456472 0.95305669 15.452332 0.10089092 60.089397
4975000000 0.075375073 101.14396 0.95101804 13.610388 0.95094061 13.603457 0.10508209 58.15163
5000000000 0.078289591 98.492577 0.94856405 11.761762 0.94842929 11.757263 0.10961282 56.112179
5025000000 0.08127854 95.694038 0.94580787 9.911993 0.9457826 9.9056034 0.1143159 54.021732
5050000000 0.084186122 92.728668 0.94288778 8.061182 0.94283861 8.0569019 0.11920071 51.880905
5075000000 0.087057814 89.724625 0.93950057 6.2267537 0.93940032 6.2178483 0.12418693 49.516045
5100000000 0.089762419 86.433304 0.93580157 4.3977623 0.93568563 4.3885016 0.1292771 47.107006
5125000000 0.092450038 83.083435 0.93183613 2.5766013 0.93185741 2.5691502 0.13433851 44.68866
5150000000 0.095186427 79.531738 0.92757732 0.76530468 0.92758119 0.76468104 0.13976392 42.105579
