!Keysight Technologies,N5247B,MY61255062,A.15.50.07
!Date: Thursday, February 06, 2025 11:58:49
!Correction: S11(Cdelta 2-Port  ) 
!S21(Cdelta 2-Port  ) 
!S12(Cdelta 2-Port  ) 
!S22(Cdelta 2-Port  ) 
!S2P File: Measurements: S11, S21, S12, S22:
# Hz S  MA   R 50
100000000 0.0012890283 8.4613972 0.99899167 -6.5379739 0.99874949 -6.5419188 0.0014605798 13.551181
125000000 0.0015633485 -0.68074429 0.99866694 -8.1599607 0.99850398 -8.1608095 0.0016863506 5.1814404
150000000 0.0017525159 -8.674489 0.99841923 -9.7768593 0.99827975 -9.7778044 0.0018536285 -4.6070824
175000000 0.0019159127 -16.478024 0.99815506 -11.387666 0.99798948 -11.390593 0.0020676218 -13.685383
200000000 0.0021074081 -25.728445 0.99790758 -13.002234 0.99775672 -13.002709 0.0022496113 -21.084532
225000000 0.0024565081 -30.218449 0.99767727 -14.61571 0.99752051 -14.614631 0.0023873914 -26.121998
250000000 0.0026554598 -36.055668 0.99749219 -16.225767 0.99729574 -16.224361 0.0024501691 -32.443947
275000000 0.0028676337 -44.062859 0.99731487 -17.835529 0.99716163 -17.833208 0.0026927113 -40.692436
300000000 0.0030886268 -50.110886 0.99712312 -19.445593 0.99690753 -19.442007 0.002964712 -47.243393
325000000 0.0033704154 -54.646721 0.99698412 -21.054964 0.99676538 -21.049341 0.0031206952 -51.855057
350000000 0.0035412339 -58.485073 0.99680358 -22.664646 0.99657851 -22.658401 0.0032814334 -59.228043
375000000 0.0037751037 -64.84343 0.99675548 -24.26758 0.99651897 -24.270479 0.0034808777 -64.507507
400000000 0.0039915475 -68.618393 0.99653405 -25.876482 0.99642426 -25.880604 0.0036546518 -68.351585
425000000 0.0043122522 -71.084381 0.99641144 -27.488884 0.99627262 -27.486271 0.0038494945 -72.059242
450000000 0.0046280548 -76.694763 0.99621993 -29.089857 0.99606019 -29.093502 0.0041660261 -78.476685
475000000 0.0047764508 -78.417389 0.996104 -30.704443 0.99591422 -30.702633 0.0043040169 -82.838013
500000000 0.0051286994 -82.672516 0.99595058 -32.315647 0.99571359 -32.311359 0.0046242243 -86.832382
525000000 0.0055295262 -87.196106 0.99589109 -33.908112 0.99573714 -33.913029 0.0048219585 -92.025276
550000000 0.0058010486 -90.811638 0.99580801 -35.519978 0.99566412 -35.5229 0.0051378729 -96.106949
575000000 0.0059301136 -94.379631 0.99573368 -37.130081 0.99543619 -37.135078 0.0053406483 -99.723999
600000000 0.006255412 -96.680984 0.99550039 -38.736656 0.99534678 -38.738781 0.0054855188 -102.60149
625000000 0.0066274763 -100.37401 0.99541277 -40.339973 0.99516732 -40.341705 0.005887175 -106.96585
650000000 0.0067902575 -103.09547 0.99545765 -41.957989 0.99521464 -41.954067 0.0060279169 -110.95283
675000000 0.0071269497 -105.62991 0.99534965 -43.562145 0.99503982 -43.556686 0.0062650824 -114.18771
700000000 0.0072645824 -107.36415 0.99507451 -45.173244 0.9949913 -45.171711 0.0064384267 -116.62177
725000000 0.0075902604 -110.36297 0.9950422 -46.774803 0.99490047 -46.774517 0.0067229173 -120.5494
750000000 0.0080057066 -113.06493 0.99495012 -48.386749 0.99478775 -48.380409 0.0070757065 -124.76715
775000000 0.0082221488 -114.92777 0.99482018 -49.991482 0.99464023 -49.992744 0.0072567808 -127.51615
800000000 0.0085219759 -117.6883 0.99467933 -51.601452 0.99462956 -51.597576 0.0075200796 -130.29269
825000000 0.0087647736 -120.07636 0.99460584 -53.203716 0.99442291 -53.207718 0.0077814963 -133.8644
850000000 0.0092233866 -122.22096 0.99439603 -54.809464 0.99421513 -54.811745 0.0082760733 -135.37271
875000000 0.0095769055 -124.20468 0.99424547 -56.412834 0.99395192 -56.411678 0.0084984498 -138.72998
900000000 0.0098709175 -127.55187 0.99425435 -58.017464 0.99402654 -58.01506 0.0089114448 -142.88559
925000000 0.01007833 -130.87573 0.99428993 -59.621323 0.99415135 -59.622581 0.0091565233 -146.532
950000000 0.010392023 -132.99648 0.99418038 -61.233044 0.99392897 -61.233986 0.0093405284 -149.42345
975000000 0.010629038 -134.37161 0.99400163 -62.840424 0.99372816 -62.842281 0.009601051 -151.71953
1000000000 0.01091181 -137.27831 0.99383175 -64.447296 0.99373567 -64.445908 0.0099374233 -154.42609
1025000000 0.011214555 -139.27054 0.99374646 -66.056786 0.99355656 -66.054359 0.010249774 -156.85551
1050000000 0.011554596 -140.89716 0.99368566 -67.657784 0.99342823 -67.655853 0.01066243 -159.64032
1075000000 0.011975665 -143.46971 0.99357998 -69.256752 0.99337459 -69.259338 0.011006286 -162.47498
1100000000 0.012336554 -146.15262 0.99357373 -70.864319 0.99331462 -70.863243 0.011304948 -165.73465
1125000000 0.012451421 -148.17192 0.99355608 -72.472771 0.99331391 -72.47506 0.01155611 -169.03592
1150000000 0.012751047 -150.42761 0.99349445 -74.085045 0.99317127 -74.081665 0.011853683 -171.66321
1175000000 0.013024447 -152.75262 0.99331254 -75.695145 0.9931339 -75.693878 0.012099307 -174.64258
1200000000 0.013425946 -153.87643 0.99315906 -77.297974 0.99287534 -77.297989 0.012534637 -176.48637
1225000000 0.01369122 -156.78572 0.99313122 -78.903587 0.99290371 -78.903687 0.012989849 -179.22672
1250000000 0.01399584 -158.37897 0.99292749 -80.516884 0.99272531 -80.512306 0.013210085 178.63974
1275000000 0.014258461 -160.14835 0.99273694 -82.12188 0.99253398 -82.120445 0.013599144 176.05664
1300000000 0.014647843 -162.10294 0.99270654 -83.72686 0.99243057 -83.721313 0.01407151 173.92366
1325000000 0.014911512 -164.22266 0.99270028 -85.330956 0.99244219 -85.328323 0.01442031 171.28545
1350000000 0.01522323 -166.20084 0.99258786 -86.941315 0.99224597 -86.941605 0.014780118 168.91028
1375000000 0.015467186 -167.1702 0.99226588 -88.551659 0.99205947 -88.550529 0.015123037 166.68947
1400000000 0.015947651 -169.10745 0.99210954 -90.148529 0.99190515 -90.14772 0.015623789 164.60591
1425000000 0.01623302 -171.20732 0.99212164 -91.753639 0.99188232 -91.752747 0.016037725 161.91402
1450000000 0.016645616 -173.08278 0.99207741 -93.358536 0.9918021 -93.358002 0.01645441 159.37749
1475000000 0.016810855 -174.99596 0.99201167 -94.966476 0.99163878 -94.963066 0.016864164 157.23338
1500000000 0.017115297 -176.81667 0.99186766 -96.575386 0.99158132 -96.57196 0.017187005 155.28804
1525000000 0.017478786 -178.65506 0.99176013 -98.179977 0.99149036 -98.17952 0.017631467 153.13039
1550000000 0.017731681 -179.8739 0.9915303 -99.787354 0.99142802 -99.786316 0.018025413 150.81882
1575000000 0.018045099 177.75816 0.99146652 -101.39082 0.99132538 -101.39245 0.018448837 148.48814
1600000000 0.018439729 176.08246 0.9913469 -102.99736 0.99122548 -102.99793 0.018855415 146.28821
1625000000 0.018636161 174.47585 0.99127752 -104.60817 0.99115455 -104.60732 0.019206695 143.87361
1650000000 0.018784212 172.41112 0.99113208 -106.21885 0.99091166 -106.21738 0.019546546 141.81895
1675000000 0.019094259 171.0406 0.99100697 -107.82651 0.9907496 -107.82802 0.019941179 140.04637
1700000000 0.01951253 169.48976 0.99073952 -109.43551 0.99050182 -109.43339 0.020452105 138.30559
1725000000 0.019812103 168.28152 0.99055046 -111.03527 0.99036276 -111.03697 0.020828422 136.42494
1750000000 0.020257913 166.69362 0.99034435 -112.63774 0.99022162 -112.637 0.02140484 134.32829
1775000000 0.020730432 164.85332 0.99024308 -114.23975 0.99007213 -114.24241 0.021880388 132.25723
1800000000 0.021017877 163.1433 0.99022686 -115.84713 0.98999333 -115.84931 0.022216137 130.09378
1825000000 0.02136956 161.94885 0.99005687 -117.45745 0.98985231 -117.45904 0.022612851 128.07079
1850000000 0.021615867 160.60765 0.98976642 -119.06356 0.98956782 -119.06628 0.023041079 126.54041
1875000000 0.022222811 158.93353 0.98949403 -120.65542 0.98920506 -120.65869 0.023599725 125.48417
1900000000 0.0228211 156.58003 0.98946476 -122.24979 0.98934132 -122.2543 0.024354598 123.27876
1925000000 0.023129389 154.98407 0.98953843 -123.8595 0.98935163 -123.86382 0.024893267 120.73672
1950000000 0.023119751 153.43701 0.98944849 -125.47099 0.98919165 -125.47429 0.025217136 118.67603
1975000000 0.023501895 152.30917 0.98907977 -127.07653 0.98882741 -127.07592 0.02566723 117.60447
2000000000 0.024257937 150.68921 0.98899573 -128.66336 0.988837 -128.66768 0.026457392 115.48965
2025000000 0.024780288 148.86765 0.98899686 -130.26395 0.9888615 -130.26472 0.026977632 113.58337
2050000000 0.02502929 146.46118 0.98905045 -131.86472 0.98883462 -131.87001 0.027452542 111.14999
2075000000 0.025208808 144.86784 0.98908359 -133.48375 0.98880345 -133.4823 0.027797293 109.39989
2100000000 0.02545822 143.32573 0.98892379 -135.09465 0.98860025 -135.09616 0.028120233 107.38532
2125000000 0.025738072 141.7506 0.98864514 -136.69748 0.98841769 -136.69928 0.028582005 105.76257
2150000000 0.026281359 140.71625 0.98833823 -138.30603 0.98826301 -138.30389 0.029089883 104.35307
2175000000 0.026638549 139.22081 0.98822176 -139.90269 0.98800147 -139.9066 0.029598694 102.33437
2200000000 0.027125543 137.74402 0.98815155 -141.50264 0.98797184 -141.5045 0.030102655 100.57259
2225000000 0.027359903 135.60614 0.98807758 -143.10661 0.98791438 -143.10489 0.03058462 98.643356
2250000000 0.027866036 134.12648 0.98801851 -144.70815 0.98775393 -144.71025 0.031095691 97.244781
2275000000 0.02830903 132.27802 0.9880445 -146.30731 0.98776883 -146.31488 0.031551018 95.181808
2300000000 0.028526913 130.67885 0.98794138 -147.91612 0.98775041 -147.91812 0.032027096 93.291359
2325000000 0.028881233 129.18158 0.98783171 -149.52235 0.98755103 -149.52466 0.032420002 91.458443
2350000000 0.029167058 127.35538 0.98775315 -151.12506 0.98749256 -151.12836 0.032840714 90.033852
2375000000 0.029573431 125.80084 0.98759931 -152.73042 0.98729444 -152.73483 0.033314124 88.216766
2400000000 0.029951673 124.24519 0.98752457 -154.32823 0.98718321 -154.33435 0.033834267 86.439407
2425000000 0.030360296 122.58971 0.98751372 -155.92836 0.98727214 -155.93321 0.034395419 84.954445
2450000000 0.030765863 120.6145 0.98748684 -157.53616 0.9872359 -157.53937 0.0347909 83.028351
2475000000 0.030893454 118.99755 0.98738986 -159.14995 0.98726958 -159.15007 0.034971509 80.894371
2500000000 0.030930463 117.45954 0.98732054 -160.75861 0.98717612 -160.76199 0.035305023 79.466454
2525000000 0.031281199 115.71098 0.98716098 -162.37096 0.98694527 -162.36937 0.035543688 77.956749
2550000000 0.031917982 114.43658 0.98700672 -163.97169 0.98682338 -163.9704 0.036075048 76.560265
2575000000 0.032134369 112.97104 0.98694414 -165.56993 0.98662943 -165.57619 0.036305875 74.723793
2600000000 0.032384586 111.09888 0.98676896 -167.17525 0.98656559 -167.18138 0.036677416 73.149323
2625000000 0.032713413 109.2507 0.98669446 -168.77786 0.98650795 -168.78296 0.03702895 71.700333
2650000000 0.032907378 107.82129 0.98657364 -170.38589 0.98641598 -170.38994 0.037330739 70.080383
2675000000 0.033310357 106.3704 0.98652959 -171.98695 0.98625118 -171.99261 0.037688103 68.504929
2700000000 0.033632159 104.61681 0.98648185 -173.59244 0.98619586 -173.5975 0.038057856 66.810745
2725000000 0.033902552 102.87304 0.98650163 -175.19566 0.98624957 -175.20065 0.038428523 65.243889
2750000000 0.034028411 100.98392 0.98653448 -176.80904 0.98623675 -176.81293 0.038437258 63.46624
2775000000 0.034226 99.29184 0.98634082 -178.41844 0.98612738 -178.42226 0.038667817 62.066113
2800000000 0.034413788 98.270386 0.98620492 179.96942 0.98590112 179.96942 0.038919006 60.586662
2825000000 0.034697674 96.633385 0.98595172 178.36981 0.98562407 178.36484 0.03919892 59.287388
2850000000 0.034965888 95.115326 0.98581773 176.77095 0.98557311 176.76942 0.039427731 57.833397
2875000000 0.035253048 93.132156 0.98585445 175.16507 0.98557472 175.15866 0.039639778 56.090755
2900000000 0.035413649 91.681259 0.98578399 173.55219 0.98557937 173.54994 0.039818108 54.72216
2925000000 0.035681896 89.79937 0.98564333 171.94658 0.98544508 171.94577 0.039945688 53.243378
2950000000 0.035784923 87.921501 0.98568064 170.34207 0.98542017 170.33946 0.040116221 51.595016
2975000000 0.035936318 86.472694 0.98560268 168.73257 0.98528141 168.72775 0.040282521 50.157448
3000000000 0.035929829 84.826454 0.98534054 167.1207 0.98510486 167.11874 0.040272061 48.724354
3025000000 0.036123417 83.071526 0.98517704 165.51282 0.9849934 165.51053 0.040382475 47.555595
3050000000 0.036185741 81.810928 0.98510474 163.90294 0.98481542 163.89877 0.040245317 46.018898
3075000000 0.036347054 80.322556 0.98484427 162.29843 0.98469454 162.28783 0.04037939 44.61742
3100000000 0.036474589 78.975929 0.98460019 160.6864 0.98444188 160.68333 0.040171914 43.503521
3125000000 0.036772475 77.688263 0.98432058 159.08255 0.98416156 159.07829 0.040297665 42.354378
3150000000 0.037061099 76.080299 0.9840669 157.48804 0.98379225 157.48988 0.040200621 41.249855
3175000000 0.037286907 73.860779 0.98416144 155.90036 0.98380601 155.89873 0.040567592 40.230263
3200000000 0.037539154 72.153061 0.98413527 154.29863 0.98383641 154.29312 0.040551815 38.96159
3225000000 0.037462465 70.456993 0.98398173 152.70125 0.98381203 152.68767 0.040687229 37.756569
3250000000 0.03755004 68.664604 0.98394209 151.0993 0.98384255 151.09131 0.040880699 36.525036
3275000000 0.037622884 66.878784 0.98391134 149.49834 0.9837572 149.48926 0.041056816 35.0947
3300000000 0.037620831 65.231598 0.98402077 147.88828 0.98373598 147.88594 0.041030239 33.708351
3325000000 0.037763502 63.446125 0.98408455 146.28113 0.98394638 146.27893 0.041028466 32.216484
3350000000 0.037786022 62.009644 0.98389256 144.67053 0.98377061 144.66728 0.040912479 30.953588
3375000000 0.037704751 60.201096 0.98386699 143.06674 0.98373443 143.06628 0.040885635 29.766624
3400000000 0.037698038 58.194504 0.98386234 141.46555 0.98363584 141.45747 0.040823784 28.565132
3425000000 0.037703346 56.632317 0.98376572 139.8627 0.98366141 139.85428 0.040711205 27.335375
3450000000 0.037598629 55.047558 0.98377746 138.25198 0.98365688 138.24631 0.040842015 25.892998
3475000000 0.037561867 53.146824 0.98378545 136.64612 0.9835459 136.63992 0.04059061 24.562759
3500000000 0.037674937 51.426819 0.98384184 135.0443 0.98367721 135.03354 0.040577088 23.280294
3525000000 0.037571937 49.702755 0.9838109 133.42935 0.98356599 133.42719 0.040511392 21.812654
3550000000 0.037439853 48.0867 0.98376894 131.82083 0.98356688 131.81773 0.040253613 20.677467
3575000000 0.037177503 46.244003 0.98391002 130.21439 0.98352218 130.20995 0.039913625 19.366318
3600000000 0.037009627 44.299446 0.98380405 128.59895 0.98363703 128.60065 0.039702207 17.912188
3625000000 0.036969204 42.654217 0.98387611 126.98866 0.98362428 126.98872 0.039389584 16.736227
3650000000 0.036758412 40.979652 0.98383743 125.37981 0.98357487 125.37245 0.039123077 15.494791
3675000000 0.036627773 39.22324 0.98382282 123.76687 0.98372418 123.76625 0.038853064 14.361533
3700000000 0.036384821 37.385876 0.98376518 122.1555 0.98363948 122.14705 0.038431272 13.044882
3725000000 0.036111683 35.728321 0.9837513 120.54202 0.98354238 120.53544 0.038010366 11.782415
3750000000 0.035824548 34.048248 0.98372895 118.92984 0.98349458 118.92668 0.037673328 10.828902
3775000000 0.035585165 32.289536 0.98363733 117.31731 0.98353481 117.30731 0.037240315 9.6930494
3800000000 0.035267472 30.548422 0.98357916 115.70089 0.98335421 115.69264 0.036806341 8.6908035
3825000000 0.035206731 29.114092 0.98345834 114.09423 0.98326439 114.08849 0.036544882 7.7481685
3850000000 0.034868445 27.304811 0.9834888 112.48294 0.98324907 112.47495 0.036061991 6.6329927
3875000000 0.03463513 25.544647 0.98350215 110.86258 0.98325831 110.85968 0.035612397 5.6983466
3900000000 0.034473926 23.809866 0.98353595 109.25249 0.98324049 109.24836 0.035333108 4.6310487
3925000000 0.033877783 22.307451 0.98341095 107.63302 0.98319882 107.62601 0.03466291 3.5918231
3950000000 0.033501223 20.315863 0.98338532 106.01994 0.98311365 106.01694 0.034104485 2.7668114
3975000000 0.033349559 18.774563 0.98323637 104.40791 0.98306042 104.40681 0.033723354 1.9456204
4000000000 0.032844953 17.178854 0.9831531 102.79475 0.98303854 102.787 0.033133417 1.013979
4025000000 0.032411192 15.290423 0.98298842 101.18076 0.98290986 101.17521 0.032648616 0.25024033
4050000000 0.032264635 13.475363 0.98300391 99.567825 0.98286629 99.561836 0.032284532 -0.3845537
4075000000 0.031825095 11.957061 0.98301768 97.951729 0.98291606 97.941315 0.031674162 -1.1897329
4100000000 0.031294506 10.422284 0.9829191 96.337456 0.98282838 96.329819 0.031135168 -1.917122
4125000000 0.030864876 8.5542173 0.98276931 94.719521 0.98270267 94.709007 0.030556772 -2.6234868
4150000000 0.030515697 7.0790038 0.98263115 93.101585 0.98255873 93.098442 0.030011583 -2.9964302
4175000000 0.03025935 5.2788472 0.98264593 91.492805 0.98251945 91.485283 0.029527949 -3.7952373
4200000000 0.029742256 3.969239 0.98249036 89.87738 0.98228824 89.867859 0.029039923 -3.9643102
4225000000 0.029287713 1.8308722 0.98239636 88.262291 0.98222405 88.256531 0.028435219 -4.2736545
4250000000 0.028900273 0.0018445326 0.98238486 86.647675 0.98231131 86.639397 0.027869992 -4.4944878
4275000000 0.028571289 -1.5455018 0.98236185 85.035004 0.98216462 85.025902 0.027553476 -5.0945535
4300000000 0.027993554 -3.2867858 0.98226339 83.420525 0.98219669 83.406654 0.026920296 -5.3216729
4325000000 0.027391655 -4.9966202 0.98219687 81.79435 0.98209691 81.7836 0.026384056 -5.5413947
4350000000 0.02696339 -6.2914081 0.98205626 80.177521 0.98193043 80.170876 0.026026199 -5.7851424
4375000000 0.026436675 -8.183753 0.98206842 78.55761 0.98195428 78.54953 0.025454508 -5.7368469
4400000000 0.026058612 -9.6768446 0.98187125 76.950333 0.98182237 76.938347 0.025120271 -5.5546961
4425000000 0.02557826 -11.309961 0.98173612 75.336029 0.98174965 75.324501 0.024786538 -5.5548253
4450000000 0.025060616 -13.146781 0.98161805 73.710388 0.98163229 73.704399 0.024191895 -5.5744028
4475000000 0.02469296 -14.566071 0.98170084 72.101982 0.98152983 72.09066 0.023952425 -5.5656018
4500000000 0.024019873 -16.21032 0.98159128 70.482773 0.98155099 70.471596 0.023409203 -5.2722559
4525000000 0.023496049 -17.892656 0.98147786 68.862015 0.98127508 68.851303 0.023044828 -4.6877985
4550000000 0.023124995 -19.633976 0.98139971 67.245071 0.98114508 67.237167 0.022811914 -4.5831137
4575000000 0.022628834 -21.309351 0.98139256 65.627998 0.98108101 65.620255 0.02265445 -4.1620879
4600000000 0.022165557 -22.965807 0.98119593 64.008621 0.98106921 64.002281 0.022287736 -3.4805129
4625000000 0.02168837 -24.093107 0.98122489 62.393402 0.98096514 62.387688 0.022010991 -3.3984361
4650000000 0.021058286 -25.393167 0.98109996 60.773159 0.98094428 60.763535 0.021758694 -3.020313
4675000000 0.020364081 -27.479124 0.98088354 59.15609 0.98070669 59.146954 0.021455778 -1.9552208
4700000000 0.020017043 -28.999516 0.98091072 57.533073 0.98069316 57.522678 0.0213506 -1.2932351
4725000000 0.019601654 -30.060623 0.98078114 55.913464 0.98053735 55.90255 0.021271499 -0.79185003
4750000000 0.018926613 -31.00761 0.98065484 54.29137 0.98033589 54.282623 0.021066792 -0.22880077
4775000000 0.018462189 -32.551025 0.98052335 52.671143 0.9801594 52.666397 0.021118302 0.91336346
4800000000 0.017973147 -33.69178 0.98017746 51.053989 0.97999179 51.040169 0.021056397 1.6625689
4825000000 0.017654845 -35.483025 0.98002148 49.440929 0.97983366 49.429142 0.021147516 2.240572
4850000000 0.017304242 -36.742615 0.97993261 47.819435 0.97966844 47.813194 0.021355364 2.6635969
4875000000 0.016905913 -37.977123 0.97970551 46.204254 0.97965431 46.193146 0.021460451 3.1120648
4900000000 0.01625723 -39.026253 0.97966218 44.591537 0.97948068 44.57917 0.021506434 3.9223697
4925000000 0.015859593 -40.593712 0.97954923 42.967407 0.97926748 42.960911 0.021747321 4.4306288
4950000000 0.015578778 -42.212841 0.97932798 41.359219 0.97911119 41.341282 0.022086505 4.8759828
4975000000 0.015300998 -43.097095 0.9791916 39.742279 0.97903877 39.732208 0.022391394 4.931262
5000000000 0.015175217 -44.165024 0.97898108 38.130211 0.97882903 38.122013 0.022589333 4.7943215
5025000000 0.014692589 -45.449703 0.97888958 36.514496 0.97871608 36.503067 0.022949779 4.7143774
5050000000 0.014296946 -47.188393 0.97897363 34.899277 0.97871852 34.890633 0.023151897 4.7271667
5075000000 0.013863459 -49.219692 0.97881198 33.282703 0.97861814 33.272007 0.023528337 4.8183975
