!--------------------------------------------------
! S-parameter Generated by TDK Corporation
! Copyright(C) 2015 TDK Corporation.
! All Rights Reserved.
!--------------------------------------------------
! TDK P/N: C0402C0G1C100D020BC (Multilayer Ceramic Chip Capacitors)
! Property: C=10pF
! Size(LxWxT): 0.4x0.2x0.2mm, 0.016x0.0079x0.0079inches
! Model Type: s2p (Touchstone File Format Version 1.0)
! Frequency: DC=Yes Start=100MHz Stop=8500MHz 98points Log-sweep
! Note: 
! Model Generated on Jun. 23, 2015
! Hash(MD5):
!--------------------------------------------------
! Port Assignments:
!
!  1 ---| |--- 2
!
!--------------------------------------------------
! Applicable Conditions:
!   Temperature = 25 degC
!   DC Bias Voltage = 0 V
!   Small Signal Operation
!--------------------------------------------------
! Terms and conditions regarding TDK Simulation Models
! (1)This simulation model is being provided solely for informational purposes. Please refer to the specifications of the products in terms of detailed characteristics of such products.
! (2)In no event shall TDK Corporation of any of its subsidiaries be liable for any loss or damage arising, directly or indirectly, 
!    From any information contained in this simulation model, including, but not limited to loss or damages arising from any inaccuracies, omissions or errors in connection with such information.
! (3)Any and all copyrights on this simulation model are owned by TDK Corporation.
!    Duplication or redistribution of this simulation model without prior written permission from TDK Corporation is prohibited.
! (4)This simulation model is subject to any modification or change without any prior notice.
! (5)Neither TDK Corporation nor any of its subsidiaries shall make any warranty, express or implied, 
!    Including but not limited to the correctness, implied warranties of merchantability and fitness for a particular purpose with respect to this simulation models.
! (6)The use of this simulation model shall be deemed to have consented to the terms and conditions hereof.
!--------------------------------------------------
# MHz S MA R 50
0.00000000000E+00	 9.99999990000E-01	 0.00000000000E+00	 9.99999990000E-09	 0.00000000000E+00	 9.99999990000E-09	 0.00000000000E+00	 9.99999990000E-01	 0.00000000000E+00
1.00000000000E+02	 8.36084550444E-01	-3.20310699441E+01	 5.22314454185E-01	 5.73388409905E+01	 5.21811044583E-01	 5.76056958542E+01	 8.50059012736E-01	-3.18293525807E+01
1.04736513723E+02	 8.24333919366E-01	-3.31799680726E+01	 5.39320754460E-01	 5.61784582710E+01	 5.38794671648E-01	 5.64414000091E+01	 8.39279994555E-01	-3.30222409918E+01
1.09697373069E+02	 8.12460963280E-01	-3.43461870200E+01	 5.56504218589E-01	 5.50068660416E+01	 5.55955583391E-01	 5.52665376370E+01	 8.27965435033E-01	-3.42548080203E+01
1.14893204199E+02	 8.00391857816E-01	-3.55204112382E+01	 5.73959516419E-01	 5.38298501149E+01	 5.73345709472E-01	 5.40929034449E+01	 8.16054000689E-01	-3.55253533522E+01
1.20335136583E+02	 7.88761502898E-01	-3.67503433268E+01	 5.91825988212E-01	 5.26555496930E+01	 5.91301037158E-01	 5.29024183363E+01	 8.03137811372E-01	-3.68267622731E+01
1.26034826842E+02	 7.77262070791E-01	-3.80849718058E+01	 6.10336206688E-01	 5.14054329435E+01	 6.09723378457E-01	 5.16499463687E+01	 7.89100214757E-01	-3.81598752578E+01
1.32004483711E+02	 7.64441707899E-01	-3.95430361261E+01	 6.28677215165E-01	 5.00601812013E+01	 6.27986700991E-01	 5.02964789769E+01	 7.74098586908E-01	-3.94529305794E+01
1.38256894198E+02	 7.49818679137E-01	-4.10300084021E+01	 6.46094782780E-01	 4.86573864100E+01	 6.45309219477E-01	 4.89006923301E+01	 7.58833663006E-01	-4.07322822190E+01
1.44805450965E+02	 7.33822634302E-01	-4.24883275940E+01	 6.62901716771E-01	 4.72619355395E+01	 6.62069989057E-01	 4.75146321823E+01	 7.43628817188E-01	-4.20102818436E+01
1.51664181022E+02	 7.17099985814E-01	-4.38974394850E+01	 6.78962979708E-01	 4.58817678209E+01	 6.78140837600E-01	 4.61353893571E+01	 7.27783543205E-01	-4.33070609445E+01
1.58847775770E+02	 7.00355614244E-01	-4.52646398975E+01	 6.94779776128E-01	 4.45228428922E+01	 6.94018896172E-01	 4.47726161119E+01	 7.11885884629E-01	-4.46153866589E+01
1.66371622469E+02	 6.83394458500E-01	-4.65865956207E+01	 7.10287622232E-01	 4.31748625752E+01	 7.09389988003E-01	 4.34341254047E+01	 6.95451537593E-01	-4.59337561299E+01
1.74251837199E+02	 6.66393698374E-01	-4.78999658085E+01	 7.25508800710E-01	 4.18367027085E+01	 7.24630003627E-01	 4.20948818873E+01	 6.78758605303E-01	-4.72594561103E+01
1.82505299381E+02	 6.49395317029E-01	-4.91952451662E+01	 7.40463913656E-01	 4.05166862840E+01	 7.39518037369E-01	 4.07734237560E+01	 6.61676940602E-01	-4.85715759602E+01
1.91149687932E+02	 6.32021055110E-01	-5.04797386563E+01	 7.54947532188E-01	 3.92040390088E+01	 7.54100250172E-01	 3.94591953426E+01	 6.44388486000E-01	-4.98815589791E+01
2.00203519134E+02	 6.14508724859E-01	-5.17571217603E+01	 7.69206748196E-01	 3.78946310160E+01	 7.68282386937E-01	 3.81449686194E+01	 6.26864434416E-01	-5.11699310406E+01
2.09686186292E+02	 5.96653297769E-01	-5.30085270158E+01	 7.82821377309E-01	 3.65967519859E+01	 7.81926871597E-01	 3.68507113102E+01	 6.09311419058E-01	-5.24604399007E+01
2.19618001282E+02	 5.78680725098E-01	-5.42698072386E+01	 7.96019743182E-01	 3.53179981222E+01	 7.95131023840E-01	 3.55652599854E+01	 5.91759661703E-01	-5.37287896302E+01
2.30020238052E+02	 5.60651207527E-01	-5.55227369199E+01	 8.08447500678E-01	 3.40486087601E+01	 8.07706560957E-01	 3.43086166123E+01	 5.74267628127E-01	-5.49854156739E+01
2.40915178194E+02	 5.42838046434E-01	-5.67445271855E+01	 8.20176286956E-01	 3.28402125433E+01	 8.19537282337E-01	 3.30874975056E+01	 5.57165767425E-01	-5.62415567953E+01
2.52326158671E+02	 5.25949447835E-01	-5.79596975221E+01	 8.31883869876E-01	 3.16625213929E+01	 8.30935140902E-01	 3.19077353672E+01	 5.39885552454E-01	-5.75327793061E+01
2.64277621804E+02	 5.10471640513E-01	-5.92455586173E+01	 8.43729419931E-01	 3.04790889968E+01	 8.42805727721E-01	 3.07255971924E+01	 5.21408736332E-01	-5.88408072287E+01
2.76795167629E+02	 4.94152872743E-01	-6.06409722532E+01	 8.54189529672E-01	 2.92331888203E+01	 8.53294890761E-01	 2.94682483753E+01	 5.03079562779E-01	-5.99168738134E+01
2.89905608729E+02	 4.77536557491E-01	-6.18506406058E+01	 8.63056460972E-01	 2.80524101317E+01	 8.62152117021E-01	 2.82895443679E+01	 4.85726980956E-01	-6.10046542663E+01
3.03637027672E+02	 4.61730948218E-01	-6.28944243934E+01	 8.71698596549E-01	 2.69210370864E+01	 8.70618365943E-01	 2.71606796168E+01	 4.68317342087E-01	-6.21273763539E+01
3.18018837157E+02	 4.46451606021E-01	-6.38428223621E+01	 8.79971168996E-01	 2.58131290185E+01	 8.78870047626E-01	 2.60704487310E+01	 4.50642451319E-01	-6.32273351843E+01
3.33081843022E+02	 4.31129733125E-01	-6.46988054509E+01	 8.88107313066E-01	 2.47351481976E+01	 8.86994859731E-01	 2.49843037393E+01	 4.33357975212E-01	-6.42783860418E+01
3.48858310227E+02	 4.15468590183E-01	-6.55328597813E+01	 8.95665034011E-01	 2.36686965484E+01	 8.94564418113E-01	 2.39203915986E+01	 4.16727686658E-01	-6.52465376234E+01
3.65382031966E+02	 3.99735195425E-01	-6.63513493854E+01	 9.02799192957E-01	 2.26534575071E+01	 9.01716619635E-01	 2.28963971891E+01	 4.01433789364E-01	-6.61682542333E+01
3.82688402053E+02	 3.84352227477E-01	-6.72598225895E+01	 9.10227958258E-01	 2.16910478558E+01	 9.09103960733E-01	 2.19422326307E+01	 3.87234234360E-01	-6.71789263321E+01
4.00814490735E+02	 3.64232800628E-01	-6.92897967689E+01	 9.23246411915E-01	 2.03609041388E+01	 9.21996977652E-01	 2.06179896122E+01	 3.66747236208E-01	-6.89099476625E+01
4.19799124094E+02	 3.41694869434E-01	-7.15734863850E+01	 9.34762290405E-01	 1.89051931459E+01	 9.33447155160E-01	 1.91648719164E+01	 3.45557984265E-01	-7.05043640375E+01
4.39682967218E+02	 3.26780572460E-01	-7.26838002632E+01	 9.38289306618E-01	 1.79875275850E+01	 9.37107422491E-01	 1.82654070914E+01	 3.32838756806E-01	-7.13083574296E+01
4.60508611299E+02	 3.14073574360E-01	-7.36557806430E+01	 9.41903475065E-01	 1.71413418184E+01	 9.40816255340E-01	 1.74298991647E+01	 3.20168483759E-01	-7.23593225950E+01
4.82320664871E+02	 3.02254278666E-01	-7.44645462230E+01	 9.45539807255E-01	 1.63291762155E+01	 9.44506507656E-01	 1.66233564305E+01	 3.07257091507E-01	-7.33951011389E+01
5.05165849354E+02	 2.90206274439E-01	-7.50176384421E+01	 9.49356572632E-01	 1.55445702620E+01	 9.48227425414E-01	 1.58380871246E+01	 2.94120526440E-01	-7.42570799573E+01
5.29093099135E+02	 2.78227729238E-01	-7.55996860194E+01	 9.53921342772E-01	 1.47561824593E+01	 9.53027595202E-01	 1.50585806797E+01	 2.79945155596E-01	-7.49162496202E+01
5.54153666385E+02	 2.64680009766E-01	-7.67560229029E+01	 9.56796658695E-01	 1.39009005256E+01	 9.55933701496E-01	 1.41652805935E+01	 2.67801421731E-01	-7.49135072568E+01
5.80401230842E+02	 2.52757702324E-01	-7.78597766931E+01	 9.58557901227E-01	 1.31762514897E+01	 9.57451129062E-01	 1.34317748266E+01	 2.58240278405E-01	-7.54605588322E+01
6.07892014792E+02	 2.44212614564E-01	-7.87118610720E+01	 9.60374299208E-01	 1.25156439980E+01	 9.59388412767E-01	 1.27641204763E+01	 2.47274286548E-01	-7.63584231719E+01
6.36684903496E+02	 2.36888393804E-01	-7.89546565946E+01	 9.62914513300E-01	 1.18742841636E+01	 9.61758800623E-01	 1.21130253402E+01	 2.35330042865E-01	-7.70594758236E+01
6.66841571325E+02	 2.27250997449E-01	-7.92079092849E+01	 9.66334259083E-01	 1.12000280146E+01	 9.65117809934E-01	 1.14494314491E+01	 2.24148569203E-01	-7.74864801045E+01
6.98426613865E+02	 2.14210557083E-01	-7.97015612811E+01	 9.67806279034E-01	 1.04477038475E+01	 9.66751100765E-01	 1.07039621548E+01	 2.14953275082E-01	-7.69364860452E+01
7.31507686279E+02	 2.04320131491E-01	-8.05008763024E+01	 9.68823703663E-01	 9.87970064010E+00	 9.67926972692E-01	 1.01478880145E+01	 2.09219976814E-01	-7.72384048838E+01
7.66155648227E+02	 1.98605877627E-01	-8.14056826405E+01	 9.70721540128E-01	 9.37188033534E+00	 9.69961047177E-01	 9.62620064741E+00	 2.00830685148E-01	-7.87210513404E+01
8.02444715648E+02	 1.91869266340E-01	-8.22346166892E+01	 9.74442252923E-01	 8.75167470184E+00	 9.73512557947E-01	 8.98303011276E+00	 1.88838118788E-01	-7.96394696871E+01
8.40452619728E+02	 1.80658808745E-01	-8.22762751733E+01	 9.75542169952E-01	 8.08089581753E+00	 9.73717920639E-01	 8.31376039368E+00	 1.81343933925E-01	-7.85666016445E+01
8.80260773400E+02	 1.70623841958E-01	-8.31013503084E+01	 9.76847808243E-01	 7.57973365913E+00	 9.75164456899E-01	 7.85079401451E+00	 1.77802416749E-01	-7.95619102524E+01
9.21954445735E+02	 1.65142723801E-01	-8.46939112009E+01	 9.79654652919E-01	 7.06009958132E+00	 9.78237434390E-01	 7.38192300538E+00	 1.67559597475E-01	-8.15844859170E+01
9.65622944581E+02	 1.60616562990E-01	-8.53316859696E+01	 9.79815992286E-01	 6.40676522423E+00	 9.78961600936E-01	 6.73779974821E+00	 1.58069042786E-01	-8.07471391130E+01
1.01135980787E+03	 1.50201501607E-01	-8.58978957227E+01	 9.79856198074E-01	 5.97428730284E+00	 9.79170314660E-01	 6.27515873761E+00	 1.54415107555E-01	-8.09207231461E+01
1.05926300396E+03	 1.43128587959E-01	-8.70051666313E+01	 9.82025244078E-01	 5.60923313821E+00	 9.81615694421E-01	 5.82359233749E+00	 1.44500867492E-01	-8.19701763582E+01
1.10943514151E+03	 1.40227146168E-01	-8.80541597276E+01	 9.81793572957E-01	 5.05695597258E+00	 9.81240373354E-01	 5.24153919205E+00	 1.39419220872E-01	-8.12803603069E+01
1.16198368924E+03	 1.31599357181E-01	-8.87795036132E+01	 9.81521659442E-01	 4.63577754887E+00	 9.81069590271E-01	 4.84978470687E+00	 1.32951067186E-01	-8.11104423376E+01
1.21702120615E+03	 1.28041712151E-01	-8.89069946689E+01	 9.83695527391E-01	 4.25937992317E+00	 9.82656952877E-01	 4.49848943507E+00	 1.26346627879E-01	-8.06256254562E+01
1.27466558259E+03	 1.23828343090E-01	-8.91911730731E+01	 9.82922243573E-01	 3.80090651066E+00	 9.81680009206E-01	 4.02989517955E+00	 1.21682537609E-01	-8.11479275720E+01
1.33504029284E+03	 1.13192283441E-01	-8.92752191043E+01	 9.84737675209E-01	 3.39721310679E+00	 9.83194188780E-01	 3.60652280178E+00	 1.14778063116E-01	-7.94542632670E+01
1.39827465952E+03	 1.11527615126E-01	-9.15920924613E+01	 9.84261060127E-01	 2.86881424276E+00	 9.83079928786E-01	 3.11744793583E+00	 1.12299627526E-01	-8.09325511782E+01
1.46450413066E+03	 1.01686647437E-01	-9.10744899343E+01	 9.85543427447E-01	 2.44850530675E+00	 9.84336213424E-01	 2.75359012845E+00	 1.04457179880E-01	-7.82920453462E+01
1.53387056979E+03	 1.00089889553E-01	-9.48988664206E+01	 9.85495012236E-01	 1.90831663853E+00	 9.84260830270E-01	 2.27041963012E+00	 1.03481351673E-01	-8.08904141227E+01
1.60652255983E+03	 9.67505043365E-02	-9.38234024166E+01	 9.85601229266E-01	 1.53972280169E+00	 9.84431289553E-01	 1.85061461434E+00	 9.34826371316E-02	-7.78735211891E+01
1.68261572135E+03	 8.91103160112E-02	-9.57981353018E+01	 9.85799312674E-01	 1.10811166996E+00	 9.84824215146E-01	 1.38535802613E+00	 9.08315609476E-02	-7.90693518136E+01
1.76231304590E+03	 8.52511466816E-02	-9.45265713145E+01	 9.86277498837E-01	 6.75778821493E-01	 9.85260009498E-01	 9.40526328844E-01	 8.57538439587E-02	-7.62755389616E+01
1.84578524517E+03	 7.72096882420E-02	-9.80282689192E+01	 9.87347873551E-01	 3.51338687604E-01	 9.86170432407E-01	 5.79061673994E-01	 8.14607103604E-02	-7.82800604107E+01
1.93321111661E+03	 7.41237248568E-02	-9.91673404613E+01	 9.87086872741E-01	-1.51300447528E-01	 9.85871285998E-01	 8.45925663988E-02	 7.57188323651E-02	-7.58777596593E+01
2.02477792645E+03	 6.93026792554E-02	-1.01790308495E+02	 9.88098228594E-01	-5.08728246755E-01	 9.86651846456E-01	-3.01671070054E-01	 7.25833822141E-02	-7.36700254058E+01
2.12068181081E+03	 6.34464211895E-02	-1.01004785514E+02	 9.86893748798E-01	-9.15263935284E-01	 9.85725008913E-01	-7.05730217368E-01	 6.78531868013E-02	-7.01429373763E+01
2.22112819581E+03	 5.85731231898E-02	-1.02902518564E+02	 9.86838851890E-01	-1.29757966631E+00	 9.85711445715E-01	-1.10299884546E+00	 6.35799653998E-02	-7.16830159808E+01
2.32633223762E+03	 5.37651124805E-02	-1.08380737463E+02	 9.87816953068E-01	-1.69697379728E+00	 9.86655098628E-01	-1.52495496457E+00	 6.00962788577E-02	-7.40712635391E+01
2.43651928331E+03	 4.92039568360E-02	-1.09413123037E+02	 9.88710620566E-01	-2.11803943353E+00	 9.87776043516E-01	-1.86155836980E+00	 5.49207525398E-02	-7.16532856767E+01
2.55192535353E+03	 4.53674030728E-02	-1.06965189296E+02	 9.87962913259E-01	-2.55928953762E+00	 9.87046585878E-01	-2.30396866124E+00	 4.76061920830E-02	-6.61253160675E+01
2.67279764812E+03	 4.00272285556E-02	-1.11954082404E+02	 9.88141951715E-01	-3.04158494684E+00	 9.87680339783E-01	-2.72174209429E+00	 4.09048702895E-02	-6.45107593131E+01
2.79939507552E+03	 3.48514490593E-02	-1.21189398821E+02	 9.89087181151E-01	-3.46217669176E+00	 9.87950267856E-01	-3.13426330806E+00	 3.60846380049E-02	-6.42010276162E+01
2.93198880744E+03	 3.00947935270E-02	-1.21086992170E+02	 9.89740819896E-01	-3.99776275475E+00	 9.88040110900E-01	-3.62206058285E+00	 3.48001152697E-02	-6.28763886131E+01
3.07086285968E+03	 2.28255858888E-02	-1.19368766880E+02	 9.88891195008E-01	-4.37108003018E+00	 9.87355631016E-01	-4.15374208980E+00	 3.24205231636E-02	-5.70515649888E+01
3.21631470045E+03	 1.76971408161E-02	-1.25608894300E+02	 9.89313072040E-01	-4.98707740077E+00	 9.87450435295E-01	-4.57699363992E+00	 2.23416048449E-02	-5.10676525088E+01
3.36865588763E+03	 1.42410525399E-02	-1.31771745960E+02	 9.89370939360E-01	-5.32924110102E+00	 9.88333581987E-01	-5.16422514701E+00	 1.95430640890E-02	-5.17055446687E+01
3.52821273604E+03	 7.42033576508E-03	-1.37541043389E+02	 9.89255693073E-01	-5.90220671585E+00	 9.87415972245E-01	-5.49920182611E+00	 1.16233278206E-02	-2.16805606546E+01
3.69532701648E+03	 3.73217646936E-03	 1.58935965971E+02	 9.89233094688E-01	-6.41107288326E+00	 9.87153659074E-01	-6.14106332107E+00	 1.07243132419E-02	-1.86165436384E+00
3.87035668774E+03	 6.03400318700E-03	 6.22341151947E+01	 9.88901405710E-01	-6.92355704610E+00	 9.86530123372E-01	-6.55064654818E+00	 1.03608433536E-02	 5.11881803509E+01
4.05367666340E+03	 1.50051958863E-02	 8.22677158030E+01	 9.89790590306E-01	-7.58561636697E+00	 9.86228600137E-01	-7.02531215691E+00	 1.65462583344E-02	 6.97342058503E+01
4.24567961487E+03	 1.95412855485E-02	 6.85628851153E+01	 9.87382176084E-01	-8.03034506340E+00	 9.86549946080E-01	-7.71396203159E+00	 2.39938175827E-02	 7.44853457819E+01
4.44677681248E+03	 2.74243963562E-02	 5.60628751696E+01	 9.86512294951E-01	-8.54722163701E+00	 9.86371146183E-01	-8.20440281962E+00	 3.05947798525E-02	 8.71479980416E+01
4.65739900645E+03	 3.80273110631E-02	 5.64541256755E+01	 9.86717920909E-01	-9.19144491635E+00	 9.85465400096E-01	-8.80032919039E+00	 3.98598837581E-02	 8.89135336490E+01
4.87799734955E+03	 4.62776383853E-02	 5.48824724395E+01	 9.87231804570E-01	-9.91412013138E+00	 9.84983831141E-01	-9.23878190797E+00	 5.00913893743E-02	 8.81805601163E+01
5.10904436344E+03	 6.28675186219E-02	 5.52839606705E+01	 9.84473671715E-01	-1.03882557497E+01	 9.84330882521E-01	-1.01109226183E+01	 6.09521590149E-02	 8.97245194503E+01
5.35103495085E+03	 7.10657754872E-02	 5.49520366745E+01	 9.83821772740E-01	-1.12231945334E+01	 9.81374282785E-01	-1.06897056975E+01	 7.37220580773E-02	 9.05126466943E+01
5.60448745564E+03	 8.49610075254E-02	 5.61613959107E+01	 9.81865040219E-01	-1.18931826043E+01	 9.80513870021E-01	-1.14818913819E+01	 8.18039689179E-02	 9.09058183053E+01
5.86994477310E+03	 1.00109500431E-01	 5.45365155243E+01	 9.81157838546E-01	-1.24548047992E+01	 9.78549354062E-01	-1.22854477661E+01	 9.61586187487E-02	 8.84321745200E+01
6.14797551284E+03	 1.13164349754E-01	 5.62164455044E+01	 9.76703274896E-01	-1.33423446925E+01	 9.78349977379E-01	-1.28895502060E+01	 1.05194938565E-01	 8.83513714125E+01
6.43917521672E+03	 1.20178043303E-01	 5.59286723272E+01	 9.77099715873E-01	-1.39820973411E+01	 9.74559187040E-01	-1.36541696545E+01	 1.14897907033E-01	 8.79093484424E+01
6.74416763454E+03	 1.30440636283E-01	 5.64489056173E+01	 9.74486032025E-01	-1.46359059476E+01	 9.72660477314E-01	-1.42581097563E+01	 1.22907985743E-01	 8.74552456643E+01
7.06360606008E+03	 1.34753139194E-01	 5.82009513779E+01	 9.74931961743E-01	-1.51466244248E+01	 9.72378517204E-01	-1.48888221334E+01	 1.24166676480E-01	 8.74137797195E+01
7.39817473048E+03	 1.30739315090E-01	 5.83445711421E+01	 9.74698479330E-01	-1.58244761666E+01	 9.72783072207E-01	-1.55634184776E+01	 1.19152891923E-01	 8.87183358507E+01
7.74859029188E+03	 1.19673587766E-01	 6.00721809125E+01	 9.74984489939E-01	-1.65550193508E+01	 9.73605783285E-01	-1.56213857849E+01	 1.07923778344E-01	 8.84704071646E+01
8.11560333442E+03	 9.59214088570E-02	 6.41019958869E+01	 9.78313174254E-01	-1.68337922790E+01	 9.79058037142E-01	-1.63178282105E+01	 8.56696556685E-02	 8.89714441390E+01
8.50000000000E+03	 6.75630862199E-02	 7.41537908346E+01	 9.80385229287E-01	-1.72749237132E+01	 9.80431450956E-01	-1.69040149547E+01	 5.69203955401E-02	 8.24024741023E+01
