# Hz S MA R 50.0 
!freq magS11 angS11 magS21 angS21 magS12 angS12 magS22 angS22
100000000.0 0.0026040543510052576 70.5881267758153 0.9988196528534155 -4.6764236059570425 0.9988196528534155 -4.6764236059570425 0.0026040543510052576 70.5881267758153
125000000.0 0.0036390937191521843 64.71689570287826 0.9985377634944355 -5.832796205346445 0.9985377634944355 -5.832796205346445 0.0036390937191521843 64.71689570287826
150000000.0 0.004057359480324907 60.1090867830622 0.9982353619468416 -6.984900764040048 0.9982353619468416 -6.984900764040048 0.004057359480324907 60.1090867830622
175000000.0 0.004626713265464371 63.50148407657806 0.9979512334366003 -8.13779321327156 0.9979512334366003 -8.13779321327156 0.004626713265464371 63.50148407657806
200000000.0 0.005179745008721456 56.13119214598179 0.997651627639345 -9.287568134689073 0.997651627639345 -9.287568134689073 0.005179745008721456 56.13119214598179
225000000.0 0.005701330015397929 55.856420204120376 0.9973385141575566 -10.435877432879566 0.9973385141575566 -10.435877432879566 0.005701330015397929 55.856420204120376
250000000.0 0.006067286442862647 54.76273060394358 0.9970353933784947 -11.58178931455626 0.9970353933784947 -11.58178931455626 0.006067286442862647 54.76273060394358
275000000.0 0.006442403666079764 50.12357602924022 0.9967625068353109 -12.726375162334438 0.9967625068353109 -12.726375162334438 0.006442403666079764 50.12357602924022
300000000.0 0.00690085657919514 50.16339454133757 0.9964108497274622 -13.872613044638083 0.9964108497274622 -13.872613044638083 0.00690085657919514 50.16339454133757
325000000.0 0.006980017227215549 46.857241178770416 0.9961986931020929 -15.011480323305136 0.9961986931020929 -15.011480323305136 0.006980017227215549 46.857241178770416
350000000.0 0.0073271269470960194 44.5177139110512 0.995862857082993 -16.1554953360321 0.995862857082993 -16.1554953360321 0.0073271269470960194 44.5177139110512
375000000.0 0.007523507123868786 44.43979990304909 0.9956451295839792 -17.29467791080387 0.9956451295839792 -17.29467791080387 0.007523507123868786 44.43979990304909
400000000.0 0.007522798978037507 41.36310156810555 0.9954557904668024 -18.437508454237832 0.9954557904668024 -18.437508454237832 0.007522798978037507 41.36310156810555
425000000.0 0.007772306398994935 40.07287690018312 0.9951819460384934 -19.581818301404883 0.9951819460384934 -19.581818301404883 0.007772306398994935 40.07287690018312
450000000.0 0.007910683009054143 37.42532401427431 0.9948755296028488 -20.722099476702333 0.9948755296028488 -20.722099476702333 0.007910683009054143 37.42532401427431
475000000.0 0.007968416625058152 36.11102039787117 0.9947080692863379 -21.86920076459254 0.9947080692863379 -21.86920076459254 0.007968416625058152 36.11102039787117
500000000.0 0.009085052858763248 31.59199059941927 0.9936836262926415 -23.039112998473808 0.9936836262926415 -23.039112998473808 0.009085052858763248 31.59199059941927
525000000.0 0.007358739664146951 22.03289984219956 0.9937403901871378 -24.078968753016408 0.9937403901871378 -24.078968753016408 0.007358739664146951 22.03289984219956
550000000.0 0.007233742371808531 26.49894318111268 0.9941094273192074 -25.242383307608282 0.9941094273192074 -25.242383307608282 0.007233742371808531 26.49894318111268
575000000.0 0.007476666237178042 24.807406333182495 0.993914075613687 -26.39677059399562 0.993914075613687 -26.39677059399562 0.007476666237178042 24.807406333182495
600000000.0 0.007601443283986689 22.06428346441807 0.9934574669029258 -27.544504624441835 0.9934574669029258 -27.544504624441835 0.007601443283986689 22.06428346441807
625000000.0 0.007374125827436249 18.233728336088404 0.9933308079570285 -28.670326938337027 0.9933308079570285 -28.670326938337027 0.007374125827436249 18.233728336088404
650000000.0 0.007455809054049064 11.027018853621689 0.992593695478533 -29.797973807603764 0.992593695478533 -29.797973807603764 0.007455809054049064 11.027018853621689
675000000.0 0.006374858902629423 10.049490074142664 0.9931051854124074 -30.924632215727183 0.9931051854124074 -30.924632215727183 0.006374858902629423 10.049490074142664
700000000.0 0.0065377189132402366 9.069444490147031 0.993033113156409 -32.077843961517786 0.993033113156409 -32.077843961517786 0.0065377189132402366 9.069444490147031
725000000.0 0.006492729956192239 6.954433099443514 0.9926638941913425 -33.22816856289961 0.9926638941913425 -33.22816856289961 0.006492729956192239 6.954433099443514
750000000.0 0.00626738408279176 -4.495326631312992 0.992053442119843 -34.34945524834965 0.992053442119843 -34.34945524834965 0.00626738408279176 -4.495326631312992
775000000.0 0.005667994482510773 -10.933248927390881 0.9922775685147627 -35.46112105259965 0.9922775685147627 -35.46112105259965 0.005667994482510773 -10.933248927390881
800000000.0 0.004746444324434073 -12.355887187431815 0.9924864906929886 -36.61322716698822 0.9924864906929886 -36.61322716698822 0.004746444324434073 -12.355887187431815
825000000.0 0.005058236682814077 -17.60924994260223 0.9921669575749851 -37.772108815327805 0.9921669575749851 -37.772108815327805 0.005058236682814077 -17.60924994260223
850000000.0 0.004772603784888133 -27.59764486973754 0.9918918648691686 -38.902124457786236 0.9918918648691686 -38.902124457786236 0.004772603784888133 -27.59764486973754
875000000.0 0.005220087381297159 -33.96673079920687 0.9913054350061318 -40.059549293234 0.9913054350061318 -40.059549293234 0.005220087381297159 -33.96673079920687
900000000.0 0.00569232234438651 -62.11774455092878 0.9910333555219445 -41.12802068486319 0.9910333555219445 -41.12802068486319 0.00569232234438651 -62.11774455092878
925000000.0 0.004804943714872735 -66.7576866728116 0.9915229621320978 -42.29615284629338 0.9915229621320978 -42.29615284629338 0.004804943714872735 -66.7576866728116
950000000.0 0.005831160094406527 -73.03884541129196 0.9907719588917884 -43.44566938841698 0.9907719588917884 -43.44566938841698 0.005831160094406527 -73.03884541129196
975000000.0 0.007421476105350986 -93.76429092227878 0.9907439847387222 -44.519930872534836 0.9907439847387222 -44.519930872534836 0.007421476105350986 -93.76429092227878
1000000000.0 0.0074594464207495765 -105.57878063943997 0.9912517552570551 -45.66975261390092 0.9912517552570551 -45.66975261390092 0.0074594464207495765 -105.57878063943997
1025000000.0 0.008146138545270479 -114.35907797903025 0.9913844107672353 -46.82536845236646 0.9913844107672353 -46.82536845236646 0.008146138545270479 -114.35907797903025
1050000000.0 0.009106821521543533 -118.3607181749037 0.9912939695654299 -47.9762946466654 0.9912939695654299 -47.9762946466654 0.009106821521543533 -118.3607181749037
1075000000.0 0.01027700010300173 -123.48736732092344 0.9911234926303184 -49.118555468941715 0.9911234926303184 -49.118555468941715 0.01027700010300173 -123.48736732092344
1100000000.0 0.01192202736637984 -129.40981709739324 0.9911216889812993 -50.26823849217722 0.9911216889812993 -50.26823849217722 0.01192202736637984 -129.40981709739324
1125000000.0 0.013046439284282087 -131.21063714290077 0.9909374679993515 -51.42550168304155 0.9909374679993515 -51.42550168304155 0.013046439284282087 -131.21063714290077
1150000000.0 0.01442412257662071 -134.5434574475934 0.9905857793205878 -52.57623995427212 0.9905857793205878 -52.57623995427212 0.01442412257662071 -134.5434574475934
1175000000.0 0.016834253918278388 -135.8791874210403 0.9901791689104421 -53.722157246023485 0.9901791689104421 -53.722157246023485 0.016834253918278388 -135.8791874210403
1200000000.0 0.01907630339640211 -138.14245372040375 0.989937029573632 -54.85700535578545 0.989937029573632 -54.85700535578545 0.01907630339640211 -138.14245372040375
1225000000.0 0.02098206682753237 -141.53756131759414 0.9898470205995146 -56.020241898504125 0.9898470205995146 -56.020241898504125 0.02098206682753237 -141.53756131759414
1250000000.0 0.0230406088105541 -138.28639097107774 0.9885191120398602 -57.19575201889639 0.9885191120398602 -57.19575201889639 0.0230406088105541 -138.28639097107774
1275000000.0 0.029301298924115374 -138.75261358942407 0.9874721198772609 -58.240393357686905 0.9874721198772609 -58.240393357686905 0.029301298924115374 -138.75261358942407
1300000000.0 0.03306612747163692 -146.49536821903467 0.9884997245302987 -59.358297901936666 0.9884997245302987 -59.358297901936666 0.03306612747163692 -146.49536821903467
1325000000.0 0.03611335722080677 -147.93912596769414 0.9882883386052204 -60.525204874412616 0.9882883386052204 -60.525204874412616 0.03611335722080677 -147.93912596769414
1350000000.0 0.040552464641743925 -150.86926943400755 0.9881062559500874 -61.650860914683584 0.9881062559500874 -61.650860914683584 0.040552464641743925 -150.86926943400755
1375000000.0 0.0441979654590458 -153.36397391089181 0.9881052263770664 -62.823186706389464 0.9881052263770664 -62.823186706389464 0.0441979654590458 -153.36397391089181
1400000000.0 0.048674776899068205 -153.15423374103494 0.98700940169645 -63.97840365550454 0.98700940169645 -63.97840365550454 0.048674776899068205 -153.15423374103494
1425000000.0 0.05639514375494224 -155.5277888066045 0.9866618663552408 -65.06554559791878 0.9866618663552408 -65.06554559791878 0.05639514375494224 -155.5277888066045
1450000000.0 0.0622779794769772 -158.99676876973035 0.9869042778666894 -66.2165823901443 0.9869042778666894 -66.2165823901443 0.0622779794769772 -158.99676876973035
1475000000.0 0.0680642018746613 -160.77192372753103 0.9865405970896295 -67.3823646739021 0.9865405970896295 -67.3823646739021 0.0680642018746613 -160.77192372753103
1500000000.0 0.07489167650288808 -162.55010912264402 0.9858480519316695 -68.5375105687535 0.9858480519316695 -68.5375105687535 0.07489167650288808 -162.55010912264402
1525000000.0 0.08340591511707547 -164.29616857612174 0.9851718350703069 -69.69219430880784 0.9851718350703069 -69.69219430880784 0.08340591511707547 -164.29616857612174
1550000000.0 0.09180136739155696 -165.70314513127778 0.984308685737041 -70.8562246310479 0.984308685737041 -70.8562246310479 0.09180136739155696 -165.70314513127778
1575000000.0 0.10149922103295729 -167.50841683362734 0.9831467293524437 -72.01260378802182 0.9831467293524437 -72.01260378802182 0.10149922103295729 -167.50841683362734
1600000000.0 0.1138959246350429 -168.56295791734829 0.9815462959286928 -73.18025737646907 0.9815462959286928 -73.18025737646907 0.1138959246350429 -168.56295791734829
1625000000.0 0.126744718590257 -170.37735881209494 0.9797713729605786 -74.32359589368032 0.9797713729605786 -74.32359589368032 0.126744718590257 -170.37735881209494
1650000000.0 0.14150411890328898 -171.90917768849607 0.9777897201359793 -75.49127039013271 0.9777897201359793 -75.49127039013271 0.14150411890328898 -171.90917768849607
1675000000.0 0.15930432620541127 -173.24592339190727 0.9745470764267168 -76.6584417545968 0.9745470764267168 -76.6584417545968 0.15930432620541127 -173.24592339190727
1700000000.0 0.1808760124820315 -174.58768962759353 0.9705331358224155 -77.79895547410827 0.9705331358224155 -77.79895547410827 0.1808760124820315 -174.58768962759353
1725000000.0 0.20664806820232867 -176.51937508932585 0.9652842548916546 -78.92544707798541 0.9652842548916546 -78.92544707798541 0.20664806820232867 -176.51937508932585
1750000000.0 0.23614016361496995 -177.9985416365137 0.958218018348292 -80.06270648740579 0.958218018348292 -80.06270648740579 0.23614016361496995 -177.9985416365137
1775000000.0 0.273460431087946 -179.22905277737277 0.9474907601185394 -81.16955848466604 0.9474907601185394 -81.16955848466604 0.273460431087946 -179.22905277737277
1800000000.0 0.3248784253886696 179.675422369014 0.93026212313394 -82.21315489121838 0.93026212313394 -82.21315489121838 0.3248784253886696 179.675422369014
1825000000.0 0.3994075026414511 177.9745362075693 0.9007349551863921 -82.93446105692198 0.9007349551863921 -82.93446105692198 0.3994075026414511 177.9745362075693
1850000000.0 0.5032588067608113 174.6340479310637 0.8523329660275004 -82.56548759643043 0.8523329660275004 -82.56548759643043 0.5032588067608113 174.6340479310637
1875000000.0 0.6492783573012287 170.30807211066968 0.7732419551735393 -78.92617756069495 0.7732419551735393 -78.92617756069495 0.6492783573012287 170.30807211066968
1900000000.0 0.8803074950578192 164.81308744180316 0.7048443863951438 -61.7323058677097 0.7048443863951438 -61.7323058677097 0.8803074950578192 164.81308744180316
1925000000.0 1.3120232308576147 156.16211746983566 1.1143818017653282 -39.21320479279423 1.1143818017653282 -39.21320479279423 1.3120232308576147 156.16211746983566
1950000000.0 2.291592974707948 136.5966241928789 2.263431462769902 -47.76769111957294 2.263431462769902 -47.76769111957294 2.291592974707948 136.5966241928789
1975000000.0 3.5712724735567845 80.468320322115 3.6425769953129987 -98.93594421268989 3.6425769953129987 -98.93594421268989 3.5712724735567845 80.468320322115
2000000000.0 2.1541509228298024 31.233952470920165 2.0333479970556283 -144.03262617568538 2.0333479970556283 -144.03262617568538 2.1541509228298024 31.233952470920165
2025000000.0 1.3019510647729395 15.47282765441492 0.9746886956010672 -151.19367659188597 0.9746886956010672 -151.19367659188597 1.3019510647729395 15.47282765441492
2050000000.0 0.9307637520129021 10.161498855958886 0.5846634282222203 -122.62898356424415 0.5846634282222203 -122.62898356424415 0.9307637520129021 10.161498855958886
2075000000.0 0.7594705514163159 7.877438480533512 0.6730519058653859 -104.37121793822024 0.6730519058653859 -104.37121793822024 0.7594705514163159 7.877438480533512
2100000000.0 0.6585303341390523 2.809657604305559 0.7406384111046082 -97.85417831480461 0.7406384111046082 -97.85417831480461 0.6585303341390523 2.809657604305559
2125000000.0 0.5620449534274417 -1.3889586737808206 0.8122997470888683 -96.23075937225269 0.8122997470888683 -96.23075937225269 0.5620449534274417 -1.3889586737808206
2150000000.0 0.48951187345669633 -4.144055620075602 0.8580077846213133 -96.74512241664358 0.8580077846213133 -96.74512241664358 0.48951187345669633 -4.144055620075602
2175000000.0 0.4338796476249058 -6.065153318169456 0.8872332932391399 -97.8262658401719 0.8872332932391399 -97.8262658401719 0.4338796476249058 -6.065153318169456
2200000000.0 0.3898945952158856 -7.640218789739463 0.9068397136679874 -99.04629365885782 0.9068397136679874 -99.04629365885782 0.3898945952158856 -7.640218789739463
2225000000.0 0.35410297979148125 -8.204730583494936 0.919609637960867 -100.41770371311966 0.919609637960867 -100.41770371311966 0.35410297979148125 -8.204730583494936
2250000000.0 0.32995389066913755 -8.265211298502921 0.9260430745363429 -101.71676395398725 0.9260430745363429 -101.71676395398725 0.32995389066913755 -8.265211298502921
2275000000.0 0.3169415816703122 -8.589255897266172 0.9290458497984821 -102.82180412053349 0.9290458497984821 -102.82180412053349 0.3169415816703122 -8.589255897266172
2300000000.0 0.3057163741783764 -10.488993517960159 0.9335880117239928 -103.77055808154785 0.9335880117239928 -103.77055808154785 0.3057163741783764 -10.488993517960159
2325000000.0 0.29376422622057663 -12.596018140909125 0.9388287155796952 -104.75768310356683 0.9388287155796952 -104.75768310356683 0.29376422622057663 -12.596018140909125
2350000000.0 0.27830459989942635 -14.794740264982778 0.9448951941663619 -105.8672223776833 0.9448951941663619 -105.8672223776833 0.27830459989942635 -14.794740264982778
2375000000.0 0.2654493752690678 -16.1753871273469 0.9486783405089031 -107.03412614729162 0.9486783405089031 -107.03412614729162 0.2654493752690678 -16.1753871273469
2400000000.0 0.2536852540947763 -17.71094509935868 0.9523474058282814 -108.19062794130305 0.9523474058282814 -108.19062794130305 0.2536852540947763 -17.71094509935868
2425000000.0 0.24237086645161118 -19.078750376885484 0.9553438989360364 -109.387597513318 0.9553438989360364 -109.387597513318 0.24237086645161118 -19.078750376885484
2450000000.0 0.23275636289566223 -20.02278576589706 0.9570989950741403 -110.57824205679766 0.9570989950741403 -110.57824205679766 0.23275636289566223 -20.02278576589706
2475000000.0 0.22527484654165447 -20.911432510292148 0.9583207726763724 -111.73414091789832 0.9583207726763724 -111.73414091789832 0.22527484654165447 -20.911432510292148
2500000000.0 0.21877640160080888 -22.304309237988356 0.960138691565756 -112.85930091889713 0.960138691565756 -112.85930091889713 0.21877640160080888 -22.304309237988356
2525000000.0 0.21205683144509083 -23.578875068936224 0.961804272703443 -114.01329704456681 0.961804272703443 -114.01329704456681 0.21205683144509083 -23.578875068936224
2550000000.0 0.2046710183228296 -24.844255115521623 0.963345940741671 -115.19911205853079 0.963345940741671 -115.19911205853079 0.2046710183228296 -24.844255115521623
2575000000.0 0.199050591909064 -25.58697505688718 0.9637257579387466 -116.3648210085178 0.9637257579387466 -116.3648210085178 0.199050591909064 -25.58697505688718
2600000000.0 0.194203552702102 -26.671403676017846 0.9645034938198063 -117.49919822743607 0.9645034938198063 -117.49919822743607 0.194203552702102 -26.671403676017846
2625000000.0 0.18934974846831043 -27.74866413769933 0.9653683460039462 -118.64829028282253 0.9653683460039462 -118.64829028282253 0.18934974846831043 -27.74866413769933
2650000000.0 0.18488239543500118 -28.636263964253793 0.9657274593918065 -119.79395584799714 0.9657274593918065 -119.79395584799714 0.18488239543500118 -28.636263964253793
2675000000.0 0.18214297856164754 -29.868581530468468 0.9664060618038172 -120.88727459667913 0.9664060618038172 -120.88727459667913 0.18214297856164754 -29.868581530468468
2700000000.0 0.17820951935245719 -31.32304028987019 0.9677732320450648 -122.02402174460877 0.9677732320450648 -122.02402174460877 0.17820951935245719 -31.32304028987019
2725000000.0 0.17357865775523834 -32.69893905645339 0.9689657656977549 -123.18782405614915 0.9689657656977549 -123.18782405614915 0.17357865775523834 -32.69893905645339
2750000000.0 0.16910798390965281 -33.633256234355514 0.9693088860841274 -124.36824032326152 0.9693088860841274 -124.36824032326152 0.16910798390965281 -33.633256234355514
2775000000.0 0.16609583303776518 -34.64684340064235 0.9696406358784748 -125.49755317706241 0.9696406358784748 -125.49755317706241 0.16609583303776518 -34.64684340064235
2800000000.0 0.1626869518178997 -35.863708140032585 0.9703186649415011 -126.63888583197983 0.9703186649415011 -126.63888583197983 0.1626869518178997 -35.863708140032585
2825000000.0 0.1591352399626904 -36.931767368663195 0.9707952823574661 -127.80224018271632 0.9707952823574661 -127.80224018271632 0.1591352399626904 -36.931767368663195
2850000000.0 0.15642315158028253 -38.02145377785167 0.9711560361405224 -128.93035131331186 0.9711560361405224 -128.93035131331186 0.15642315158028253 -38.02145377785167
2875000000.0 0.15307575029507528 -39.217479725952536 0.9719338626895 -130.087170582652 0.9719338626895 -130.087170582652 0.15307575029507528 -39.217479725952536
2900000000.0 0.1499610622184422 -40.36147599970935 0.972314155505225 -131.24147858533064 0.972314155505225 -131.24147858533064 0.1499610622184422 -40.36147599970935
2925000000.0 0.147007813711072 -41.38464614549644 0.9726945427370629 -132.3977605190972 0.9726945427370629 -132.3977605190972 0.147007813711072 -41.38464614549644
2950000000.0 0.1444124190486077 -42.562533969474735 0.9730713588375652 -133.5377698317981 0.9730713588375652 -133.5377698317981 0.1444124190486077 -42.562533969474735
2975000000.0 0.14103260453110325 -43.69758272083549 0.9736336946243773 -134.70790739436774 0.9736336946243773 -134.70790739436774 0.14103260453110325 -43.69758272083549
3000000000.0 0.13791263292972644 -44.689379567493084 0.9738074606487462 -135.8813065479584 0.9738074606487462 -135.8813065479584 0.13791263292972644 -44.689379567493084
3025000000.0 0.13513600204564222 -45.473031101796835 0.973539528623406 -137.04349432793327 0.973539528623406 -137.04349432793327 0.13513600204564222 -45.473031101796835
3050000000.0 0.1330137545247722 -46.20730851312933 0.9733440998115521 -138.18168979151176 0.9733440998115521 -138.18168979151176 0.1330137545247722 -46.20730851312933
