!Keysight Technologies,N5247B,MY61255062,A.15.50.07
!Date: Thursday, February 06, 2025 12:34:36
!Correction: S11(Cdelta 2-Port  ) 
!S21(Cdelta 2-Port  ) 
!S12(Cdelta 2-Port  ) 
!S22(Cdelta 2-Port  ) 
!S2P File: Measurements: S11, S21, S12, S22:
# Hz S  MA   R 50
100000000 0.83834833 -42.371811 0.54096937 47.628796 0.54155439 47.648632 0.83903539 -42.194218
125000000 0.77604121 -50.849064 0.62793732 39.168056 0.62866348 39.185867 0.7764796 -50.630398
150000000 0.7142821 -58.428978 0.69565278 31.490383 0.69639856 31.499241 0.71506327 -58.161293
175000000 0.65719247 -65.303871 0.74900001 24.669947 0.74987334 24.678457 0.65770388 -64.94149
200000000 0.60509229 -71.441666 0.79126638 18.416382 0.79214287 18.41853 0.60559213 -71.016609
225000000 0.5576362 -77.03643 0.82385445 12.74877 0.82470608 12.742157 0.55820292 -76.58947
250000000 0.51586062 -82.182358 0.84997064 7.5404468 0.85066694 7.5435033 0.51635295 -81.661087
275000000 0.47875744 -86.903145 0.87064326 2.6944866 0.87136722 2.6990068 0.47912353 -86.324265
300000000 0.44492418 -91.370956 0.88760525 -1.8227726 0.88816816 -1.8319039 0.44538835 -90.745567
325000000 0.41532332 -95.565147 0.90120965 -6.1079755 0.90166485 -6.0882893 0.41592464 -94.82016
350000000 0.38870251 -99.456116 0.91190684 -10.149868 0.91289109 -10.131648 0.38909858 -98.676796
375000000 0.3644855 -103.25964 0.92121893 -13.995794 0.92195731 -13.983316 0.36507466 -102.41698
400000000 0.34333205 -106.85927 0.92867541 -17.706785 0.92948878 -17.688608 0.34404156 -105.91636
425000000 0.32385361 -110.2841 0.93465805 -21.255592 0.93537265 -21.246132 0.32451501 -109.27379
450000000 0.30632398 -113.61795 0.93976653 -24.711109 0.94073725 -24.693405 0.30709374 -112.49152
475000000 0.2908901 -116.86316 0.94422597 -28.027098 0.94509655 -28.01544 0.29176056 -115.71888
500000000 0.27583912 -120.04786 0.94817966 -31.301495 0.94915301 -31.292803 0.27677825 -118.7808
525000000 0.26316401 -123.05241 0.95079869 -34.477097 0.9517563 -34.472939 0.26371288 -121.66695
550000000 0.25111181 -126.2481 0.95427853 -37.587379 0.95500016 -37.582138 0.25191098 -124.77163
575000000 0.23948036 -129.1449 0.95628971 -40.672546 0.95695055 -40.671417 0.24052131 -127.49212
600000000 0.22977129 -132.07979 0.95798594 -43.672325 0.95865977 -43.66251 0.2306072 -130.30789
625000000 0.21966766 -135.00885 0.9599002 -46.66708 0.96063793 -46.652885 0.22090508 -133.00725
650000000 0.21096003 -137.22446 0.95865887 -49.60318 0.95964462 -49.588074 0.21246471 -135.10739
675000000 0.20541598 -140.09019 0.95989615 -52.363251 0.96090811 -52.354259 0.20677243 -137.90689
700000000 0.19867446 -143.00435 0.96187717 -55.169331 0.96280664 -55.163616 0.19981518 -140.76158
725000000 0.19182502 -146.04843 0.96308911 -57.990166 0.96386486 -57.988518 0.19293848 -143.49886
750000000 0.18666443 -149.00044 0.96426785 -60.758774 0.96495771 -60.750641 0.18743755 -146.3139
775000000 0.17907324 -151.71478 0.96501708 -63.609356 0.9657532 -63.590435 0.18051 -148.77754
800000000 0.17294939 -153.61476 0.96240568 -66.416046 0.96312553 -66.394707 0.1746515 -150.56384
825000000 0.17412007 -155.94989 0.9623068 -68.797462 0.96303737 -68.783813 0.17575034 -153.10355
850000000 0.169074 -159.54105 0.96496475 -71.528831 0.96570653 -71.514374 0.17060052 -156.5285
875000000 0.16635284 -162.34674 0.96534365 -74.154289 0.96605742 -74.138405 0.16756812 -159.13934
900000000 0.16290298 -165.4852 0.96699363 -76.828461 0.96768934 -76.813812 0.16402809 -162.25186
925000000 0.15901183 -168.38429 0.96745032 -79.502716 0.96821451 -79.483597 0.16012837 -164.89175
950000000 0.15626465 -171.27187 0.96796948 -82.139465 0.96872228 -82.124069 0.15731585 -167.71579
975000000 0.153743 -174.19778 0.96853262 -84.772873 0.96923012 -84.757904 0.15466715 -170.46567
1000000000 0.15092818 -177.18127 0.96883273 -87.416008 0.96963197 -87.388969 0.15171324 -173.18086
1025000000 0.14877604 -179.94917 0.96894747 -90.046486 0.96992141 -90.025444 0.14942801 -175.95389
1050000000 0.1462861 177.32143 0.96893299 -92.657341 0.9699949 -92.647018 0.14728929 -178.49615
1075000000 0.1440109 174.55615 0.96877724 -95.291321 0.96961582 -95.27935 0.14443004 178.9549
1100000000 0.14235367 172.09134 0.96794283 -97.919304 0.96868891 -97.909004 0.14280233 176.54939
1125000000 0.14020793 170.49217 0.96526635 -100.54397 0.96598786 -100.52661 0.14049891 175.14563
1150000000 0.14343441 168.02626 0.96364826 -102.84669 0.96434855 -102.82493 0.143768 172.95334
1175000000 0.14340942 164.22852 0.96624035 -105.37672 0.96702057 -105.35667 0.14376484 169.1949
1200000000 0.14152235 161.37181 0.9662497 -107.97607 0.96705347 -107.96243 0.1419913 166.65012
1225000000 0.14161663 158.90155 0.96534699 -110.51086 0.96618342 -110.48824 0.14193112 164.17824
1250000000 0.14219004 156.14056 0.96544796 -113.00138 0.96615785 -112.97702 0.14260805 161.33328
1275000000 0.14215024 153.23621 0.96541834 -115.51949 0.96616864 -115.5015 0.14248598 158.76825
1300000000 0.14137919 150.31184 0.96529937 -118.10816 0.96610212 -118.08575 0.14151794 155.98251
1325000000 0.14199798 148.69507 0.96274722 -120.60281 0.96343613 -120.57771 0.14295714 154.34987
1350000000 0.144243 145.62991 0.96302581 -123.00294 0.96378392 -122.97253 0.14487167 151.33133
1375000000 0.14572275 142.65446 0.96355546 -125.47768 0.9643957 -125.44994 0.1462521 148.33545
1400000000 0.1458002 139.76392 0.9638477 -128.01601 0.96480155 -127.9898 0.14615269 145.40425
1425000000 0.14628249 137.20087 0.96280712 -130.53412 0.96374679 -130.50726 0.14673561 143.17975
1450000000 0.14865774 134.94719 0.9619208 -132.95648 0.96281135 -132.93472 0.14912435 140.51184
1475000000 0.15053949 131.80363 0.9627679 -135.40047 0.96366358 -135.38243 0.15088795 137.55824
1500000000 0.1511948 128.79645 0.96294278 -137.91776 0.96381152 -137.89409 0.1511489 134.72487
1525000000 0.15262005 126.08888 0.96299952 -140.41287 0.96395171 -140.39186 0.15260883 131.88852
1550000000 0.1532997 123.3958 0.96268618 -142.92477 0.96369267 -142.90453 0.15329668 129.42392
1575000000 0.15396287 120.53541 0.96235037 -145.44313 0.96340901 -145.41867 0.15374503 126.77502
1600000000 0.15516223 118.39245 0.96130449 -147.96672 0.9623698 -147.93846 0.15529157 124.36347
1625000000 0.15550621 115.82218 0.96036369 -150.47333 0.96140033 -150.44615 0.15569903 122.00072
1650000000 0.15646768 113.98684 0.95804936 -152.98254 0.95908821 -152.95834 0.1571928 120.28442
1675000000 0.15974428 112.13947 0.95586985 -155.35075 0.95701528 -155.32837 0.16069378 117.97632
1700000000 0.16188394 109.69751 0.9548769 -157.77989 0.95590609 -157.75653 0.16288437 115.83031
1725000000 0.1658321 107.67652 0.9529593 -160.12619 0.9539063 -160.10097 0.16696301 113.6133
1750000000 0.17093542 104.94431 0.95338678 -162.40497 0.95434517 -162.37717 0.1716783 110.65655
1775000000 0.17367052 101.66448 0.95487767 -164.80977 0.95589936 -164.78186 0.17416902 107.51266
1800000000 0.17582065 98.645935 0.9558202 -167.27107 0.9569329 -167.24341 0.1760511 104.47112
1825000000 0.17718123 95.821869 0.95623451 -169.75435 0.95734197 -169.73204 0.17730713 101.68375
1850000000 0.17832035 93.093712 0.95605505 -172.24689 0.95722002 -172.22055 0.17861138 99.171028
1875000000 0.17940161 90.613831 0.95564812 -174.74628 0.95675582 -174.7282 0.1797774 96.615356
1900000000 0.18017027 88.467613 0.95384473 -177.24699 0.95484972 -177.22784 0.1809539 94.59198
1925000000 0.1838154 86.563705 0.95166951 -179.56358 0.95267487 -179.55594 0.18504621 92.620796
1950000000 0.18752898 83.765663 0.95258027 178.07053 0.95356798 178.08342 0.18798009 89.593803
1975000000 0.18908526 80.933281 0.95300889 175.60719 0.95400113 175.62503 0.18974191 86.945976
2000000000 0.19028133 78.34127 0.95270795 173.13351 0.95372504 173.14728 0.19098611 84.522804
2025000000 0.19131523 76.033546 0.95157421 170.67245 0.95268553 170.6956 0.19291428 82.135841
2050000000 0.19329146 73.802864 0.95060414 168.2506 0.95165008 168.27275 0.19481435 80.021011
2075000000 0.19560768 71.497353 0.95003551 165.8576 0.95092195 165.8813 0.19751048 77.355171
2100000000 0.19728595 69.015411 0.9498384 163.4252 0.95088458 163.43568 0.1990293 75.001907
2125000000 0.19838119 66.544273 0.94915897 160.96562 0.95012683 160.97665 0.20005643 72.66243
2150000000 0.19955972 64.444542 0.94766814 158.50546 0.94863302 158.52068 0.20150577 70.546761
2175000000 0.20108227 62.542328 0.94559151 156.09657 0.94652021 156.117 0.2037687 68.691048
2200000000 0.2037656 60.495247 0.94389474 153.7767 0.94476151 153.7968 0.20721695 66.475838
2225000000 0.20686404 58.474998 0.94327211 151.44005 0.94419265 151.46397 0.21011059 64.021629
2250000000 0.20976743 56.005104 0.94295037 149.09682 0.94378239 149.12053 0.21258579 61.470425
2275000000 0.21294998 53.691204 0.94230014 146.75298 0.94345438 146.76767 0.21464536 59.307503
2300000000 0.21611291 51.051983 0.94291019 144.43359 0.94397086 144.45999 0.21762055 56.546249
2325000000 0.21783601 48.080597 0.94412434 142.02988 0.94513488 142.04591 0.21889891 54.036263
2350000000 0.21806915 45.51416 0.94414932 139.58452 0.94523221 139.60349 0.21966344 51.563396
2375000000 0.21839948 43.222481 0.94345468 137.15263 0.94440234 137.17303 0.22123197 49.287693
2400000000 0.21950407 41.158535 0.94222581 134.77824 0.94326657 134.7908 0.2225108 47.221817
2425000000 0.22221884 38.916733 0.94185734 132.46011 0.94287258 132.47267 0.2248112 44.788189
2450000000 0.22397092 36.341896 0.94260132 130.10085 0.94356 130.12172 0.22630718 42.174217
2475000000 0.22502333 33.647057 0.94309306 127.70547 0.9442203 127.71834 0.22706693 39.816887
2500000000 0.22557972 31.072409 0.9434731 125.29517 0.94453156 125.30742 0.2274691 37.287601
2525000000 0.22563674 28.5534 0.94343716 122.86942 0.94439667 122.88303 0.22788259 35.068897
2550000000 0.22511332 26.125982 0.94325721 120.4467 0.94421262 120.46488 0.22815633 32.750473
2575000000 0.22445732 23.808359 0.94271988 118.0273 0.94378883 118.0521 0.22890106 30.588329
2600000000 0.22405818 21.58927 0.94200397 115.63453 0.94312537 115.65464 0.2293583 28.371428
2625000000 0.22381045 19.684898 0.94112235 113.27512 0.9422037 113.29693 0.23036087 26.061392
2650000000 0.22388491 17.693113 0.94098389 110.94151 0.94201505 110.97324 0.23123606 23.567432
2675000000 0.22510114 15.267623 0.9415524 108.56939 0.942711 108.60693 0.2307924 21.111406
2700000000 0.22540528 13.113594 0.94166839 106.18365 0.9429757 106.21298 0.23020446 18.755732
2725000000 0.225208 10.840584 0.94201291 103.80782 0.9433338 103.83435 0.22979467 16.338516
2750000000 0.22542724 8.4209471 0.94221008 101.40914 0.94350708 101.42674 0.2285773 14.165368
2775000000 0.22499199 6.2100215 0.94210941 99.008911 0.9434917 99.029411 0.22802405 11.956436
2800000000 0.22449462 3.8382006 0.94221783 96.636314 0.94362622 96.654655 0.22748925 9.6906843
2825000000 0.22421829 1.4721693 0.94249082 94.243645 0.9438439 94.263023 0.22639018 7.3995237
2850000000 0.22322708 -0.74811083 0.9427256 91.856186 0.94398975 91.87571 0.22523297 5.0101266
2875000000 0.22210616 -3.1169307 0.94282591 89.461632 0.94400549 89.467171 0.22402163 2.9735255
2900000000 0.22144589 -5.5021691 0.94312644 87.081818 0.94435781 87.09716 0.22216432 0.55456454
2925000000 0.21992378 -7.7577477 0.9434489 84.664352 0.94476098 84.680855 0.22045325 -1.7007381
2950000000 0.21867083 -10.115668 0.94319659 82.268608 0.94466347 82.279137 0.21840706 -3.7542996
2975000000 0.21734351 -12.366283 0.94309694 79.890152 0.94438148 79.896645 0.21629162 -5.6696315
3000000000 0.21579617 -14.735607 0.94341314 77.529564 0.94457448 77.537018 0.21544258 -7.9266968
3025000000 0.21429339 -17.274977 0.94393259 75.139023 0.94515634 75.161423 0.2138111 -10.100414
3050000000 0.21221431 -19.606079 0.94446653 72.745148 0.94576931 72.7612 0.2116192 -12.413407
3075000000 0.20926505 -22.035824 0.9448337 70.342537 0.94621581 70.36692 0.20887084 -14.683435
3100000000 0.20719543 -24.585638 0.94527811 67.953979 0.94652766 67.969933 0.20659834 -16.658474
3125000000 0.20413543 -26.792278 0.94590402 65.554115 0.94727117 65.573883 0.20403805 -18.891611
3150000000 0.2005391 -29.313583 0.94649398 63.147579 0.94772869 63.161156 0.20205449 -21.12431
3175000000 0.19782791 -31.588923 0.94701153 60.734241 0.94834268 60.751755 0.19910581 -23.306067
3200000000 0.19376045 -33.808632 0.94764853 58.326981 0.94894558 58.334801 0.19597501 -25.799282
3225000000 0.18964542 -36.267349 0.94798106 55.89854 0.94937617 55.908417 0.19270237 -27.832035
3250000000 0.18637677 -38.46347 0.94833076 53.487576 0.94966304 53.49855 0.18931001 -30.050291
3275000000 0.18182935 -40.293541 0.94863838 51.065304 0.95006037 51.082649 0.18570417 -32.283997
3300000000 0.17773743 -42.66444 0.94920486 48.662838 0.95061642 48.681355 0.18250208 -34.573662
3325000000 0.17471488 -44.632652 0.94977093 46.262859 0.9511987 46.264637 0.17872958 -36.756771
3350000000 0.17026889 -46.576881 0.9506098 43.823486 0.95199567 43.831875 0.17377551 -39.192905
3375000000 0.16672125 -48.917713 0.95105237 41.389282 0.95238119 41.400097 0.17007527 -41.177467
3400000000 0.16271503 -50.840099 0.95153272 38.952099 0.95289892 38.965443 0.16545324 -43.335289
3425000000 0.15804482 -52.946659 0.95201516 36.528271 0.95343471 36.532082 0.16142443 -45.668732
3450000000 0.15397806 -55.275295 0.95255411 34.088646 0.95403546 34.094852 0.15666209 -47.717125
3475000000 0.14980693 -57.207527 0.95305496 31.652702 0.95443285 31.65638 0.15174617 -50.152973
3500000000 0.14478496 -59.339569 0.95367944 29.197536 0.95508438 29.207811 0.14659102 -52.209167
3525000000 0.1404472 -61.748196 0.95400423 26.75087 0.95551121 26.760725 0.14191589 -54.21439
3550000000 0.13522017 -63.55978 0.95443988 24.294046 0.95602387 24.303089 0.13595751 -56.5798
3575000000 0.13027219 -65.855255 0.95480371 21.832262 0.95610791 21.842283 0.13162342 -58.770645
3600000000 0.12534055 -67.920143 0.95486236 19.369442 0.95620948 19.383484 0.12554441 -60.848072
3625000000 0.11952101 -69.902603 0.9548527 16.922581 0.9563179 16.933584 0.11972532 -63.290112
3650000000 0.1137923 -72.197014 0.95527023 14.477206 0.95664495 14.483754 0.11422078 -64.921776
3675000000 0.10842786 -74.164703 0.95535624 12.027946 0.95687115 12.037627 0.10843256 -67.120232
3700000000 0.10226757 -75.768051 0.95565099 9.5732336 0.95724928 9.5798883 0.10230298 -69.290504
3725000000 0.096494205 -78.080116 0.95592755 7.1048112 0.95734012 7.1183619 0.097236909 -71.206451
3750000000 0.09056025 -79.620796 0.95611131 4.642736 0.95757723 4.6558471 0.090148814 -73.254478
3775000000 0.083337128 -81.442932 0.95613265 2.1838036 0.95757174 2.194757 0.084003448 -75.656555
3800000000 0.077055171 -83.335808 0.95613134 -0.2699984 0.95766181 -0.26182041 0.078338169 -77.220177
3825000000 0.069826707 -83.822563 0.95651025 -2.7253208 0.95805341 -2.715471 0.070670255 -79.312744
3850000000 0.062987104 -84.63575 0.9569127 -5.1911802 0.95829773 -5.1782966 0.064879827 -81.282875
3875000000 0.056544676 -84.850365 0.95715654 -7.6714902 0.95865411 -7.6593528 0.057939239 -82.622292
3900000000 0.050409809 -82.943161 0.95741189 -10.147813 0.95896292 -10.139286 0.050779179 -83.645439
3925000000 0.043889932 -81.748291 0.95768923 -12.637192 0.95925689 -12.64143 0.044598073 -84.646965
3950000000 0.038914699 -79.348389 0.95792007 -15.145917 0.95931262 -15.140008 0.038928185 -84.734711
3975000000 0.033465765 -73.500565 0.95763844 -17.648281 0.95901388 -17.644697 0.031906407 -85.836525
4000000000 0.02864114 -67.737373 0.95732492 -20.145334 0.95866871 -20.143829 0.02586583 -86.370354
4025000000 0.025422843 -58.521214 0.95684659 -22.637899 0.95817363 -22.637594 0.018609757 -83.848534
4050000000 0.02322958 -44.647228 0.95649952 -25.124584 0.95790219 -25.119864 0.011022937 -76.304649
4075000000 0.021835547 -29.783146 0.95621365 -27.617836 0.95756966 -27.619556 0.0063692518 -41.914295
4100000000 0.023606444 -15.736493 0.95587099 -30.117498 0.95724124 -30.114437 0.0079538282 16.516592
4125000000 0.027439971 -3.3060472 0.95551252 -32.623005 0.95688993 -32.615456 0.013706532 39.806564
4150000000 0.031916492 5.5192561 0.95479679 -35.130051 0.95634019 -35.128868 0.019305306 46.487465
4175000000 0.038172197 9.5060787 0.9542287 -37.635735 0.95569092 -37.631554 0.026225178 49.556664
4200000000 0.04421464 13.00165 0.95331681 -40.143566 0.95468509 -40.13855 0.033254184 51.846123
4225000000 0.0500689 14.211529 0.95223528 -42.634827 0.95368022 -42.635387 0.04014409 52.133789
4250000000 0.057768703 14.531905 0.9513734 -45.11116 0.95294976 -45.114788 0.048622083 51.645538
4275000000 0.064463779 14.711688 0.95089382 -47.590412 0.95235318 -47.597939 0.056521904 49.420742
4300000000 0.070349492 14.280651 0.95015228 -50.101391 0.95171183 -50.111656 0.064237878 47.63839
4325000000 0.077561527 13.204356 0.94944912 -52.60817 0.95095563 -52.619164 0.072070807 45.331188
4350000000 0.084535129 12.80204 0.94831544 -55.120201 0.94987881 -55.129681 0.079289362 43.236515
4375000000 0.091873646 11.703776 0.94724679 -57.603447 0.94871777 -57.614601 0.086772695 41.062321
4400000000 0.10065453 9.9341621 0.94638866 -60.091759 0.94785035 -60.104233 0.095131725 38.958004
4425000000 0.10778858 8.2079287 0.94593233 -62.563843 0.94742519 -62.579697 0.10210446 36.489433
4450000000 0.11554912 5.7207389 0.94574469 -65.085388 0.94711912 -65.103653 0.11005784 33.771893
4475000000 0.12309441 3.4066081 0.94538313 -67.625816 0.94671488 -67.635269 0.11704116 31.340599
4500000000 0.12931675 1.2890986 0.94476473 -70.19133 0.94611824 -70.199455 0.1234242 28.923986
4525000000 0.13601813 -1.1545848 0.94371599 -72.775108 0.94492924 -72.78701 0.13056841 26.542393
4550000000 0.14311349 -3.2176397 0.94249302 -75.345375 0.94363403 -75.352036 0.13727537 24.290762
4575000000 0.14909494 -5.2378721 0.94066316 -77.932076 0.9417606 -77.941803 0.1441856 22.059881
4600000000 0.15644565 -7.6981192 0.93870658 -80.500641 0.93995655 -80.510353 0.15188192 19.720762
4625000000 0.16365886 -9.6816559 0.9368127 -83.070694 0.93796712 -83.075874 0.15907028 17.585995
4650000000 0.17045587 -11.989175 0.93487024 -85.636948 0.93617296 -85.6437 0.16678607 14.84208
4675000000 0.17815317 -14.599633 0.93329543 -88.22673 0.93445224 -88.236938 0.17434719 12.378866
4700000000 0.18546037 -17.141041 0.93108314 -90.848419 0.93237966 -90.856377 0.18153593 9.7870026
4725000000 0.19245936 -19.646721 0.92878908 -93.510429 0.93012023 -93.513916 0.18826221 7.0408683
4750000000 0.19991359 -22.363499 0.92591012 -96.188568 0.92701864 -96.182716 0.19654712 4.4705005
4775000000 0.2070182 -24.986881 0.92230278 -98.87841 0.92352253 -98.889259 0.20375992 1.9456259
4800000000 0.21416074 -27.698677 0.91787159 -101.62665 0.91909552 -101.63344 0.2118206 -0.93987578
4825000000 0.223149 -30.505606 0.91245794 -104.35785 0.91356701 -104.36824 0.22165367 -3.7346306
4850000000 0.23175339 -33.443878 0.90616935 -107.13068 0.90744162 -107.14028 0.230388 -6.8445807
4875000000 0.24170223 -36.938816 0.89862484 -109.95689 0.89983642 -109.96085 0.24095643 -10.571622
4900000000 0.25231671 -40.488068 0.88858074 -112.83876 0.88969058 -112.84831 0.25159329 -14.300322
4925000000 0.26313281 -44.736477 0.87519234 -115.75207 0.87637085 -115.76011 0.26248163 -18.862299
4950000000 0.27583537 -49.749256 0.85634273 -118.65301 0.85742521 -118.65879 0.27490157 -24.165722
4975000000 0.28829989 -55.991165 0.83057308 -121.34135 0.83160603 -121.34607 0.28640062 -30.861408
5000000000 0.29734844 -64.147766 0.79570043 -123.44989 0.7965607 -123.46027 0.29262868 -39.508621
5025000000 0.2957848 -74.572502 0.75526673 -124.03625 0.75630111 -124.03211 0.28721511 -50.541176
5050000000 0.27052984 -86.46698 0.73118633 -122.31068 0.73208904 -122.31186 0.256033 -62.758301
5075000000 0.22024435 -96.172134 0.74929076 -120.1181 0.75026011 -120.11678 0.19950779 -72.11039
5100000000 0.16701329 -97.691254 0.79476231 -120.30149 0.79583251 -120.30268 0.14358363 -71.076004
5125000000 0.13341182 -89.801781 0.83587199 -122.62732 0.83721274 -122.63074 0.11399785 -57.593857
5150000000 0.12437175 -78.249557 0.86348552 -125.76457 0.86462361 -125.76822 0.11398526 -42.322002
5175000000 0.12953693 -69.726974 0.87987411 -129.02345 0.88104939 -129.02892 0.12763302 -33.895847
