!Keysight Technologies,N5247B,MY61255062,A.15.50.07
!Date: Thursday, February 06, 2025 12:33:17
!Correction: S11(Cdelta 2-Port  ) 
!S21(Cdelta 2-Port  ) 
!S12(Cdelta 2-Port  ) 
!S22(Cdelta 2-Port  ) 
!S2P File: Measurements: S11, S21, S12, S22:
# Hz S  MA   R 50
100000000 0.0051624454 69.031708 0.99725348 -9.365839 0.99801743 -9.3393784 0.0052219862 62.838581
125000000 0.007029261 61.077648 0.996521 -11.677062 0.9976176 -11.652964 0.0074404748 56.829109
150000000 0.0080090649 55.240574 0.9959923 -13.976379 0.99693888 -13.961601 0.0080822138 51.052513
175000000 0.0090420768 58.688625 0.99541104 -16.277805 0.99637663 -16.271412 0.0092705842 52.15506
200000000 0.010086489 49.775784 0.99476224 -18.577168 0.99583507 -18.570263 0.010338543 44.028027
225000000 0.011114345 47.769093 0.99419296 -20.869783 0.99515134 -20.870266 0.011272138 43.162579
250000000 0.011778464 45.567329 0.99365485 -23.163338 0.99447984 -23.159845 0.011945785 40.899345
275000000 0.012453966 39.400307 0.9931227 -25.453508 0.99393362 -25.447315 0.012615833 35.5056
300000000 0.013299297 38.359478 0.99263054 -27.743652 0.99302167 -27.741432 0.013419408 34.344692
325000000 0.013465093 34.246113 0.99220765 -30.032356 0.9926098 -30.007999 0.013422505 29.557835
350000000 0.013942149 30.361929 0.9913196 -32.319427 0.99216789 -32.296413 0.01410871 26.525959
375000000 0.014294483 29.495264 0.99092919 -34.594398 0.99169147 -34.577835 0.014336798 24.960611
400000000 0.014206364 25.620186 0.9905538 -36.883453 0.9913249 -36.860157 0.014240549 20.41432
425000000 0.014616746 23.108181 0.99001896 -39.170788 0.99077576 -39.149673 0.014562372 18.064585
450000000 0.014747434 19.296877 0.98937106 -41.446613 0.99021596 -41.434868 0.014725275 14.331643
475000000 0.014849005 16.64851 0.98909301 -43.741203 0.98983365 -43.728676 0.014599289 12.043093
500000000 0.016690858 11.238598 0.98701555 -46.082497 0.9878723 -46.065521 0.01657412 6.1614008
525000000 0.013368814 0.83568799 0.98713577 -48.162571 0.98798102 -48.148994 0.013368119 -4.6052723
550000000 0.01306821 4.22754 0.98792112 -50.487259 0.98864824 -50.477489 0.012982407 -1.4123026
575000000 0.013341552 2.1237555 0.98755682 -52.796963 0.98824513 -52.785244 0.013336184 -4.9553256
600000000 0.013372516 -2.6300905 0.98671061 -55.093433 0.98728675 -55.079979 0.013440607 -7.9235559
625000000 0.012837498 -6.557879 0.98636067 -57.349014 0.98713785 -57.328598 0.012923955 -13.870993
650000000 0.012810878 -14.978415 0.98486251 -59.60817 0.98572356 -59.581345 0.012928206 -22.043941
675000000 0.010879505 -17.093983 0.98582 -61.854168 0.98677111 -61.842766 0.010887017 -24.179422
700000000 0.011079022 -19.883526 0.98575234 -64.157402 0.9865573 -64.152451 0.010954271 -25.664625
725000000 0.010797928 -22.236858 0.98503447 -66.457008 0.98580939 -66.454506 0.01081506 -29.752892
750000000 0.010184672 -36.443134 0.98390394 -68.70665 0.98451251 -68.691879 0.010363297 -40.58746
775000000 0.0090451529 -42.234829 0.98426968 -70.932968 0.98501861 -70.912895 0.0093199005 -49.809586
800000000 0.0075055528 -44.550949 0.98471493 -73.237389 0.98538429 -73.216606 0.007658205 -52.664738
825000000 0.0079421084 -50.835815 0.98397565 -75.553879 0.98485607 -75.536255 0.0079692034 -59.216103
850000000 0.0074461475 -61.288689 0.98349804 -77.816063 0.98422652 -77.794586 0.0073440978 -71.027069
875000000 0.007875408 -69.864883 0.98233426 -80.12867 0.98305881 -80.112427 0.0080012111 -77.289276
900000000 0.0084837135 -98.406761 0.98171765 -82.266663 0.98254079 -82.248497 0.0085636638 -107.14308
925000000 0.0069750948 -104.06444 0.98264068 -84.602921 0.98356366 -84.583618 0.0071648182 -113.03523
950000000 0.0084638493 -111.26545 0.98120791 -86.90123 0.98199487 -86.883629 0.0083727939 -120.74834
975000000 0.010342199 -134.05682 0.98115653 -89.048096 0.98188359 -89.030807 0.010671914 -141.34579
1000000000 0.010067872 -147.52878 0.98215675 -91.348846 0.9829098 -91.326874 0.010632219 -153.76309
1025000000 0.010907405 -156.47139 0.98234051 -93.65786 0.98325956 -93.637909 0.011254715 -164.70598
1050000000 0.011760998 -161.17358 0.98213822 -95.95388 0.98309982 -95.943359 0.012488646 -170.11302
1075000000 0.013160797 -167.8842 0.98187095 -98.23777 0.98269945 -98.225319 0.013576057 -176.0128
1100000000 0.014874978 -174.23749 0.98191804 -100.5336 0.98267221 -100.52338 0.015444728 176.29878
1125000000 0.016000876 -176.7729 0.98160738 -102.85188 0.98226267 -102.8308 0.016380562 172.94054
1150000000 0.017266298 178.55148 0.98088288 -105.15166 0.98163098 -105.12947 0.017602868 168.73235
1175000000 0.019671218 176.22571 0.98004436 -107.4402 0.98088223 -107.41598 0.019945774 166.19708
1200000000 0.021663476 172.29419 0.97958922 -109.70491 0.98043942 -109.68167 0.021966398 163.43166
1225000000 0.023258673 167.94412 0.9794572 -112.02486 0.98033208 -112.00697 0.023348626 158.70828
1250000000 0.024855005 170.94136 0.97683895 -114.37247 0.97761965 -114.35011 0.024755338 160.14885
1275000000 0.030670391 168.47476 0.97485387 -116.4444 0.97556657 -116.41963 0.03048289 159.88228
1300000000 0.033453647 159.72673 0.97720706 -118.66801 0.97789031 -118.6498 0.033471525 150.8194
1325000000 0.035141408 157.51225 0.97692722 -120.99508 0.97761172 -120.97121 0.035458498 147.99646
1350000000 0.038095105 153.38606 0.97679389 -123.23407 0.9776029 -123.20898 0.038416162 144.13757
1375000000 0.039880976 150.01472 0.97706062 -125.57365 0.97792476 -125.53949 0.04038772 140.29729
1400000000 0.042392224 149.75356 0.97500217 -127.85926 0.97610664 -127.83528 0.042545602 139.007
1425000000 0.047145713 145.78839 0.97502887 -130.00587 0.97604436 -129.98093 0.047396198 136.22992
1450000000 0.049765684 141.7339 0.97631162 -132.29515 0.97727221 -132.2729 0.050290421 131.08578
1475000000 0.051807605 138.86127 0.97637022 -134.61069 0.97723371 -134.58742 0.052526433 128.28273
1500000000 0.054319076 136.08311 0.97588861 -136.90182 0.97687691 -136.87881 0.054959081 125.45427
1525000000 0.057369035 133.52701 0.97586727 -139.18742 0.97684073 -139.16347 0.058211274 122.46894
1550000000 0.059714522 131.10196 0.97558373 -141.4928 0.97657275 -141.46648 0.060592256 120.06142
1575000000 0.062287033 128.30396 0.97515005 -143.78448 0.97620839 -143.76265 0.063068099 117.28495
1600000000 0.065566599 126.7103 0.97456259 -146.08134 0.97558713 -146.0549 0.066528313 114.91927
1625000000 0.068200611 123.96992 0.97418022 -148.35187 0.97526217 -148.32643 0.069214828 112.1934
1650000000 0.070718877 121.50137 0.97427285 -150.66786 0.97533292 -150.64526 0.071760036 109.69038
1675000000 0.07347741 119.77401 0.97328007 -152.98178 0.97422522 -152.95554 0.074609049 107.19525
1700000000 0.076489486 117.46218 0.97259033 -155.24864 0.97378576 -155.21976 0.077740811 105.31031
1725000000 0.079421759 115.01003 0.97247142 -157.55489 0.97353745 -157.52759 0.080719583 102.39735
1750000000 0.081622355 113.23202 0.97166061 -159.90157 0.97285318 -159.87694 0.082609326 100.03262
1775000000 0.083885834 111.75928 0.96969676 -162.22701 0.97083837 -162.20203 0.084568053 98.63932
1800000000 0.087424234 111.0192 0.96693593 -164.51477 0.96805525 -164.49106 0.087386593 97.671211
1825000000 0.093267567 109.88762 0.96418458 -166.64641 0.965361 -166.62712 0.092686288 96.786697
1850000000 0.099385045 106.6178 0.96464664 -168.73434 0.96581662 -168.71292 0.099204049 94.234978
1875000000 0.10360117 103.15835 0.9663049 -170.93954 0.9674986 -170.91956 0.10411717 90.514923
1900000000 0.10613775 99.97905 0.96748632 -173.2502 0.96859825 -173.22922 0.10706136 87.20816
1925000000 0.10868494 97.339912 0.96772033 -175.55804 0.96870762 -175.54271 0.10978394 84.642883
1950000000 0.11164748 94.885918 0.96773893 -177.85875 0.96889108 -177.84288 0.11275963 81.793762
1975000000 0.11364137 92.395615 0.96775538 179.81665 0.96880311 179.83472 0.115437 79.254211
2000000000 0.11575667 90.201408 0.96750247 177.47646 0.96849608 177.49225 0.1174369 76.802376
2025000000 0.11731301 88.338356 0.96620703 175.10622 0.96727633 175.12311 0.11917642 74.582779
2050000000 0.12002885 87.188126 0.96348679 172.78792 0.96459907 172.80724 0.12084312 73.539963
2075000000 0.12555398 86.268951 0.96000797 170.64189 0.96096247 170.66136 0.12619646 72.476326
2100000000 0.13138758 82.978806 0.96189487 168.55461 0.96280617 168.57327 0.13260575 69.572868
2125000000 0.1335661 79.802322 0.96326441 166.25003 0.96423995 166.26427 0.13546532 66.355324
2150000000 0.13547924 77.40799 0.9635759 163.90929 0.96444196 163.92528 0.1377459 63.555305
2175000000 0.13722648 75.350105 0.96318996 161.56219 0.96403062 161.58154 0.13950397 61.173996
2200000000 0.13882336 73.225922 0.96208948 159.20653 0.96314007 159.23239 0.14084348 58.954643
2225000000 0.14029561 72.009186 0.96000016 156.84634 0.96106249 156.87123 0.14186248 57.290676
2250000000 0.14318617 70.824867 0.95645422 154.57845 0.95737898 154.59283 0.14458506 56.149231
2275000000 0.14889391 69.448662 0.9536761 152.46576 0.95480585 152.48769 0.14951292 54.957321
2300000000 0.15417352 67.085632 0.9537521 150.34772 0.95480627 150.37103 0.15525554 52.241997
2325000000 0.15876962 64.165985 0.95474726 148.19308 0.95585126 148.21278 0.15946953 49.699097
2350000000 0.16079743 61.370712 0.95590276 145.91032 0.95709676 145.92435 0.16182466 46.706612
2375000000 0.1630138 59.118935 0.95564371 143.62573 0.95672977 143.64606 0.16448793 44.430325
2400000000 0.16508809 56.668579 0.95598018 141.35616 0.95686501 141.37277 0.1666314 42.070744
2425000000 0.16687588 54.461296 0.95572162 139.03687 0.95665705 139.05452 0.16825414 39.624027
2450000000 0.168754 52.548073 0.95459265 136.74823 0.95549142 136.77356 0.17001292 37.581669
2475000000 0.17126413 50.446148 0.95330238 134.51022 0.95446908 134.52458 0.17236583 35.849972
2500000000 0.1736327 48.195972 0.95328051 132.28215 0.95433843 132.29468 0.17550072 33.442863
2525000000 0.175409 45.998299 0.95320976 130.01828 0.95417917 130.03255 0.17801346 31.15653
2550000000 0.17645483 43.856312 0.95290494 127.70845 0.9538402 127.73409 0.17932416 28.72975
2575000000 0.17841296 42.167427 0.9513858 125.44857 0.9525134 125.46615 0.18129265 26.772108
2600000000 0.1809182 40.156235 0.95065427 123.21858 0.95182699 123.23882 0.18314324 24.530394
2625000000 0.1833013 38.147057 0.95031035 120.9629 0.95133507 120.98898 0.18450341 22.283884
2650000000 0.18509029 36.116623 0.9492929 118.71624 0.95027024 118.75173 0.18609588 20.406796
2675000000 0.18800087 33.667259 0.94882357 116.53987 0.9500131 116.57251 0.1890672 18.387972
2700000000 0.18960482 31.288942 0.94945765 114.29303 0.95067346 114.33154 0.19107798 15.894098
2725000000 0.18975712 29.066864 0.94978428 112.01765 0.95112675 112.0528 0.19255778 13.369949
2750000000 0.19037743 27.075819 0.94909942 109.72109 0.95034355 109.75043 0.19297901 11.303449
2775000000 0.19237548 25.240829 0.94850129 107.49892 0.94978321 107.52527 0.19456103 8.9929981
2800000000 0.19371869 23.045738 0.94842339 105.26255 0.94976079 105.27845 0.19536047 6.6488767
2825000000 0.1949638 20.812916 0.94821143 102.98379 0.94946641 103.00045 0.19532289 4.5507326
2850000000 0.1962699 18.671968 0.94783211 100.76296 0.94911313 100.77892 0.19655354 2.4079335
2875000000 0.19638968 16.299311 0.94827968 98.502266 0.94944376 98.506485 0.19706523 0.30888078
2900000000 0.19683751 14.101943 0.94797277 96.234795 0.9492259 96.247185 0.19732901 -1.9341106
2925000000 0.19673616 12.058787 0.94783193 93.964653 0.94916034 93.981194 0.19812067 -4.0440645
2950000000 0.19679007 9.8828278 0.94773042 91.726799 0.94895661 91.737076 0.19915326 -6.3093085
2975000000 0.19653791 7.8186202 0.94801116 89.439301 0.94925421 89.450409 0.19821757 -8.689105
3000000000 0.19587329 5.9718661 0.94771755 87.142189 0.94893247 87.153 0.19790195 -11.005926
3025000000 0.19596066 4.0758967 0.94675767 84.859245 0.94791377 84.875275 0.19693242 -12.944862
3050000000 0.19683489 2.2781212 0.94594133 82.616943 0.94714952 82.632378 0.19661871 -14.84277
3075000000 0.19652975 0.35693866 0.94511873 80.389946 0.94646537 80.40966 0.19663136 -16.905518
3100000000 0.19750856 -1.8767731 0.94499594 78.185158 0.94628739 78.199806 0.19723536 -18.829802
3125000000 0.19790272 -3.9401901 0.94537866 75.964569 0.94679159 75.981461 0.19705445 -21.235973
3150000000 0.19698638 -6.3309717 0.9461143 73.709358 0.94739759 73.724533 0.19663902 -23.629097
3175000000 0.19652776 -8.4591522 0.9461605 71.427155 0.94756407 71.445869 0.19499427 -25.717756
3200000000 0.19565167 -10.428481 0.94609487 69.180267 0.94732541 69.192207 0.19404133 -27.945831
3225000000 0.19460189 -12.710363 0.9461832 66.9347 0.94754237 66.948074 0.19334695 -29.906046
3250000000 0.19416927 -15.067507 0.9466449 64.690933 0.94798672 64.700157 0.19255064 -32.094242
3275000000 0.19243954 -17.053116 0.94734615 62.415787 0.94880015 62.431248 0.19123067 -34.577538
3300000000 0.19015144 -19.475727 0.94796115 60.129543 0.94939226 60.146278 0.18967855 -36.990814
3325000000 0.18862361 -21.59338 0.94824868 57.833977 0.94959337 57.835831 0.18722968 -39.039486
3350000000 0.1858948 -23.404783 0.94831216 55.536358 0.94967461 55.5425 0.18474196 -41.411507
3375000000 0.18367867 -25.503098 0.9483012 53.243595 0.94961607 53.243263 0.18274739 -43.466808
3400000000 0.18201284 -27.159031 0.94816899 50.942997 0.949323 50.954594 0.17967753 -45.515045
3425000000 0.18008053 -28.894085 0.94756818 48.674797 0.94883448 48.674301 0.17738448 -47.503544
3450000000 0.17914382 -31.156937 0.94731092 46.431557 0.94881511 46.448189 0.17546648 -49.194553
3475000000 0.1773784 -33.417042 0.948039 44.188232 0.94944435 44.194828 0.17412181 -51.513058
3500000000 0.17367192 -35.472 0.94887757 41.879654 0.95013922 41.896751 0.17186096 -53.85656
3525000000 0.1710659 -37.62822 0.94864661 39.594582 0.95016509 39.609028 0.16968006 -55.953003
3550000000 0.16861525 -39.223579 0.94915074 37.326313 0.95061922 37.337154 0.16623859 -58.684303
3575000000 0.16589788 -41.262131 0.94966453 35.009583 0.95089948 35.020199 0.16297491 -60.989853
3600000000 0.16331433 -43.314301 0.94976628 32.69902 0.95109004 32.717926 0.15843678 -62.938652
3625000000 0.1603325 -45.009281 0.94942999 30.398033 0.95082176 30.407515 0.1549046 -65.006042
3650000000 0.15771583 -47.115284 0.94919676 28.126709 0.95050049 28.139969 0.15170661 -66.584892
3675000000 0.15526491 -49.24612 0.94911945 25.875547 0.9505381 25.886408 0.14928849 -68.506378
3700000000 0.15214933 -51.118275 0.94988722 23.616148 0.9512834 23.618231 0.14639187 -70.809776
3725000000 0.14869195 -53.673836 0.95082325 21.315639 0.95213169 21.330425 0.1438643 -73.030983
3750000000 0.14512955 -55.662735 0.95146036 18.99716 0.95294923 19.015182 0.13928175 -75.498016
3775000000 0.14031267 -57.658592 0.95194227 16.675041 0.95333642 16.682142 0.13551103 -77.888931
3800000000 0.13621494 -59.861706 0.95222032 14.342669 0.95370877 14.347224 0.13184407 -79.697144
3825000000 0.13152917 -61.340775 0.95230263 12.009482 0.95367914 12.017997 0.12674101 -82.020691
3850000000 0.12730148 -63.162788 0.95196486 9.6878862 0.95332891 9.7009449 0.12326205 -83.968361
3875000000 0.12308776 -64.991287 0.9517417 7.3850346 0.95314181 7.3984652 0.1195977 -85.787849
3900000000 0.11917444 -66.083221 0.95159674 5.0926294 0.9531672 5.1026998 0.11546595 -87.935684
3925000000 0.11477461 -67.789673 0.951796 2.8109641 0.95321196 2.8160648 0.11228278 -90.577736
3950000000 0.11153651 -69.539406 0.95233387 0.512312 0.95369464 0.52168846 0.10841179 -92.931686
3975000000 0.10738961 -70.832748 0.95285815 -1.8055291 0.95413136 -1.7982757 0.10248863 -95.631599
4000000000 0.10313277 -72.716469 0.95303714 -4.1166821 0.95440543 -4.1066904 0.098240405 -97.608025
4025000000 0.099566765 -74.682472 0.95345956 -6.4271326 0.95495892 -6.4196391 0.093475185 -99.312546
4050000000 0.094611958 -76.165131 0.95426929 -8.7563658 0.95567614 -8.7514305 0.088855021 -101.54791
4075000000 0.088970907 -78.310883 0.95471489 -11.124537 0.95608145 -11.116405 0.085038356 -103.51427
4100000000 0.084040083 -79.474007 0.9547717 -13.472065 0.95615733 -13.467733 0.080948628 -105.63954
4125000000 0.07886868 -79.995499 0.95476228 -15.829068 0.95612711 -15.815661 0.076206401 -108.89577
4150000000 0.073911168 -81.215134 0.95440459 -18.169857 0.95594466 -18.162542 0.0720006 -111.86206
4175000000 0.069969662 -81.677521 0.95441067 -20.501017 0.95575178 -20.494183 0.066286825 -114.75786
4200000000 0.064979099 -82.906898 0.95458156 -22.830841 0.95591617 -22.831816 0.059851591 -118.158
4225000000 0.059804372 -83.976402 0.95445442 -25.197748 0.95586747 -25.185316 0.054602269 -119.8168
4250000000 0.054433551 -83.418396 0.9540779 -27.542072 0.95557803 -27.54067 0.049319901 -121.98009
4275000000 0.048791256 -82.763786 0.95368332 -29.881987 0.95527154 -29.88525 0.044309504 -124.26889
4300000000 0.043635633 -81.78299 0.95333993 -32.213867 0.95490676 -32.218426 0.039923884 -127.20902
4325000000 0.039567187 -77.850876 0.95311099 -34.54863 0.95468193 -34.552197 0.034826741 -130.33911
4350000000 0.035372891 -73.328362 0.95303947 -36.872295 0.95459223 -36.880039 0.030100705 -135.52151
4375000000 0.032669794 -69.326355 0.9532758 -39.207039 0.95467108 -39.214581 0.02515275 -141.04312
4400000000 0.030199856 -62.288185 0.95350736 -41.562569 0.95488173 -41.578564 0.01847698 -150.19223
4425000000 0.027713481 -56.52615 0.95325226 -43.939171 0.95468706 -43.95155 0.01315091 -157.32025
4450000000 0.026068853 -47.630875 0.95285696 -46.3116 0.95416307 -46.327015 0.0080729313 -170.08316
4475000000 0.025933504 -36.820946 0.95216358 -48.669147 0.95346063 -48.67522 0.0047682086 154.50534
4500000000 0.026110439 -27.426981 0.95139205 -51.013458 0.95263475 -51.024723 0.0057635764 107.81557
4525000000 0.027776467 -18.900208 0.95071369 -53.337669 0.95194167 -53.34726 0.010294504 78.743393
4550000000 0.030987455 -9.6844788 0.950611 -55.655125 0.95164943 -55.665321 0.01608617 64.694572
4575000000 0.034619875 -3.0267739 0.95038056 -57.995705 0.95157546 -57.997719 0.02211508 56.24284
4600000000 0.04025466 -0.55501664 0.95054674 -60.333023 0.95169801 -60.338158 0.028886892 48.219963
4625000000 0.045603719 1.8105141 0.950459 -62.694664 0.95161414 -62.694305 0.034763347 42.953552
4650000000 0.050326567 2.3515861 0.95057839 -65.047775 0.95175332 -65.052521 0.040743582 36.463757
4675000000 0.055048205 1.7157655 0.95072007 -67.438026 0.95176792 -67.441032 0.045562919 31.878256
4700000000 0.059455484 1.700794 0.95032489 -69.828842 0.95129007 -69.836784 0.050257195 28.956598
4725000000 0.063309297 1.8801199 0.94978088 -72.217232 0.95081836 -72.219658 0.054408822 25.968889
4750000000 0.067908339 1.5635616 0.94893289 -74.614578 0.9499402 -74.616936 0.060090326 23.877337
4775000000 0.072934739 1.5734731 0.94758272 -76.969193 0.94875908 -76.975456 0.065315574 22.353559
4800000000 0.077378586 1.2389185 0.94685799 -79.323685 0.94790798 -79.326279 0.071148507 19.505184
4825000000 0.083455123 0.08348722 0.94632316 -81.674217 0.94746447 -81.683403 0.078000858 16.889347
4850000000 0.088312998 -0.78249711 0.94578606 -84.036926 0.94700241 -84.039421 0.082761481 13.99899
4875000000 0.093761809 -2.721205 0.94527066 -86.403954 0.94643658 -86.407387 0.08856649 10.80853
4900000000 0.098973669 -4.1447711 0.94455808 -88.776016 0.94571871 -88.782127 0.093671232 8.4606466
4925000000 0.10327609 -5.7747283 0.94405705 -91.154472 0.94508529 -91.156364 0.097928114 5.4773855
4950000000 0.1077197 -7.4476752 0.94325203 -93.547272 0.94447982 -93.549171 0.10240091 3.1259797
4975000000 0.11211527 -9.2281942 0.94221324 -95.918617 0.94337064 -95.922867 0.10778805 1.0175211
5000000000 0.11601152 -10.607065 0.94160432 -98.310371 0.94272339 -98.304588 0.11205827 -1.2840105
5025000000 0.12020157 -12.03251 0.94016397 -100.70962 0.94126117 -100.70651 0.11736029 -3.9136467
5050000000 0.12488475 -13.210101 0.93896353 -103.06705 0.93993831 -103.06289 0.12242558 -6.1233969
5075000000 0.12949093 -14.761436 0.93785542 -105.43719 0.93887961 -105.43129 0.12623334 -8.5479822
5100000000 0.13471667 -16.456053 0.93637198 -107.81538 0.93758667 -107.8034 0.13081782 -10.876392
5125000000 0.13996039 -18.135284 0.935112 -110.15287 0.93642062 -110.15089 0.13541457 -13.021729
