# Hz S MA R 50.0 
!freq magS11 angS11 magS21 angS21 magS12 angS12 magS22 angS22
1000000000.0 0.8157213743301956 -141.6484782056185 1.0664818187150442 -20.047966138105014 1.0664818187150444 -20.047966138105018 0.799976131959973 42.73087963183622
1010000000.0 0.8169600722909555 -141.6887067364745 1.0669009835331917 -20.11295080580155 1.066900983533192 -20.112950805801542 0.8010077671634054 42.73687999656611
1020000000.0 0.8181866949862829 -141.72914254231014 1.0673153566155547 -20.177525012491653 1.0673153566155547 -20.177525012491657 0.802026820382856 42.74271123307468
1030000000.0 0.8194015934362385 -141.7697806977476 1.0677250604288038 -20.241700467697598 1.0677250604288038 -20.241700467697605 0.8030336451839021 42.7483783620918
1040000000.0 0.8206051205838477 -141.81061652161708 1.0681302190501987 -20.30548896243438 1.0681302190501984 -20.305488962434392 0.8040285972587092 42.753886181449474
1050000000.0 0.8217976064012972 -141.85164547442457 1.0685309486646641 -20.36890152616583 1.0685309486646644 -20.36890152616583 0.8050120074688297 42.75923924413034
1060000000.0 0.8229793745389479 -141.89286309866566 1.0689273652141469 -20.431948920841275 1.0689273652141467 -20.431948920841283 0.8059842020508465 42.764442117556705
1070000000.0 0.8241507392363951 -141.93426522016088 1.0693195807009512 -20.494641630130253 1.0693195807009515 -20.49464163013026 0.8069454971235571 42.76949907719104
1080000000.0 0.8253119915924152 -141.9758474592964 1.069707702361543 -20.556989260979538 1.069707702361543 -20.556989260979538 0.8078961858032963 42.77441451831341
1090000000.0 0.8264634262467706 -142.01760587457593 1.070091836900624 -20.619001609054536 1.070091836900624 -20.619001609054543 0.808836564416311 42.779192504853654
1100000000.0 0.82760531782526 -142.05953641832713 1.0704720862569503 -20.680687727092714 1.0704720862569506 -20.680687727092725 0.8097669090374721 42.7838371392107
1110000000.0 0.8287379372740711 -142.10163525091488 1.0708485513243076 -20.74205656731602 1.0708485513243078 -20.74205656731602 0.8106874928470712 42.78835230696313
1120000000.0 0.8298615478198917 -142.14389876460865 1.0712213294269517 -20.803116843699417 1.071221329426952 -20.80311684369943 0.8115985804396663 42.792741715200144
1130000000.0 0.8309763926390825 -142.1863231320762 1.071590513830073 -20.863876504136055 1.0715905138300723 -20.86387650413606 0.8125004164220618 42.79700919946492
1140000000.0 0.8320827197587636 -142.22890492273825 1.0719561978926657 -20.9243437263669 1.0719561978926655 -20.924343726366907 0.8133932504670961 42.80115828910984
1150000000.0 0.8331807592950331 -142.27164059907923 1.0723184704567934 -20.984526012336435 1.0723184704567932 -20.98452601233646 0.8142773142795902 42.80519260377922
1160000000.0 0.8342707399001925 -142.3145268786416 1.0726774190898773 -21.044430888270536 1.0726774190898776 -21.044430888270547 0.8151528376791035 42.80911541479359
1170000000.0 0.835352883850751 -142.35756052254536 1.0730331299886129 -21.104065608743557 1.0730331299886127 -21.10406560874355 0.8160200448794142 42.812930084525426
1180000000.0 0.8364273951103828 -142.4007382987449 1.0733856830283182 -21.163436802151274 1.0733856830283184 -21.163436802151274 0.8168791408126013 42.81663989047889
1190000000.0 0.8374944845797434 -142.44405710684413 1.073735161456351 -21.22255134984829 1.0737351614563504 -21.222551349848295 0.817730337707712 42.82024794475808
1200000000.0 0.8385543465792278 -142.48751395200756 1.0740816419473298 -21.281415556246433 1.07408164194733 -21.28141555624646 0.8185738311941624 42.823757319770365
1210000000.0 0.8394706793293661 -142.52941666075643 1.0743844443815052 -21.335215971248672 1.0743844443815052 -21.335215971248683 0.8192806704736031 42.828260885551764
1220000000.0 0.8403799694123618 -142.5714553986133 1.0746840144833358 -21.38877998557188 1.0746840144833358 -21.388779985571865 0.8199800929799522 42.832657426831254
1230000000.0 0.841282398918277 -142.61362750933162 1.0749804272910306 -21.442113560689453 1.074980427291031 -21.442113560689442 0.8206722818358119 42.83694967647821
1240000000.0 0.8421781385837831 -142.65593029468798 1.0752737546526925 -21.495222231184947 1.0752737546526923 -21.495222231184933 0.8213574090747501 42.84114038860234
1250000000.0 0.8430673539581195 -142.69836117277927 1.0755640659915484 -21.54811139641441 1.0755640659915482 -21.548111396414427 0.8220356409025168 42.84523215168329
1260000000.0 0.8439502108111644 -142.7409176332733 1.0758514313355896 -21.600786434889685 1.0758514313355896 -21.600786434889688 0.822707144292196 42.849227543525316
1270000000.0 0.8448268629291932 -142.78359715837723 1.0761359165071085 -21.653252305103692 1.076135916507108 -21.653252305103692 0.8233720740920328 42.8531291354495
1280000000.0 0.8456974660152067 -142.82639748193915 1.076417586829131 -21.705514096648 1.0764175868291306 -21.705514096648013 0.8240305869029275 42.85693921458144
1290000000.0 0.8465621663476602 -142.8693161823726 1.0766965058721265 -21.757576492250887 1.0766965058721265 -21.75757649225089 0.8246828298645632 42.86066026839391
1300000000.0 0.8474211057698333 -142.91235097903228 1.0769727348458085 -21.809444075860927 1.0769727348458087 -21.80944407586092 0.8253289456435304 42.8642945821068
1310000000.0 0.848274426741917 -142.95549969576842 1.0772463351376562 -21.861121435931484 1.077246335137656 -21.86112143593148 0.8259690779365937 42.86784441426059
1320000000.0 0.8491222607105984 -142.99876017965136 1.077517363772779 -21.91261280486671 1.077517363772779 -21.912612804866715 0.826603358740547 42.87131194018381
1330000000.0 0.8499647442448116 -143.0421303451202 1.077785880406801 -21.96392258156712 1.077785880406801 -21.963922581567108 0.8272319257209858 42.874699265107374
1340000000.0 0.8508019978314266 -143.0856080585043 1.0780519385837137 -22.015054588081867 1.0780519385837137 -22.015054588081867 0.8278548999059357 42.87800857371055
1350000000.0 0.8516341483879031 -143.12919136419194 1.0783155939202818 -22.066012902909378 1.0783155939202815 -22.066012902909385 0.8284724092956454 42.88124186631259
1360000000.0 0.8524613177994509 -143.17287835074072 1.0785768999383227 -22.116801439823046 1.0785768999383223 -22.116801439823057 0.8290845762111884 42.88440107716414
1370000000.0 0.8532836193125166 -143.21666706644947 1.0788359075645202 -22.167423788792025 1.0788359075645202 -22.167423788792032 0.8296915150958983 42.88748820032615
1380000000.0 0.8541011714877228 -143.26055570566723 1.0790926691385745 -22.21788375068751 1.0790926691385743 -22.217883750687513 0.8302933448963762 42.8905050842444
1390000000.0 0.8549140778632485 -143.3045423519257 1.0793472321797095 -22.26818457798591 1.0793472321797095 -22.26818457798591 0.8308901699140812 42.893453649833724
1400000000.0 0.8557224487672443 -143.3486253412073 1.0795996454382386 -22.318329811196815 1.0795996454382386 -22.318329811196808 0.8314821014823256 42.89633560350001
1410000000.0 0.8564231793133008 -143.39199118221956 1.079813118694118 -22.364872745933987 1.0798131186941178 -22.36487274593398 0.8319727055417533 42.89948238729173
1420000000.0 0.8571196333666559 -143.43544784749292 1.0800244193690247 -22.411273481948385 1.0800244193690243 -22.411273481948395 0.8324587425953445 42.90256123844311
1430000000.0 0.8578119053084974 -143.47899380881347 1.080233591157603 -22.457535018475877 1.0802335911576033 -22.457535018475866 0.8329403072604754 42.90557373276558
1440000000.0 0.8585000875053125 -143.52262750749588 1.0804406778282583 -22.5036602598768 1.0804406778282587 -22.503660259876806 0.8334174922148258 42.90852145157986
1450000000.0 0.8591842676679123 -143.56634738845045 1.0806457216171503 -22.549651945893867 1.08064572161715 -22.549651945893856 0.8338903866593368 42.91140597946824
1460000000.0 0.8598645362258058 -143.61015212176198 1.080848763830284 -22.595512982946243 1.0808487638302835 -22.595512982946243 0.8343590805197358 42.91422865858871
1470000000.0 0.860540974673172 -143.65404018460384 1.0810498443062666 -22.641245884077417 1.0810498443062668 -22.64124588407741 0.8348236564437228 42.916991076665695
1480000000.0 0.8612136703211368 -143.698010258648 1.0812490039177431 -22.68685342810706 1.0812490039177434 -22.686853428107053 0.8352842022889386 42.91969455820605
1490000000.0 0.8618826973827538 -143.74206091675558 1.0814462790180024 -22.732337909400982 1.0814462790180024 -22.73233790940097 0.8357407927788454 42.92234054922339
1500000000.0 0.8625481389899058 -143.78619087309372 1.0816417087814532 -22.777701953427442 1.0816417087814532 -22.777701953427442 0.8361935109627106 42.92493037945468
1510000000.0 0.8632100696227104 -143.83039881366778 1.081835329515517 -22.82294787889022 1.081835329515517 -22.822947878890215 0.8366424326308833 42.92746537776014
1520000000.0 0.8638685622740694 -143.87468345090952 1.0820271765752916 -22.868077956423093 1.0820271765752913 -22.86807795642309 0.8370876310122428 42.929946867169434
1530000000.0 0.8645236937359708 -143.91904363430584 1.0822172862089698 -22.913094624260918 1.0822172862089694 -22.91309462426092 0.8375291832454307 42.9323760105345
1540000000.0 0.8651755288426574 -143.96347803351625 1.0824056912221853 -22.957999852643102 1.082405691222185 -22.9579998526431 0.837967154499497 42.934754146251876
1550000000.0 0.8658241407863486 -144.00798554761445 1.0825924263744164 -23.002795939963598 1.0825924263744167 -23.002795939963598 0.8384016187988413 42.93708244959297
1560000000.0 0.8664695934961667 -144.05256497415579 1.0827775234616213 -23.04748486568811 1.0827775234616213 -23.047484865688112 0.8388326403939917 42.9393621016514
1570000000.0 0.867111955503638 -144.09721525284 1.082961015208685 -23.09206877982002 1.0829610152086855 -23.09206877982002 0.8392602880369252 42.94159421016739
1580000000.0 0.8677512893091446 -144.1419351939551 1.083142933171476 -23.136549594443835 1.0831429331714755 -23.136549594443835 0.8396846247582459 42.94377997279275
1590000000.0 0.8683876568529956 -144.18672377562083 1.0833233075279776 -23.180929237827392 1.0833233075279776 -23.18092923782741 0.8401057133399125 42.94592043501248
1600000000.0 0.8690211188565459 -144.23157994497313 1.083502168004042 -23.225209592637512 1.083502168004042 -23.225209592637512 0.8405236144208406 42.948016682341375
1610000000.0 0.869570612435571 -144.27612882187518 1.0836471081700425 -23.26680805714227 1.083647108170042 -23.26680805714227 0.8408634558444665 42.950042009860766
1620000000.0 0.8701174505913605 -144.32073915161948 1.0837905934611916 -23.308318250760433 1.0837905934611916 -23.308318250760433 0.841200406613642 42.95202446795212
1630000000.0 0.8706616872778586 -144.3654099879292 1.083932651554873 -23.349741825071007 1.083932651554873 -23.349741825071007 0.8415345208976087 42.95396502250894
1640000000.0 0.8712033710648326 -144.4101403947435 1.08407330792518 -23.391080243739896 1.0840733079251803 -23.391080243739903 0.8418658477337604 42.955864615821056
1650000000.0 0.871742553708414 -144.45492976093638 1.0842125865630796 -23.432335182509526 1.0842125865630794 -23.432335182509522 0.8421944395492061 42.957723929409234
1660000000.0 0.8722792840276263 -144.4997768545043 1.0843505159746196 -23.473508003387597 1.0843505159746196 -23.47350800338759 0.8425203449615277 42.95954417117906
1670000000.0 0.872813607765352 -144.54468098402225 1.0844871185357239 -23.51460015111032 1.084487118535724 -23.514600151110326 0.8428436101073887 42.96132605207431
1680000000.0 0.8733455742146561 -144.5896413912436 1.0846224189577256 -23.555613155888466 1.0846224189577254 -23.555613155888466 0.8431642848156666 42.963070361686704
1690000000.0 0.8738752254465156 -144.63465738460312 1.0847564382776536 -23.59654832878781 1.0847564382776538 -23.596548328787822 0.8434824116402094 42.96477781075375
1700000000.0 0.8744026097706152 -144.67972789518862 1.0848892037958053 -23.637407044287226 1.0848892037958056 -23.637407044287233 0.8437980389149606 42.96644949435593
1710000000.0 0.8749277689536543 -144.72485228366415 1.0850207361269852 -23.678190624125474 1.0850207361269855 -23.678190624125474 0.8441112084559546 42.9680860393722
1720000000.0 0.875450743690784 -144.77002981949565 1.0851510563603914 -23.718900294881713 1.085151056360391 -23.718900294881706 0.8444219615376432 42.96968823046218
1730000000.0 0.8759715783516318 -144.8152597778469 1.0852801874184277 -23.759537422690798 1.0852801874184281 -23.759537422690812 0.8447303429467873 42.971256783776795
1740000000.0 0.8764903101231735 -144.860541562108 1.0854081478280604 -23.800103166426684 1.0854081478280604 -23.800103166426684 0.8450363902800648 42.9727923258266
1750000000.0 0.8770069824985711 -144.90587417014143 1.085534962745595 -23.840598745092834 1.0855349627455948 -23.840598745092834 0.8453401469859764 42.97429587510262
1760000000.0 0.8775216321638132 -144.95125709817867 1.0856606497392545 -23.881025331077424 1.0856606497392542 -23.881025331077417 0.8456416499007081 42.975767959120155
1770000000.0 0.878034295993795 -144.99668961578567 1.085785228942856 -23.921384021175587 1.0857852289428562 -23.921384021175594 0.8459409364868081 42.977209286015075
1780000000.0 0.8785450128879622 -145.04217124118315 1.0859087189715297 -23.961676054296948 1.0859087189715295 -23.961676054296948 0.846238046097983 42.97862040418772
1790000000.0 0.8790538175934542 -145.0877010182309 1.0860311410117687 -24.00190236122949 1.0860311410117687 -24.001902361229494 0.8465330133153116 42.980002260622825
1800000000.0 0.8795607475791347 -145.13327848093908 1.0861525131493244 -24.042064144102586 1.0861525131493244 -24.04206414410257 0.8468258759402398 42.98135533806707
1810000000.0 0.8800001179174541 -145.17877065881416 1.0862443669410695 -24.08015874372823 1.0862443669410693 -24.08015874372822 0.8470567913599523 42.982469075195446
1820000000.0 0.8804378336269494 -145.2243047373995 1.0863352579294099 -24.118197553601014 1.08633525792941 -24.11819755360102 0.8472858556210837 42.98355633925158
1830000000.0 0.8808739241815866 -145.26987985803908 1.0864252050615297 -24.156181331883698 1.08642520506153 -24.156181331883708 0.8475130983081155 42.98461799854182
1840000000.0 0.8813084170355342 -145.3154956563507 1.0865142220541082 -24.194110947877885 1.0865142220541082 -24.19411094787788 0.8477385473135195 42.98565442185061
1850000000.0 0.8817413430394188 -145.36115178754702 1.0866023239381815 -24.231987385724224 1.0866023239381812 -24.23198738572422 0.847962233645986 42.98666599311211
1860000000.0 0.8821727285476644 -145.4068474176113 1.0866895282386742 -24.269811303957987 1.0866895282386744 -24.26981130395798 0.8481841837923133 42.98765353904061
1870000000.0 0.8826026017386165 -145.45258223984726 1.0867758485250372 -24.30758361229321 1.086775848525037 -24.3075836122932 0.8484044259863242 42.98861738375737
1880000000.0 0.883030991999029 -145.49835579620108 1.0868613005327379 -24.34530519677537 1.0868613005327379 -24.34530519677537 0.8486229901260045 42.989558002898775
1890000000.0 0.8834579200680793 -145.54416771178884 1.0869458950684217 -24.382976695313992 1.0869458950684217 -24.382976695313992 0.8488398970057454 42.9904757864308
1900000000.0 0.8838834152240986 -145.59001725905387 1.0870296503281809 -24.420598884078913 1.0870296503281807 -24.4205988840789 0.8490551760017687 42.99137147204345
1910000000.0 0.8843075034389203 -145.6359041552154 1.0871125790593161 -24.45817259635293 1.0871125790593164 -24.45817259635293 0.8492688537089802 42.992245356839504
1920000000.0 0.8847302064224143 -145.68182805918508 1.0871946922627942 -24.49569851333443 1.087194692262794 -24.495698513334425 0.8494809515325888 42.99309779907974
1930000000.0 0.8851515518474306 -145.7277882799281 1.0872760072974803 -24.533177363167844 1.0872760072974799 -24.533177363167837 0.8496914974904931 42.993929499216804
1940000000.0 0.8855715617302831 -145.77378453295222 1.0873565351083887 -24.570609842618886 1.087356535108389 -24.570609842618882 0.8499005136843752 42.99474075785764
1950000000.0 0.8859902579444744 -145.81981637128573 1.087436288170235 -24.60799658889884 1.087436288170235 -24.60799658889884 0.8501080225052562 42.99553202369407
1960000000.0 0.8864076641674415 -145.86588354924098 1.087515277959963 -24.645338361026152 1.087515277959963 -24.64533836102614 0.8503140479307016 42.996303576675395
1970000000.0 0.8868238048492296 -145.91198541559402 1.0875935199318447 -24.68263579659008 1.0875935199318443 -24.682635796590095 0.8505186138190484 42.997056061271074
1980000000.0 0.88723870010613 -145.95812166356737 1.087671024642455 -24.719889519473114 1.087671024642455 -24.719889519473117 0.850721741014213 42.99778980265172
1990000000.0 0.8876523710042847 -146.00429206533985 1.0877478024281362 -24.75710020607318 1.0877478024281362 -24.75710020607318 0.8509234509141189 42.99850503463372
2000000000.0 0.8880648382331805 -146.05049594934772 1.0878238672638865 -24.79426835551716 1.0878238672638865 -24.794268355517158 0.8511237639251228 42.99920244781959
2010000000.0 0.8884215869957256 -146.09674611497502 1.0878740706514014 -24.829800085045047 1.0878740706514018 -24.829800085045047 0.851273751611351 42.99956916920376
2020000000.0 0.888777322397949 -146.14302456426609 1.087923655440528 -24.865296243495976 1.087923655440528 -24.86529624349598 0.8514225572876198 42.99992063995711
2030000000.0 0.8891320599793034 -146.18933066950947 1.0879726336012525 -24.900757148647717 1.0879726336012523 -24.900757148647706 0.8515701966310276 43.000257495955324
2040000000.0 0.8894858179567363 -146.2356644570712 1.0880210122889282 -24.93618346285318 1.0880210122889284 -24.936183462853183 0.8517166881969935 43.00057973697783
2050000000.0 0.8898386115777686 -146.2820253444341 1.0880688028718042 -24.971575517297193 1.0880688028718042 -24.971575517297193 0.8518620468984367 43.00088792626937
2060000000.0 0.8901904570608837 -146.32841333185843 1.0881160119679618 -25.00693389163052 1.088116011967962 -25.006933891630514 0.8520062896343076 43.00118209959305
2070000000.0 0.8905413723696041 -146.37482789308555 1.088162651692701 -25.042259023912194 1.0881626516927008 -25.042259023912198 0.8521494340564603 43.00146278414823
2080000000.0 0.8908913699778478 -146.42126898199078 1.088208727446659 -25.077551349890022 1.0882087274466588 -25.07755134989003 0.8522914932744028 43.00173005020251
2090000000.0 0.8912404682018517 -146.4677360946927 1.0882542513548292 -25.11281133059389 1.0882542513548292 -25.112811330593892 0.8524324852550064 43.00198438982907
2100000000.0 0.8915886787765261 -146.51422922052242 1.0882992281334525 -25.14803938499746 1.088299228133453 -25.148039384997467 0.8525724223681714 43.00222585413534
2110000000.0 0.8919360186680374 -146.5607478599623 1.0883436692499082 -25.18323593143954 1.0883436692499082 -25.18323593143954 0.8527113209742744 43.00245492063633
2120000000.0 0.8922825023645228 -146.60729200435765 1.0883875808688475 -25.218401482866998 1.088387580868847 -25.218401482866994 0.8528491965302017 43.0026716291208
2130000000.0 0.8926281427481471 -146.65386113212176 1.0884309728289874 -25.253536302428817 1.0884309728289876 -25.253536302428817 0.8529860615543478 43.00287649955145
2140000000.0 0.8929729550793638 -146.7004553077071 1.0884738507682352 -25.288640962865678 1.088473850768235 -25.288640962865678 0.8531219314741582 43.00306948911683
2150000000.0 0.8933169516321869 -146.74707397328396 1.0885162249080256 -25.323715687436188 1.0885162249080254 -25.323715687436188 0.8532568190135356 43.00325115071552
2160000000.0 0.8936601460959951 -146.79371718229297 1.0885581001893456 -25.35876099305914 1.0885581001893456 -25.358760993059146 0.8533907376684275 43.003421450580625
2170000000.0 0.8940025534193913 -146.8403844510727 1.0885994873139704 -25.393777215417675 1.0885994873139702 -25.393777215417682 0.8535237026806154 43.00358089492018
2180000000.0 0.8943441836515296 -146.88707580232315 1.0886403900188086 -25.428764740426168 1.0886403900188084 -25.42876474042616 0.853655724243633 43.00372944757398
2190000000.0 0.8946850524817253 -146.93379076494728 1.088680819119712 -25.46372393382942 1.0886808191197117 -25.463723933829424 0.8537868178001792 43.003867609273875
