# Hz S MA R 50.0 
!freq magS11 angS11 magS21 angS21 magS12 angS12 magS22 angS22
1000000000.0 0.8009163737638811 42.658317087414545 1.067301632316734 -20.067112599766006 1.0673016323167333 -20.06711259976599 0.8160187943403776 -141.61367544352532
1010000000.0 0.8019577019659544 42.66407814484432 1.0677276324441245 -20.132114512861452 1.0677276324441247 -20.132114512861452 0.8172593162070764 -141.65369346460045
1020000000.0 0.8029864624168855 42.66967502522453 1.0681488304595799 -20.196703565385313 1.0681488304595799 -20.19670356538531 0.8184877370096447 -141.69391893187765
1030000000.0 0.8040030082845592 42.67511258112834 1.0685653492152247 -20.26089154822246 1.0685653492152236 -20.260891548222446 0.8197044087899275 -141.73434691401698
1040000000.0 0.8050076942334772 42.68039543875257 1.0689773128205893 -20.32469034461424 1.0689773128205897 -20.324690344614243 0.820909685623667 -141.77497274228875
1050000000.0 0.8060008523401107 42.68552818170084 1.0693848380732867 -20.388110954782608 1.0693848380732864 -20.388110954782608 0.822103897208578 -141.81579184943533
1060000000.0 0.806982807985732 42.69051520840302 1.0697880410394707 -20.451164229473857 1.0697880410394713 -20.451164229473846 0.8232873682943029 -141.85679978574714
1070000000.0 0.8079538773533984 42.69536066451093 1.0701870342409778 -20.51386071036751 1.0701870342409778 -20.513860710367503 0.8244604138820462 -141.89799236430812
1080000000.0 0.8089143529116888 42.700068916933624 1.0705819246535524 -20.57621002712621 1.0705819246535526 -20.576210027126205 0.8256233253409719 -141.9393652220137
1090000000.0 0.8098645313982231 42.70464387643181 1.0709728197961308 -20.63822203984106 1.0709728197961308 -20.63822203984106 0.8267763981841502 -141.9809143925536
1100000000.0 0.8108046890872037 42.709089577699146 1.0713598219864775 -20.699905829743567 1.071359821986477 -20.69990582974356 0.8279199074389768 -142.02263581783606
1110000000.0 0.8117350980131842 42.71340984329472 1.0717430316871472 -20.76127039421423 1.071743031687147 -20.76127039421423 0.8290541245747326 -142.06452568595336
1120000000.0 0.812656023345862 42.71760826399024 1.0721225470048235 -20.8223244934265 1.0721225470048241 -20.822324493426475 0.8301793134783647 -142.10658036360334
1130000000.0 0.8135677095691801 42.7216886712016 1.0724984611607993 -20.883076079079412 1.0724984611608 -20.883076079079405 0.8312957173869711 -142.14879602837078
1140000000.0 0.814470406329728 42.725654471006195 1.0728708679701386 -20.943533386176235 1.0728708679701389 -20.943533386176224 0.832403585087414 -142.19116924002603
1150000000.0 0.8153643452548663 42.729509158007374 1.0732398567000945 -21.003703975012293 1.0732398567000945 -21.003703975012268 0.8335031474609955 -142.23369645266516
1160000000.0 0.8162497560085707 42.73325606345652 1.0736055146285783 -21.06359534815155 1.0736055146285783 -21.063595348151523 0.8345946328786621 -142.2763743963722
1170000000.0 0.8171268623048012 42.7368983653582 1.073967928347006 -21.123214850748404 1.0739679283470063 -21.123214850748404 0.8356782647617707 -142.319199829896
1180000000.0 0.8179958698681208 42.74043928520712 1.0743271784218595 -21.18256912703536 1.0743271784218593 -21.182569127035332 0.8367542473635161 -142.362169495408
1190000000.0 0.8188569903441563 42.74388195847149 1.0746833476937083 -21.24166505663626 1.0746833476937083 -21.241665056636258 0.8378227915523376 -142.40528031310674
1200000000.0 0.8197104195334848 42.74722934181019 1.0750365133769395 -21.30050899478783 1.0750365133769388 -21.300508994787798 0.8388840923361689 -142.44852927392617
1210000000.0 0.8204268455992414 42.75154774995314 1.0753458896153196 -21.354298013319514 1.0753458896153192 -21.354298013319504 0.8398018710004264 -142.49021839347333
1220000000.0 0.8211358633664227 42.75576240106019 1.0756520262236549 -21.407849041520596 1.0756520262236546 -21.40784904152062 0.8407125900691739 -142.53204364450605
1230000000.0 0.8218376560983809 42.75987593950642 1.0759549986588963 -21.46116808022679 1.0759549986588957 -21.461168080226802 0.8416164321723921 -142.57400236097976
1240000000.0 0.8225323953554616 42.763891023181635 1.0762548788589175 -21.514260714885697 1.0762548788589184 -21.514260714885715 0.8425135686808528 -142.61609185001583
1250000000.0 0.8232202478661473 42.76781026436921 1.076551736478275 -21.567132328105927 1.076551736478275 -21.567132328105906 0.8434041649917938 -142.65830951992223
1260000000.0 0.8239013801544756 42.771636149119104 1.0768456416347836 -21.61978834709763 1.0768456416347834 -21.619788347097614 0.844288387490872 -142.7006528658501
1270000000.0 0.8245759472059918 42.77537116808476 1.077136660539293 -21.672233765954026 1.077136660539294 -21.67223376595402 0.8451663904497474 -142.74311936052186
1280000000.0 0.8252441054659947 42.77901760605604 1.0774248584472434 -21.724473678429458 1.0774248584472441 -21.724473678429447 0.8460383296365689 -142.78570674386316
1290000000.0 0.8259060021649854 42.78257785235173 1.0777102993560446 -21.77651281156465 1.0777102993560446 -21.77651281156465 0.8469043519269126 -142.82841258455935
1300000000.0 0.8265617800154879 42.78605420942514 1.0779930444543242 -21.828355741738175 1.0779930444543244 -21.82835574173818 0.8477645990926438 -142.87123460394204
1310000000.0 0.8272115822316949 42.789448810589825 1.0782731553228706 -21.88000712138755 1.0782731553228708 -21.88000712138755 0.8486192143991055 -142.91417062920104
1320000000.0 0.8278555414692519 42.79276381705604 1.078550689439159 -21.931471181825298 1.0785506894391588 -21.931471181825277 0.849468329354052 -142.95721849002064
1330000000.0 0.8284937944934108 42.79600132641127 1.0788257059678608 -21.982752338451373 1.0788257059678612 -21.98275233845138 0.8503120806897657 -143.00037612696963
1340000000.0 0.829126463140357 42.79916344567353 1.0790982592349434 -22.03385443817533 1.0790982592349432 -22.033854438175336 0.851150589297685 -143.04364137807096
1350000000.0 0.8297536748767245 42.8022521223489 1.0793684047510181 -22.08478159196323 1.079368404751018 -22.084781591963235 0.8519839824927584 -143.08701229947576
1360000000.0 0.8303755523754626 42.80526928615388 1.0796361962738954 -22.135537711589723 1.0796361962738958 -22.135537711589716 0.852812382184163 -143.13048697178914
1370000000.0 0.8309922096534239 42.80821685840015 1.0799016847657759 -22.186126426472942 1.0799016847657759 -22.186126426472942 0.8536359021122378 -143.17406344928747
1380000000.0 0.8316037660409178 42.81109666395594 1.0801649228901815 -22.236551544601415 1.080164922890182 -22.23655154460139 0.8544546609876966 -143.2177399163664
1390000000.0 0.8322103257822199 42.81391060974856 1.0804259582045996 -22.286816325623487 1.0804259582045992 -22.286816325623494 0.8552687624517745 -143.2615144571729
1400000000.0 0.8328119997487207 42.81666035058724 1.080684839383002 -22.336924340884465 1.0806848393830022 -22.336924340884476 0.8560783172149994 -143.3053854181781
1410000000.0 0.8333121032660897 42.81965171429245 1.080904723007107 -22.38343901708599 1.080904723007107 -22.383439017085994 0.8567802501786879 -143.34853365172185
1420000000.0 0.8338076455946611 42.82257750543865 1.0811224288317705 -22.429810348110244 1.081122428831771 -22.429810348110234 0.8574778947451028 -143.39177278772743
1430000000.0 0.8342987222498963 42.82543925035579 1.0813380012799498 -22.47604134423748 1.0813380012799498 -22.476041344237476 0.8581713455333428 -143.43510127042052
1440000000.0 0.834785425935688 42.82823851396666 1.081551484207014 -22.522134917552165 1.0815514842070135 -22.52213491755216 0.858860695026764 -143.47851754031427
1450000000.0 0.8352678445913614 42.830976805948765 1.081762919391051 -22.568093859709634 1.0817629193910507 -22.56809385970966 0.8595460315132105 -143.52202007114488
1460000000.0 0.8357460695234544 42.83365551249353 1.0819723488023507 -22.613921039443515 1.0819723488023507 -22.613921039443515 0.8602274450769393 -143.56560750105245
1470000000.0 0.8362201828883515 42.83627609879229 1.0821798124571556 -22.659619032597075 1.0821798124571556 -22.659619032597075 0.8609050179928425 -143.60927831067778
1480000000.0 0.8366902720969476 42.83883990311638 1.08238535091974 -22.70519061874033 1.08238535091974 -22.70519061874032 0.8615788375603617 -143.65303119693183
1490000000.0 0.8371564120553091 42.84134833593666 1.0825890007929944 -22.750638105969532 1.0825890007929946 -22.750638105969532 0.8622489781967433 -143.69686472532766
1500000000.0 0.8376186866263151 42.843802706649136 1.0827908018239434 -22.79596411969474 1.0827908018239436 -22.795964119694755 0.8629155231318255 -143.74077758782687
1510000000.0 0.8380771703390925 42.846204295280444 1.0829907897651565 -22.841171017888502 1.082990789765157 -22.841171017888517 0.8635785472505061 -143.78476850122829
1520000000.0 0.8385319370205383 42.84855438647448 1.0831890004756186 -22.886261081238345 1.0831890004756184 -22.886261081238338 0.864238123741254 -143.82883615992876
1530000000.0 0.8389830637018514 42.85085415679778 1.0833854701033196 -22.93123674426303 1.0833854701033194 -22.931236744263032 0.8648943293637924 -143.87297941876585
1540000000.0 0.8394306158160615 42.8531049296342 1.0835802316738332 -22.976099980646527 1.0835802316738334 -22.976099980646545 0.8655472290288122 -143.9171969397052
1550000000.0 0.8398746669712979 42.855307769563254 1.0837733201232709 -23.020853145712156 1.0837733201232704 -23.020853145712152 0.866196896643631 -143.96148762539076
1560000000.0 0.8403152815188811 42.85746390484643 1.0839647671455817 -23.065498196646658 1.0839647671455812 -23.065498196646637 0.8668433958777797 -144.00585027506008
1570000000.0 0.8407525285386886 42.8595743940045 1.0841546058471938 -23.110037302201018 1.0841546058471934 -23.110037302201015 0.8674867955482474 -144.0502838174042
1580000000.0 0.8411864709528732 42.86164043237257 1.0843428677461828 -23.154472377606407 1.0843428677461826 -23.154472377606403 0.8681271582030957 -144.09478706577377
1590000000.0 0.8416171706916711 42.86366301637877 1.0845295827041492 -23.198805384957833 1.0845295827041495 -23.198805384957826 0.8687645461527863 -144.13935901840551
1600000000.0 0.842044689453388 42.8656432125323 1.0847147811574074 -23.24303820268553 1.0847147811574076 -23.243038202685526 0.8693990201820894 -144.1839985934871
1610000000.0 0.8423939525277081 42.86752924320871 1.0848660249050444 -23.284598525757584 1.0848660249050452 -23.284598525757595 0.8699495584207991 -144.22832612631856
1620000000.0 0.8427403301922395 42.86937424155999 1.0850158104073317 -23.32606967755166 1.0850158104073317 -23.32606967755168 0.8704974322200377 -144.27271515764414
1630000000.0 0.8430838768825739 42.871179166207824 1.0851641655446405 -23.367453310241295 1.085164165544641 -23.367453310241288 0.8710426955896942 -144.3171647336881
1640000000.0 0.843424641281637 42.872944937584094 1.0853111156643298 -23.408750902564346 1.08531111566433 -23.40875090256434 0.8715853972682094 -144.3616739270951
1650000000.0 0.8437626759455767 42.87467214336636 1.085456685187338 -23.449964171998005 1.0854566851873377 -23.44996417199802 0.8721255895694542 -144.40624211709206
1660000000.0 0.8440980295592235 42.876362038693465 1.0856009025014153 -23.491094458381973 1.0856009025014157 -23.491094458381976 0.8726633210561617 -144.45086807365695
1670000000.0 0.8444307483113024 42.87801531182291 1.0857437901059996 -23.532143216283718 1.0857437901059996 -23.53214321628371 0.8731986376061391 -144.49555110250213
1680000000.0 0.8447608818024072 42.879632714656 1.0858853727165512 -23.573111997047643 1.0858853727165512 -23.573111997047654 0.8737315887760901 -144.54029045036498
1690000000.0 0.8450884724612377 42.88121492337697 1.0860256714379033 -23.614002129337933 1.0860256714379026 -23.61400212933792 0.8742622168626499 -144.5850854261489
1700000000.0 0.8454135687999328 42.882763011147524 1.0861647137689454 -23.654814996355984 1.0861647137689454 -23.65481499635599 0.8747905703298791 -144.62993495562642
1710000000.0 0.8457362128963936 42.884277646268195 1.0863025203271324 -23.695551897110796 1.0863025203271324 -23.695551897110796 0.8753166906718958 -144.67483839628161
1720000000.0 0.8460564459437437 42.8857595149196 1.0864391125390662 -23.736214104632307 1.0864391125390667 -23.736214104632303 0.8758406191936531 -144.71979501191788
1730000000.0 0.8463743122638568 42.887209366395346 1.0865745129218574 -23.77680297702528 1.0865745129218571 -23.77680297702527 0.8763624001281579 -144.7648040947785
1740000000.0 0.8466898495341769 42.88862777623255 1.086708740253135 -23.817319695832907 1.0867087402531348 -23.817319695832897 0.8768820709693473 -144.80986504209605
1750000000.0 0.8470031013385411 42.89001576086002 1.0868418197910537 -23.857765479064728 1.0868418197910545 -23.857765479064728 0.8773996752302882 -144.8549768484946
1760000000.0 0.8473141050474388 42.89137382147124 1.0869737695198303 -23.898141505098767 1.0869737695198303 -23.898141505098767 0.8779152497328906 -144.90013899502623
1770000000.0 0.8476228971855292 42.89270269434152 1.0871046089246352 -23.938448870174792 1.0871046089246346 -23.9384488701748 0.8784288312648977 -144.94535077830795
1780000000.0 0.8479295174276661 42.894002842421266 1.0872343571331902 -23.978688848875624 1.0872343571331902 -23.97868884887564 0.8789404592284317 -144.99061170285205
1790000000.0 0.8482340005297163 42.89527522575616 1.0873630353980557 -24.018862363415604 1.087363035398056 -24.018862363415582 0.8794501682870044 -145.0359208089359
1800000000.0 0.8485363843486928 42.89652032772612 1.087490661845069 -24.05897061589335 1.0874906618450697 -24.05897061589335 0.8799579959269417 -145.08127762984475
1810000000.0 0.8487766471527224 42.897502938250355 1.0875887454435988 -24.097021505122587 1.087588745443599 -24.097021505122612 0.8803983085938325 -145.12654535785023
1820000000.0 0.8490150636682761 42.898460593646206 1.0876858640312248 -24.135015856240166 1.0876858640312246 -24.135015856240152 0.8808369594110044 -145.17185501427576
1830000000.0 0.8492516634876693 42.89939414280559 1.0877820366364896 -24.17295443636678 1.0877820366364894 -24.172954436366773 0.8812739779779073 -145.21720573944606
1840000000.0 0.8494864741191898 42.900303941588746 1.0878772767995537 -24.210838126071803 1.0878772767995537 -24.210838126071824 0.8817093918615126 -145.26259717857434
1850000000.0 0.8497195268453701 42.901190340589054 1.0879715998487807 -24.24866792154137 1.0879715998487811 -24.24866792154137 0.8821432321038987 -145.30802897741424
1860000000.0 0.8499508479943609 42.90205416555117 1.0880650232227917 -24.286444484176833 1.0880650232227913 -24.28644448417682 0.8825755250975209 -145.35350030657705
1870000000.0 0.8501804661369312 42.90289573662754 1.0881575607131493 -24.324168721073033 1.088157560713149 -24.324168721073036 0.8830062990175498 -145.3990108503044
1880000000.0 0.850408410541594 42.90371550631974 1.088249227771916 -24.361841537807074 1.0882492277719167 -24.361841537807063 0.883435583454743 -145.44456016644796
1890000000.0 0.850634702693559 42.904513839511 1.088340035714183 -24.39946357465794 1.0883400357141828 -24.399463574657943 0.8838633992482263 -145.49014785975865
1900000000.0 0.8508593715949485 42.905291465008375 1.0884300025592792 -24.437035617066115 1.0884300025592792 -24.437035617066115 0.8842897757783714 -145.5357732123302
1910000000.0 0.8510824431992223 42.906048656754045 1.0885191407575323 -24.474558517882 1.0885191407575312 -24.474558517881995 0.8847147392045719 -145.58143595781897
1920000000.0 0.8513039401764707 42.90678577378169 1.0886074620686474 -24.512032941446225 1.0886074620686481 -24.512032941446225 0.8851383111534543 -145.62713572122365
1930000000.0 0.8515238897603171 42.907503498295455 1.0886949834643012 -24.54945963487283 1.0886949834643016 -24.549459634872836 0.8855605194802805 -145.6728718314942
1940000000.0 0.8517423143019685 42.90820211263651 1.0887817161060358 -24.5868393002043 1.0887817161060358 -24.586839300204307 0.8859813862992454 -145.71864399675803
1950000000.0 0.851959235816831 42.90888205559324 1.088867672285515 -24.624172584450072 1.088867672285515 -24.624172584450076 0.8864009335739573 -145.76445177972434
1960000000.0 0.8521746783014443 42.90954356634593 1.0889528636520807 -24.66146026556354 1.0889528636520804 -24.661460265563562 0.886819185239414 -145.81029493156717
1970000000.0 0.8523886662541419 42.91018732702071 1.0890373059083878 -24.69870295531013 1.0890373059083873 -24.698702955310118 0.8872361654876414 -145.85617278698817
1980000000.0 0.852601220061586 42.91081362638346 1.0891210094799313 -24.735901300630246 1.0891210094799313 -24.73590130063024 0.8876518946947164 -145.90208504903111
1990000000.0 0.8528123607589239 42.911422688978604 1.0892039845214823 -24.77305598741619 1.0892039845214823 -24.77305598741618 0.8880663940104305 -145.94803149957744
2000000000.0 0.8530221094563648 42.91201518609816 1.0892862455126386 -24.810167514313797 1.089286245512639 -24.810167514313807 0.8884796842064828 -145.99401144678066
2010000000.0 0.853181371383263 42.912254118173635 1.0893426247579636 -24.845652727526847 1.0893426247579632 -24.845652727526844 0.8888373094447215 -146.0400347176189
2020000000.0 0.8533394558200119 42.91247911822337 1.0893983838645067 -24.881101717473975 1.089398383864507 -24.881101717473975 0.8891939151972957 -146.08608629223025
2030000000.0 0.8534963780574285 42.912690787135105 1.089453534721491 -24.916514822985516 1.0894535347214915 -24.91651482298554 0.8895495172550523 -146.13216554977177
2040000000.0 0.8536521568356229 42.91288910804489 1.0895080846498828 -24.951892712787586 1.0895080846498824 -24.95189271278757 0.8899041339371604 -146.1782725119245
2050000000.0 0.8538068071809992 42.913074673448236 1.0895620449930745 -24.98723570197912 1.0895620449930747 -24.987235701979113 0.8902577803008873 -146.22440659388266
2060000000.0 0.8539603457220878 42.91324746450489 1.0896154223995438 -25.022544400004413 1.0896154223995436 -25.02254440000442 0.8906104729216238 -146.2705678010831
2070000000.0 0.8541127903714661 42.913408022779144 1.0896682291007986 -25.057819234453298 1.0896682291007984 -25.057819234453287 0.8909622296690594 -146.31675560086128
2080000000.0 0.8542641538625297 42.913556368966354 1.0897204704607077 -25.093060669439907 1.089720470460708 -25.093060669439904 0.8913130633418738 -146.36296995381306
2090000000.0 0.8544144544180468 42.91369303589869 1.0897721586131952 -25.128269143655963 1.089772158613195 -25.128269143655963 0.8916629920086206 -146.40921035207273
2100000000.0 0.8545637042343557 42.91381799552396 1.0898232984647718 -25.163445115536803 1.0898232984647713 -25.163445115536785 0.892012027894268 -146.45547678479144
2110000000.0 0.8547119202033776 42.913931790333685 1.0898739015675691 -25.19858896581431 1.0898739015675694 -25.198588965814313 0.8923601875434449 -146.50176874231437
2120000000.0 0.8548591169383701 42.914034403301464 1.0899239737928623 -25.233701245743 1.0899239737928625 -25.233701245743017 0.8927074858528374 -146.54808623554672
2130000000.0 0.8550053072942012 42.91412635361743 1.089973525194282 -25.268782213707894 1.089973525194282 -25.268782213707894 0.893053935685295 -146.5944287332463
2140000000.0 0.8551505071317816 42.91420759612857 1.0900225616760346 -25.303832438562036 1.0900225616760344 -25.303832438562036 0.893399552303297 -146.64079628896152
2150000000.0 0.8552947281166862 42.91427865722771 1.0900710929332196 -25.338852169854288 1.0900710929332202 -25.338852169854295 0.8937443482147003 -146.6871883712466
2160000000.0 0.8554379847184896 42.9143395109325 1.0901191244691015 -25.37384190788234 1.0901191244691018 -25.37384190788233 0.8940883369995599 -146.73360500765318
2170000000.0 0.855580291673542 42.91439061701503 1.0901666668533179 -25.408802017234745 1.0901666668533176 -25.408802017234738 0.8944315339387636 -146.78004572632824
2180000000.0 0.855721659305041 42.91443196757088 1.0902137237995637 -25.443732868220543 1.0902137237995637 -25.443732868220557 0.8947739488852556 -146.82651054761973
2190000000.0 0.8558621034366004 42.91446403698403 1.0902603064575935 -25.47863483474962 1.0902603064575938 -25.478634834749617 0.8951155976919258 -146.87299898928347
