! Created Mon Nov 11 18:42:43 2024
# hz S ma R 50
! 2 Port Network Data from SP1.SP block
! freq  magS11  angS11  magS21  angS21  magS12  angS12  magS22  angS22  
!     
         1000000000      0.01908570488          86.0449998        0.9998178367        -3.943364533        0.9998178367        -3.943364533       0.01908570489         86.06820947
         1010000000      0.01927601819         86.00546385        0.9998138412        -3.982784468        0.9998138412        -3.982784468        0.0192760182         86.02890555
         1020000000       0.0194663315         85.96592789        0.9998098456        -4.022204404        0.9998098456        -4.022204404       0.01946633151         85.98960163
         1030000000      0.01965664481         85.92639193        0.9998058501        -4.061624339        0.9998058501        -4.061624339       0.01965664482         85.95029772
         1040000000      0.01984695812         85.88685598        0.9998018545        -4.101044275        0.9998018545        -4.101044275       0.01984695814          85.9109938
         1050000000      0.02003727143         85.84732002         0.999797859         -4.14046421         0.999797859         -4.14046421       0.02003727145         85.87168988
         1060000000      0.02022758475         85.80778407        0.9997938635        -4.179884146        0.9997938635        -4.179884146       0.02022758476         85.83238596
         1070000000      0.02041789806         85.76824811        0.9997898679        -4.219304081        0.9997898679        -4.219304081       0.02041789807         85.79308205
         1080000000      0.02060821137         85.72871216        0.9997858724        -4.258724017        0.9997858724        -4.258724017       0.02060821138         85.75377813
         1090000000      0.02079852468         85.68917621        0.9997818768        -4.298143952        0.9997818768        -4.298143952       0.02079852469         85.71447421
         1100000000      0.02098883799         85.64964025        0.9997778813        -4.337563887        0.9997778813        -4.337563887         0.020988838          85.6751703
         1110000000       0.0211791513         85.61010429        0.9997738858        -4.376983823        0.9997738858        -4.376983823       0.02117915132         85.63586638
         1120000000      0.02136946461         85.57056834        0.9997698902        -4.416403758        0.9997698902        -4.416403758       0.02136946463         85.59656246
         1130000000      0.02155977792         85.53103238        0.9997658947        -4.455823694        0.9997658947        -4.455823694       0.02155977794         85.55725854
         1140000000      0.02175009123         85.49149643        0.9997618991        -4.495243629        0.9997618991        -4.495243629       0.02175009125         85.51795462
         1150000000      0.02194040454         85.45196047        0.9997579036        -4.534663565        0.9997579036        -4.534663565       0.02194040456         85.47865071
         1160000000      0.02213071786         85.41242452        0.9997539081          -4.5740835        0.9997539081          -4.5740835       0.02213071787         85.43934679
         1170000000      0.02232103117         85.37288857        0.9997499125        -4.613503436        0.9997499125        -4.613503436       0.02232103119         85.40004287
         1180000000      0.02251134448         85.33335261         0.999745917        -4.652923371         0.999745917        -4.652923371        0.0225113445         85.36073896
         1190000000      0.02270165779         85.29381666        0.9997419214        -4.692343307        0.9997419214        -4.692343307       0.02270165781         85.32143504
         1200000000       0.0228919711          85.2542807        0.9997379259        -4.731763242        0.9997379259        -4.731763242       0.02289197112         85.28213112
         1210000000      0.02308198831         85.21475219        0.9997332133        -4.771175723        0.9997332133        -4.771175723       0.02308198833         85.24283462
         1220000000      0.02327200552         85.17522369        0.9997285007        -4.810588203        0.9997285007        -4.810588203       0.02327200554         85.20353812
         1230000000      0.02346202273         85.13569518         0.999723788        -4.850000684         0.999723788        -4.850000684       0.02346202275         85.16424162
         1240000000      0.02365203994         85.09616668        0.9997190754        -4.889413164        0.9997190754        -4.889413164       0.02365203997         85.12494512
         1250000000      0.02384205715         85.05663817        0.9997143628        -4.928825644        0.9997143628        -4.928825644       0.02384205718         85.08564862
         1260000000      0.02403207436         85.01710967        0.9997096502        -4.968238125        0.9997096502        -4.968238125       0.02403207439         85.04635212
         1270000000      0.02422209157         84.97758116        0.9997049376        -5.007650606        0.9997049376        -5.007650606        0.0242220916         85.00705562
         1280000000      0.02441210878         84.93805266        0.9997002249        -5.047063086        0.9997002249        -5.047063086       0.02441210881         84.96775912
         1290000000      0.02460212599         84.89852415        0.9996955123        -5.086475566        0.9996955123        -5.086475566       0.02460212602         84.92846262
         1300000000      0.02479214321         84.85899564        0.9996907997        -5.125888047        0.9996907997        -5.125888047       0.02479214323         84.88916612
         1310000000      0.02498216042         84.81946714        0.9996860871        -5.165300528        0.9996860871        -5.165300528       0.02498216045         84.84986962
         1320000000      0.02517217763         84.77993863        0.9996813745        -5.204713008        0.9996813745        -5.204713008       0.02517217766         84.81057312
         1330000000      0.02536219484         84.74041013        0.9996766618        -5.244125489        0.9996766618        -5.244125489       0.02536219487         84.77127662
         1340000000      0.02555221205         84.70088162        0.9996719492        -5.283537969        0.9996719492        -5.283537969       0.02555221208         84.73198012
         1350000000      0.02574222926         84.66135312        0.9996672366         -5.32295045        0.9996672366         -5.32295045       0.02574222929         84.69268362
         1360000000      0.02593224647         84.62182461         0.999662524         -5.36236293         0.999662524         -5.36236293        0.0259322465         84.65338712
         1370000000      0.02612226368         84.58229611        0.9996578114         -5.40177541        0.9996578114         -5.40177541       0.02612226372         84.61409062
         1380000000      0.02631228089          84.5427676        0.9996530987        -5.441187891        0.9996530987        -5.441187891       0.02631228093         84.57479412
         1390000000       0.0265022981          84.5032391        0.9996483861        -5.480600372        0.9996483861        -5.480600372       0.02650229814         84.53549762
         1400000000      0.02669231531         84.46371059        0.9996436735        -5.520012852        0.9996436735        -5.520012852       0.02669231535         84.49620112
         1410000000      0.02688198747         84.42419077        0.9996382485        -5.559416654        0.9996382485        -5.559416654       0.02688198751         84.45691327
         1420000000      0.02707165964         84.38467096        0.9996328235        -5.598820457        0.9996328235        -5.598820457       0.02707165968         84.41762542
         1430000000       0.0272613318         84.34515114        0.9996273984        -5.638224259        0.9996273984        -5.638224259       0.02726133184         84.37833757
         1440000000      0.02745100396         84.30563132        0.9996219734        -5.677628062        0.9996219734        -5.677628062         0.027451004         84.33904973
         1450000000      0.02764067612         84.26611151        0.9996165484        -5.717031865        0.9996165484        -5.717031865       0.02764067617         84.29976188
         1460000000      0.02783034829         84.22659169        0.9996111234        -5.756435667        0.9996111234        -5.756435667       0.02783034833         84.26047403
         1470000000      0.02802002045         84.18707187        0.9996056984         -5.79583947        0.9996056984         -5.79583947       0.02802002049         84.22118618
         1480000000      0.02820969261         84.14755206        0.9996002733        -5.835243272        0.9996002733        -5.835243272       0.02820969265         84.18189833
         1490000000      0.02839936477         84.10803224        0.9995948483        -5.874647074        0.9995948483        -5.874647074       0.02839936482         84.14261048
         1500000000      0.02858903694         84.06851242        0.9995894233        -5.914050877        0.9995894233        -5.914050877       0.02858903698         84.10332264
         1510000000       0.0287787091         84.02899261        0.9995839983         -5.95345468        0.9995839983         -5.95345468       0.02877870914         84.06403479
         1520000000      0.02896838126         83.98947279        0.9995785733        -5.992858482        0.9995785733        -5.992858482       0.02896838131         84.02474694
         1530000000      0.02915805342         83.94995298        0.9995731482        -6.032262284        0.9995731482        -6.032262284       0.02915805347         83.98545909
         1540000000      0.02934772559         83.91043316        0.9995677232        -6.071666087        0.9995677232        -6.071666087       0.02934772563         83.94617124
         1550000000      0.02953739775         83.87091334        0.9995622982        -6.111069889        0.9995622982        -6.111069889        0.0295373978         83.90688339
         1560000000      0.02972706991         83.83139353        0.9995568732        -6.150473692        0.9995568732        -6.150473692       0.02972706996         83.86759554
         1570000000      0.02991674207         83.79187371        0.9995514482        -6.189877494        0.9995514482        -6.189877494       0.02991674212          83.8283077
         1580000000      0.03010641424         83.75235389        0.9995460231        -6.229281297        0.9995460231        -6.229281297       0.03010641428         83.78901985
         1590000000       0.0302960864         83.71283408        0.9995405981          -6.2686851        0.9995405981          -6.2686851       0.03029608645           83.749732
         1600000000      0.03048575856         83.67331426        0.9995351731        -6.308088902        0.9995351731        -6.308088902       0.03048575861         83.71044415
         1610000000      0.03067503691         83.63380436         0.999529041        -6.347482812         0.999529041        -6.347482812       0.03067503696         83.67116617
         1620000000      0.03086431526         83.59429445         0.999522909        -6.386876722         0.999522909        -6.386876722       0.03086431532         83.63188819
         1630000000      0.03105359361         83.55478455        0.9995167769        -6.426270633        0.9995167769        -6.426270633       0.03105359367         83.59261021
         1640000000      0.03124287197         83.51527465        0.9995106449        -6.465664543        0.9995106449        -6.465664543       0.03124287202         83.55333223
         1650000000      0.03143215032         83.47576474        0.9995045128        -6.505058453        0.9995045128        -6.505058453       0.03143215038         83.51405425
         1660000000      0.03162142867         83.43625484        0.9994983807        -6.544452363        0.9994983807        -6.544452363       0.03162142873         83.47477628
         1670000000      0.03181070702         83.39674494        0.9994922487        -6.583846274        0.9994922487        -6.583846274       0.03181070708          83.4354983
         1680000000      0.03199998537         83.35723503        0.9994861166        -6.623240184        0.9994861166        -6.623240184       0.03199998543         83.39622032
         1690000000      0.03218926372         83.31772513        0.9994799846        -6.662634094        0.9994799846        -6.662634094       0.03218926379         83.35694234
         1700000000      0.03237854207         83.27821523        0.9994738525        -6.702028004        0.9994738525        -6.702028004       0.03237854214         83.31766436
         1710000000      0.03256782043         83.23870532        0.9994677204        -6.741421915        0.9994677204        -6.741421915       0.03256782049         83.27838638
         1720000000      0.03275709878         83.19919542        0.9994615884        -6.780815825        0.9994615884        -6.780815825       0.03275709885          83.2391084
         1730000000      0.03294637713         83.15968551        0.9994554563        -6.820209735        0.9994554563        -6.820209735        0.0329463772         83.19983042
         1740000000      0.03313565548         83.12017561        0.9994493243        -6.859603645        0.9994493243        -6.859603645       0.03313565555         83.16055244
         1750000000      0.03332493383         83.08066571        0.9994431922        -6.898997556        0.9994431922        -6.898997556       0.03332493391         83.12127446
         1760000000      0.03351421218          83.0411558        0.9994370601        -6.938391466        0.9994370601        -6.938391466       0.03351421226         83.08199649
         1770000000      0.03370349054          83.0016459        0.9994309281        -6.977785376        0.9994309281        -6.977785376       0.03370349061         83.04271851
         1780000000      0.03389276889           82.962136         0.999424796        -7.017179287         0.999424796        -7.017179287       0.03389276896         83.00344053
         1790000000      0.03408204724         82.92262609         0.999418664        -7.056573197         0.999418664        -7.056573197       0.03408204732         82.96416255
         1800000000      0.03427132559         82.88311619        0.9994125319        -7.095967107        0.9994125319        -7.095967107       0.03427132567         82.92488457
         1810000000      0.03446016158         82.84361741        0.9994056989        -7.135349921        0.9994056989        -7.135349921       0.03446016166         82.88561767
         1820000000      0.03464899757         82.80411863        0.9993988659        -7.174732735        0.9993988659        -7.174732735       0.03464899765         82.84635076
         1830000000      0.03483783356         82.76461985        0.9993920328        -7.214115549        0.9993920328        -7.214115549       0.03483783364         82.80708386
         1840000000      0.03502666955         82.72512107        0.9993851998        -7.253498362        0.9993851998        -7.253498362       0.03502666963         82.76781696
         1850000000      0.03521550553         82.68562229        0.9993783668        -7.292881176        0.9993783668        -7.292881176       0.03521550562         82.72855005
         1860000000      0.03540434152         82.64612351        0.9993715338         -7.33226399        0.9993715338         -7.33226399       0.03540434161         82.68928315
         1870000000      0.03559317751         82.60662473        0.9993647008        -7.371646804        0.9993647008        -7.371646804        0.0355931776         82.65001625
         1880000000       0.0357820135         82.56712595        0.9993578677        -7.411029618        0.9993578677        -7.411029618       0.03578201359         82.61074934
         1890000000      0.03597084949         82.52762717        0.9993510347        -7.450412432        0.9993510347        -7.450412432       0.03597084958         82.57148244
         1900000000      0.03615968548         82.48812839        0.9993442017        -7.489795246        0.9993442017        -7.489795246       0.03615968557         82.53221554
         1910000000      0.03634852147         82.44862961        0.9993373687        -7.529178059        0.9993373687        -7.529178059       0.03634852157         82.49294863
         1920000000      0.03653735746         82.40913083        0.9993305357        -7.568560873        0.9993305357        -7.568560873       0.03653735756         82.45368173
         1930000000      0.03672619345         82.36963205        0.9993237026        -7.607943687        0.9993237026        -7.607943687       0.03672619355         82.41441482
         1940000000      0.03691502944         82.33013327        0.9993168696        -7.647326501        0.9993168696        -7.647326501       0.03691502954         82.37514792
         1950000000      0.03710386543         82.29063449        0.9993100366        -7.686709315        0.9993100366        -7.686709315       0.03710386553         82.33588102
         1960000000      0.03729270141         82.25113571        0.9993032036        -7.726092129        0.9993032036        -7.726092129       0.03729270152         82.29661411
         1970000000       0.0374815374         82.21163693        0.9992963706        -7.765474942        0.9992963706        -7.765474942       0.03748153751         82.25734721
         1980000000      0.03767037339         82.17213815        0.9992895375        -7.804857756        0.9992895375        -7.804857756        0.0376703735         82.21808031
         1990000000      0.03785920938         82.13263937        0.9992827045         -7.84424057        0.9992827045         -7.84424057       0.03785920949          82.1788134
         2000000000      0.03804804537         82.09314059        0.9992758715        -7.883623384        0.9992758715        -7.883623384       0.03804804548          82.1395465
         2010000000      0.03823639068         82.05365413        0.9992683443        -7.922993909        0.9992683443        -7.922993909       0.03823639079         82.10029186
         2020000000      0.03842473599         82.01416767         0.999260817        -7.962364433         0.999260817        -7.962364433        0.0384247361         82.06103723
         2030000000       0.0386130813         81.97468121        0.9992532898        -8.001734958        0.9992532898        -8.001734958       0.03861308142         82.02178259
         2040000000      0.03880142661         81.93519475        0.9992457625        -8.041105483        0.9992457625        -8.041105483       0.03880142673         81.98252795
         2050000000      0.03898977192          81.8957083        0.9992382353        -8.080476008        0.9992382353        -8.080476008       0.03898977204         81.94327331
         2060000000      0.03917811723         81.85622184        0.9992307081        -8.119846533        0.9992307081        -8.119846533       0.03917811735         81.90401867
         2070000000      0.03936646254         81.81673538        0.9992231808        -8.159217057        0.9992231808        -8.159217057       0.03936646266         81.86476404
         2080000000      0.03955480785         81.77724892        0.9992156536        -8.198587582        0.9992156536        -8.198587582       0.03955480798          81.8255094
         2090000000      0.03974315316         81.73776246        0.9992081263        -8.237958107        0.9992081263        -8.237958107       0.03974315329         81.78625476
