! Created Wed Feb 12 19:45:46 2025
# hz S ma R 50
! 2 Port Network Data from SP1.SP block
! freq  magS11  angS11  magS21  angS21  magS12  angS12  magS22  angS22  
!     
             1e+09       0.999999988         176.347313                  0                  0                  0                  0        0.999999988         176.347313
          1.01e+09       0.999999988         176.310801                  0                  0                  0                  0        0.999999988         176.310801
          1.02e+09       0.999999988         176.274289                  0                  0                  0                  0        0.999999988         176.274289
          1.03e+09       0.999999988         176.237778                  0                  0                  0                  0        0.999999988         176.237778
          1.04e+09       0.999999988         176.201266                  0                  0                  0                  0        0.999999988         176.201266
          1.05e+09       0.999999988         176.164754                  0                  0                  0                  0        0.999999988         176.164754
          1.06e+09       0.999999988         176.128243                  0                  0                  0                  0        0.999999988         176.128243
          1.07e+09       0.999999988         176.091731                  0                  0                  0                  0        0.999999988         176.091731
          1.08e+09       0.999999988         176.055219                  0                  0                  0                  0        0.999999988         176.055219
          1.09e+09       0.999999988         176.018708                  0                  0                  0                  0        0.999999988         176.018708
           1.1e+09       0.999999988         175.982196                  0                  0                  0                  0        0.999999988         175.982196
          1.11e+09       0.999999988         175.945684                  0                  0                  0                  0        0.999999988         175.945684
          1.12e+09       0.999999988         175.909173                  0                  0                  0                  0        0.999999988         175.909173
          1.13e+09       0.999999988         175.872661                  0                  0                  0                  0        0.999999988         175.872661
          1.14e+09       0.999999988         175.836149                  0                  0                  0                  0        0.999999988         175.836149
          1.15e+09       0.999999988         175.799638                  0                  0                  0                  0        0.999999988         175.799638
          1.16e+09       0.999999988         175.763126                  0                  0                  0                  0        0.999999988         175.763126
          1.17e+09       0.999999988         175.726614                  0                  0                  0                  0        0.999999988         175.726614
          1.18e+09       0.999999988         175.690103                  0                  0                  0                  0        0.999999988         175.690103
          1.19e+09       0.999999988         175.653591                  0                  0                  0                  0        0.999999988         175.653591
           1.2e+09       0.999999988         175.617079                  0                  0                  0                  0        0.999999988         175.617079
          1.21e+09       0.999999987         175.580576                  0                  0                  0                  0        0.999999987         175.580576
          1.22e+09       0.999999987         175.544073                  0                  0                  0                  0        0.999999987         175.544073
          1.23e+09       0.999999987         175.507569                  0                  0                  0                  0        0.999999987         175.507569
          1.24e+09       0.999999987         175.471066                  0                  0                  0                  0        0.999999987         175.471066
          1.25e+09       0.999999987         175.434563                  0                  0                  0                  0        0.999999987         175.434563
          1.26e+09       0.999999987         175.398059                  0                  0                  0                  0        0.999999987         175.398059
          1.27e+09       0.999999987         175.361556                  0                  0                  0                  0        0.999999987         175.361556
          1.28e+09       0.999999987         175.325052                  0                  0                  0                  0        0.999999987         175.325052
          1.29e+09       0.999999987         175.288549                  0                  0                  0                  0        0.999999987         175.288549
           1.3e+09       0.999999987         175.252046                  0                  0                  0                  0        0.999999987         175.252046
          1.31e+09       0.999999987         175.215542                  0                  0                  0                  0        0.999999987         175.215542
          1.32e+09       0.999999987         175.179039                  0                  0                  0                  0        0.999999987         175.179039
          1.33e+09       0.999999987         175.142536                  0                  0                  0                  0        0.999999987         175.142536
          1.34e+09       0.999999987         175.106032                  0                  0                  0                  0        0.999999987         175.106032
          1.35e+09       0.999999987         175.069529                  0                  0                  0                  0        0.999999987         175.069529
          1.36e+09       0.999999987         175.033026                  0                  0                  0                  0        0.999999987         175.033026
          1.37e+09       0.999999987         174.996522                  0                  0                  0                  0        0.999999987         174.996522
          1.38e+09       0.999999987         174.960019                  0                  0                  0                  0        0.999999987         174.960019
          1.39e+09       0.999999987         174.923516                  0                  0                  0                  0        0.999999987         174.923516
           1.4e+09       0.999999987         174.887012                  0                  0                  0                  0        0.999999987         174.887012
          1.41e+09       0.999999987         174.850518                  0                  0                  0                  0        0.999999987         174.850518
          1.42e+09       0.999999987         174.814025                  0                  0                  0                  0        0.999999987         174.814025
          1.43e+09       0.999999987         174.777531                  0                  0                  0                  0        0.999999987         174.777531
          1.44e+09       0.999999986         174.741037                  0                  0                  0                  0        0.999999986         174.741037
          1.45e+09       0.999999987         174.704544                  0                  0                  0                  0        0.999999987         174.704544
          1.46e+09       0.999999986          174.66805                  0                  0                  0                  0        0.999999986          174.66805
          1.47e+09       0.999999986         174.631556                  0                  0                  0                  0        0.999999986         174.631556
          1.48e+09       0.999999986         174.595063                  0                  0                  0                  0        0.999999986         174.595063
          1.49e+09       0.999999986         174.558569                  0                  0                  0                  0        0.999999986         174.558569
           1.5e+09       0.999999986         174.522075                  0                  0                  0                  0        0.999999986         174.522075
          1.51e+09       0.999999986         174.485581                  0                  0                  0                  0        0.999999986         174.485581
          1.52e+09       0.999999986         174.449088                  0                  0                  0                  0        0.999999986         174.449088
          1.53e+09       0.999999986         174.412594                  0                  0                  0                  0        0.999999986         174.412594
          1.54e+09       0.999999986           174.3761                  0                  0                  0                  0        0.999999986           174.3761
          1.55e+09       0.999999986         174.339607                  0                  0                  0                  0        0.999999986         174.339607
          1.56e+09       0.999999986         174.303113                  0                  0                  0                  0        0.999999986         174.303113
          1.57e+09       0.999999986         174.266619                  0                  0                  0                  0        0.999999986         174.266619
          1.58e+09       0.999999986         174.230126                  0                  0                  0                  0        0.999999986         174.230126
          1.59e+09       0.999999986         174.193632                  0                  0                  0                  0        0.999999986         174.193632
           1.6e+09       0.999999986         174.157138                  0                  0                  0                  0        0.999999986         174.157138
          1.61e+09       0.999999986         174.120655                  0                  0                  0                  0        0.999999986         174.120655
          1.62e+09       0.999999986         174.084173                  0                  0                  0                  0        0.999999986         174.084173
          1.63e+09       0.999999986          174.04769                  0                  0                  0                  0        0.999999986          174.04769
          1.64e+09       0.999999986         174.011207                  0                  0                  0                  0        0.999999986         174.011207
          1.65e+09       0.999999986         173.974725                  0                  0                  0                  0        0.999999986         173.974725
          1.66e+09       0.999999985         173.938242                  0                  0                  0                  0        0.999999985         173.938242
          1.67e+09       0.999999986         173.901759                  0                  0                  0                  0        0.999999986         173.901759
          1.68e+09       0.999999985         173.865277                  0                  0                  0                  0        0.999999985         173.865277
          1.69e+09       0.999999985         173.828794                  0                  0                  0                  0        0.999999985         173.828794
           1.7e+09       0.999999985         173.792311                  0                  0                  0                  0        0.999999985         173.792311
          1.71e+09       0.999999985         173.755829                  0                  0                  0                  0        0.999999985         173.755829
          1.72e+09       0.999999985         173.719346                  0                  0                  0                  0        0.999999985         173.719346
          1.73e+09       0.999999985         173.682863                  0                  0                  0                  0        0.999999985         173.682863
          1.74e+09       0.999999985         173.646381                  0                  0                  0                  0        0.999999985         173.646381
          1.75e+09       0.999999985         173.609898                  0                  0                  0                  0        0.999999985         173.609898
          1.76e+09       0.999999985         173.573416                  0                  0                  0                  0        0.999999985         173.573416
          1.77e+09       0.999999985         173.536933                  0                  0                  0                  0        0.999999985         173.536933
          1.78e+09       0.999999985          173.50045                  0                  0                  0                  0        0.999999985          173.50045
          1.79e+09       0.999999985         173.463967                  0                  0                  0                  0        0.999999985         173.463967
           1.8e+09       0.999999985         173.427485                  0                  0                  0                  0        0.999999985         173.427485
          1.81e+09       0.999999985         173.391015                  0                  0                  0                  0        0.999999985         173.391015
          1.82e+09       0.999999985         173.354544                  0                  0                  0                  0        0.999999985         173.354544
          1.83e+09       0.999999985         173.318074                  0                  0                  0                  0        0.999999985         173.318074
          1.84e+09       0.999999985         173.281604                  0                  0                  0                  0        0.999999985         173.281604
          1.85e+09       0.999999984         173.245134                  0                  0                  0                  0        0.999999984         173.245134
          1.86e+09       0.999999985         173.208663                  0                  0                  0                  0        0.999999985         173.208663
          1.87e+09       0.999999984         173.172193                  0                  0                  0                  0        0.999999984         173.172193
          1.88e+09       0.999999984         173.135723                  0                  0                  0                  0        0.999999984         173.135723
          1.89e+09       0.999999984         173.099253                  0                  0                  0                  0        0.999999984         173.099253
           1.9e+09       0.999999984         173.062782                  0                  0                  0                  0        0.999999984         173.062782
          1.91e+09       0.999999984         173.026312                  0                  0                  0                  0        0.999999984         173.026312
          1.92e+09       0.999999984         172.989842                  0                  0                  0                  0        0.999999984         172.989842
          1.93e+09       0.999999984         172.953372                  0                  0                  0                  0        0.999999984         172.953372
          1.94e+09       0.999999984         172.916901                  0                  0                  0                  0        0.999999984         172.916901
          1.95e+09       0.999999984         172.880431                  0                  0                  0                  0        0.999999984         172.880431
          1.96e+09       0.999999984         172.843961                  0                  0                  0                  0        0.999999984         172.843961
          1.97e+09       0.999999984         172.807491                  0                  0                  0                  0        0.999999984         172.807491
          1.98e+09       0.999999984          172.77102                  0                  0                  0                  0        0.999999984          172.77102
          1.99e+09       0.999999984          172.73455                  0                  0                  0                  0        0.999999984          172.73455
             2e+09       0.999999984          172.69808                  0                  0                  0                  0        0.999999984          172.69808
          2.01e+09       0.999999984         172.661623                  0                  0                  0                  0        0.999999984         172.661623
          2.02e+09       0.999999984         172.625167                  0                  0                  0                  0        0.999999984         172.625167
          2.03e+09       0.999999984          172.58871                  0                  0                  0                  0        0.999999984          172.58871
          2.04e+09       0.999999984         172.552254                  0                  0                  0                  0        0.999999984         172.552254
          2.05e+09       0.999999983         172.515797                  0                  0                  0                  0        0.999999983         172.515797
          2.06e+09       0.999999984         172.479341                  0                  0                  0                  0        0.999999984         172.479341
          2.07e+09       0.999999983         172.442884                  0                  0                  0                  0        0.999999983         172.442884
          2.08e+09       0.999999983         172.406428                  0                  0                  0                  0        0.999999983         172.406428
          2.09e+09       0.999999983         172.369971                  0                  0                  0                  0        0.999999983         172.369971
           2.1e+09       0.999999983         172.333515                  0                  0                  0                  0        0.999999983         172.333515
          2.11e+09       0.999999983         172.297058                  0                  0                  0                  0        0.999999983         172.297058
          2.12e+09       0.999999983         172.260602                  0                  0                  0                  0        0.999999983         172.260602
          2.13e+09       0.999999983         172.224146                  0                  0                  0                  0        0.999999983         172.224146
          2.14e+09       0.999999983         172.187689                  0                  0                  0                  0        0.999999983         172.187689
          2.15e+09       0.999999983         172.151233                  0                  0                  0                  0        0.999999983         172.151233
