! Created Mon Nov 11 18:43:43 2024
# hz S ma R 50
! 1 Port Network Data from SP1.SP block
! freq  magS11  angS11  
!     
         1000000000       0.9999999882         176.3473126
         1010000000       0.9999999882         176.3108009
         1020000000       0.9999999881         176.2742893
         1030000000       0.9999999881         176.2377776
         1040000000       0.9999999881          176.201266
         1050000000        0.999999988         176.1647543
         1060000000        0.999999988         176.1282426
         1070000000        0.999999988          176.091731
         1080000000       0.9999999879         176.0552193
         1090000000       0.9999999879         176.0187077
         1100000000       0.9999999879          175.982196
         1110000000       0.9999999878         175.9456843
         1120000000       0.9999999878         175.9091727
         1130000000       0.9999999877          175.872661
         1140000000       0.9999999877         175.8361494
         1150000000       0.9999999877         175.7996377
         1160000000       0.9999999876          175.763126
         1170000000       0.9999999876         175.7266144
         1180000000       0.9999999876         175.6901027
         1190000000       0.9999999875         175.6535911
         1200000000       0.9999999875         175.6170794
         1210000000       0.9999999875          175.580576
         1220000000       0.9999999874         175.5440727
         1230000000       0.9999999874         175.5075693
         1240000000       0.9999999873         175.4710659
         1250000000       0.9999999873         175.4345626
         1260000000       0.9999999873         175.3980592
         1270000000       0.9999999872         175.3615558
         1280000000       0.9999999872         175.3250525
         1290000000       0.9999999871         175.2885491
         1300000000       0.9999999871         175.2520458
         1310000000       0.9999999871         175.2155424
         1320000000        0.999999987          175.179039
         1330000000        0.999999987         175.1425357
         1340000000       0.9999999869         175.1060323
         1350000000       0.9999999869         175.0695289
         1360000000       0.9999999869         175.0330256
         1370000000       0.9999999868         174.9965222
         1380000000       0.9999999868         174.9600188
         1390000000       0.9999999867         174.9235155
         1400000000       0.9999999867         174.8870121
         1410000000       0.9999999867         174.8505184
         1420000000       0.9999999866         174.8140247
         1430000000       0.9999999866          174.777531
         1440000000       0.9999999865         174.7410373
         1450000000       0.9999999865         174.7045436
         1460000000       0.9999999864         174.6680499
         1470000000       0.9999999864         174.6315562
         1480000000       0.9999999863         174.5950625
         1490000000       0.9999999863         174.5585688
         1500000000       0.9999999862         174.5220751
         1510000000       0.9999999862         174.4855814
         1520000000       0.9999999862         174.4490877
         1530000000       0.9999999861          174.412594
         1540000000       0.9999999861         174.3761003
         1550000000        0.999999986         174.3396066
         1560000000        0.999999986         174.3031129
         1570000000       0.9999999859         174.2666192
         1580000000       0.9999999859         174.2301255
         1590000000       0.9999999858         174.1936318
         1600000000       0.9999999858         174.1571381
         1610000000       0.9999999858         174.1206554
         1620000000       0.9999999857         174.0841728
         1630000000       0.9999999857         174.0476901
         1640000000       0.9999999856         174.0112074
         1650000000       0.9999999856         173.9747248
         1660000000       0.9999999855         173.9382421
         1670000000       0.9999999855         173.9017594
         1680000000       0.9999999854         173.8652768
         1690000000       0.9999999854         173.8287941
         1700000000       0.9999999853         173.7923114
         1710000000       0.9999999853         173.7558288
         1720000000       0.9999999852         173.7193461
         1730000000       0.9999999852         173.6828635
         1740000000       0.9999999851         173.6463808
         1750000000        0.999999985         173.6098981
         1760000000        0.999999985         173.5734155
         1770000000       0.9999999849         173.5369328
         1780000000       0.9999999849         173.5004501
         1790000000       0.9999999848         173.4639675
         1800000000       0.9999999848         173.4274848
         1810000000       0.9999999847         173.3910145
         1820000000       0.9999999847         173.3545443
         1830000000       0.9999999847          173.318074
         1840000000       0.9999999846         173.2816038
         1850000000       0.9999999845         173.2451335
         1860000000       0.9999999845         173.2086633
         1870000000       0.9999999844         173.1721931
         1880000000       0.9999999844         173.1357228
         1890000000       0.9999999844         173.0992525
         1900000000       0.9999999843         173.0627823
         1910000000       0.9999999842         173.0263121
         1920000000       0.9999999842         172.9898418
         1930000000       0.9999999842         172.9533715
         1940000000       0.9999999841         172.9169013
         1950000000       0.9999999841          172.880431
         1960000000        0.999999984         172.8439608
         1970000000        0.999999984         172.8074905
         1980000000       0.9999999839         172.7710203
         1990000000       0.9999999839           172.73455
         2000000000       0.9999999838         172.6980798
         2010000000       0.9999999837         172.6616233
         2020000000       0.9999999837         172.6251668
         2030000000       0.9999999836         172.5887104
         2040000000       0.9999999836         172.5522539
         2050000000       0.9999999835         172.5157974
         2060000000       0.9999999835         172.4793409
         2070000000       0.9999999834         172.4428844
         2080000000       0.9999999834          172.406428
         2090000000       0.9999999834         172.3699715
         2100000000       0.9999999833          172.333515
         2110000000       0.9999999833         172.2970585
         2120000000       0.9999999832          172.260602
         2130000000       0.9999999832         172.2241456
         2140000000       0.9999999831         172.1876891
         2150000000       0.9999999831         172.1512326
         2160000000        0.999999983         172.1147761
         2170000000        0.999999983         172.0783196
         2180000000       0.9999999829         172.0418632
         2190000000       0.9999999828         172.0054067
         2200000000       0.9999999828         171.9689502
         2210000000       0.9999999827         171.9325089
         2220000000       0.9999999827         171.8960675
         2230000000       0.9999999826         171.8596262
         2240000000       0.9999999826         171.8231848
         2250000000       0.9999999825         171.7867435
         2260000000       0.9999999825         171.7503021
         2270000000       0.9999999824         171.7138608
         2280000000       0.9999999824         171.6774194
         2290000000       0.9999999823         171.6409781
         2300000000       0.9999999823         171.6045367
         2310000000       0.9999999822         171.5680954
         2320000000       0.9999999821         171.5316541
         2330000000       0.9999999821         171.4952127
         2340000000        0.999999982         171.4587714
         2350000000        0.999999982           171.42233
         2360000000       0.9999999819         171.3858887
         2370000000       0.9999999819         171.3494473
         2380000000       0.9999999818          171.313006
         2390000000       0.9999999818         171.2765646
         2400000000       0.9999999817         171.2401233
         2410000000       0.9999999816         171.2036984
         2420000000       0.9999999816         171.1672736
         2430000000       0.9999999816         171.1308487
         2440000000       0.9999999815         171.0944239
         2450000000       0.9999999815          171.057999
         2460000000       0.9999999814         171.0215741
         2470000000       0.9999999814         170.9851493
         2480000000       0.9999999813         170.9487244
         2490000000       0.9999999813         170.9122996
         2500000000       0.9999999812         170.8758747
         2510000000       0.9999999811         170.8394498
         2520000000       0.9999999811          170.803025
         2530000000        0.999999981         170.7666001
         2540000000        0.999999981         170.7301753
         2550000000       0.9999999809         170.6937504
         2560000000       0.9999999809         170.6573255
         2570000000       0.9999999808         170.6209007
         2580000000       0.9999999808         170.5844758
         2590000000       0.9999999807          170.548051
         2600000000       0.9999999807         170.5116261
         2610000000       0.9999999806         170.4752191
         2620000000       0.9999999806         170.4388121
         2630000000       0.9999999805         170.4024051
         2640000000       0.9999999805          170.365998
         2650000000       0.9999999804          170.329591
         2660000000       0.9999999804          170.293184
         2670000000       0.9999999803          170.256777
         2680000000       0.9999999803           170.22037
         2690000000       0.9999999802          170.183963
         2700000000       0.9999999801         170.1475559
         2710000000       0.9999999801         170.1111489
         2720000000         0.99999998         170.0747419
         2730000000         0.99999998         170.0383349
         2740000000       0.9999999799         170.0019279
         2750000000       0.9999999799         169.9655209
         2760000000       0.9999999798         169.9291139
         2770000000       0.9999999798         169.8927068
         2780000000       0.9999999797         169.8562998
         2790000000       0.9999999797         169.8198928
         2800000000       0.9999999796         169.7834858
         2810000000       0.9999999795          169.747098
         2820000000       0.9999999795         169.7107101
         2830000000       0.9999999794         169.6743223
         2840000000       0.9999999794         169.6379345
         2850000000       0.9999999793         169.6015467
         2860000000       0.9999999793         169.5651588
         2870000000       0.9999999792          169.528771
         2880000000       0.9999999792         169.4923832
         2890000000       0.9999999791         169.4559954
         2900000000       0.9999999791         169.4196075
         2910000000        0.999999979         169.3832197
         2920000000       0.9999999789         169.3468319
         2930000000       0.9999999789         169.3104441
         2940000000       0.9999999788         169.2740563
         2950000000       0.9999999788         169.2376684
         2960000000       0.9999999787         169.2012806
         2970000000       0.9999999787         169.1648928
         2980000000       0.9999999786          169.128505
         2990000000       0.9999999786         169.0921171
         3000000000       0.9999999785         169.0557293
         3010000000       0.9999999784          169.019362
         3020000000       0.9999999784         168.9829947
         3030000000       0.9999999783         168.9466274
         3040000000       0.9999999783         168.9102601
         3050000000       0.9999999782         168.8738928
         3060000000       0.9999999782         168.8375255
         3070000000       0.9999999781         168.8011582
         3080000000       0.9999999781         168.7647909
         3090000000        0.999999978         168.7284236
         3100000000       0.9999999779         168.6920563
         3110000000       0.9999999779         168.6556889
         3120000000       0.9999999778         168.6193216
         3130000000       0.9999999778         168.5829543
         3140000000       0.9999999777          168.546587
         3150000000       0.9999999777         168.5102197
         3160000000       0.9999999776         168.4738524
         3170000000       0.9999999776         168.4374851
         3180000000       0.9999999775         168.4011178
         3190000000       0.9999999775         168.3647505
         3200000000       0.9999999774         168.3283832
         3210000000       0.9999999773         168.2920378
         3220000000       0.9999999773         168.2556923
         3230000000       0.9999999772         168.2193469
         3240000000       0.9999999772         168.1830014
         3250000000       0.9999999771          168.146656
         3260000000       0.9999999771         168.1103106
         3270000000        0.999999977         168.0739651
         3280000000        0.999999977         168.0376197
         3290000000       0.9999999769         168.0012742
         3300000000       0.9999999769         167.9649288
         3310000000       0.9999999768         167.9285834
         3320000000       0.9999999767         167.8922379
         3330000000       0.9999999767         167.8558925
         3340000000       0.9999999766          167.819547
         3350000000       0.9999999766         167.7832016
         3360000000       0.9999999765         167.7468562
         3370000000       0.9999999765         167.7105107
         3380000000       0.9999999764         167.6741653
         3390000000       0.9999999764         167.6378198
         3400000000       0.9999999763         167.6014744
         3410000000       0.9999999762         167.5651521
         3420000000       0.9999999762         167.5288299
         3430000000       0.9999999761         167.4925076
         3440000000       0.9999999761         167.4561854
         3450000000        0.999999976         167.4198631
         3460000000        0.999999976         167.3835408
         3470000000       0.9999999759         167.3472186
         3480000000       0.9999999759         167.3108963
         3490000000       0.9999999758         167.2745741
         3500000000       0.9999999757         167.2382518
         3510000000       0.9999999757         167.2019295
         3520000000       0.9999999756         167.1656073
         3530000000       0.9999999756          167.129285
         3540000000       0.9999999755         167.0929628
         3550000000       0.9999999755         167.0566405
         3560000000       0.9999999754         167.0203182
         3570000000       0.9999999754          166.983996
         3580000000       0.9999999753         166.9476737
         3590000000       0.9999999753         166.9113515
         3600000000       0.9999999752         166.8750292
         3610000000       0.9999999751         166.8387315
         3620000000       0.9999999751         166.8024337
         3630000000        0.999999975          166.766136
         3640000000        0.999999975         166.7298382
         3650000000       0.9999999749         166.6935405
         3660000000       0.9999999749         166.6572427
         3670000000       0.9999999748         166.6209449
         3680000000       0.9999999748         166.5846472
         3690000000       0.9999999747         166.5483494
         3700000000       0.9999999746         166.5120517
         3710000000       0.9999999746          166.475754
         3720000000       0.9999999745         166.4394562
         3730000000       0.9999999745         166.4031585
         3740000000       0.9999999744         166.3668607
         3750000000       0.9999999744          166.330563
         3760000000       0.9999999743         166.2942652
         3770000000       0.9999999743         166.2579674
         3780000000       0.9999999742         166.2216697
         3790000000       0.9999999742         166.1853719
         3800000000       0.9999999741         166.1490742
         3810000000        0.999999974         166.1128023
         3820000000        0.999999974         166.0765303
         3830000000       0.9999999739         166.0402584
         3840000000       0.9999999739         166.0039865
         3850000000       0.9999999738         165.9677145
         3860000000       0.9999999738         165.9314426
         3870000000       0.9999999737         165.8951707
         3880000000       0.9999999737         165.8588987
         3890000000       0.9999999736         165.8226268
         3900000000       0.9999999736         165.7863549
         3910000000       0.9999999735         165.7500829
         3920000000       0.9999999734          165.713811
         3930000000       0.9999999734          165.677539
         3940000000       0.9999999733         165.6412671
         3950000000       0.9999999733         165.6049952
         3960000000       0.9999999732         165.5687232
         3970000000       0.9999999732         165.5324513
         3980000000       0.9999999731         165.4961794
         3990000000       0.9999999731         165.4599074
         4000000000        0.999999973         165.4236355
         4010000000       0.9999999729         165.3873907
         4020000000       0.9999999729         165.3511459
         4030000000       0.9999999728         165.3149011
         4040000000       0.9999999728         165.2786562
         4050000000       0.9999999727         165.2424114
         4060000000       0.9999999727         165.2061666
         4070000000       0.9999999726         165.1699218
         4080000000       0.9999999726          165.133677
         4090000000       0.9999999725         165.0974322
         4100000000       0.9999999724         165.0611874
         4110000000       0.9999999724         165.0249425
         4120000000       0.9999999723         164.9886977
         4130000000       0.9999999723         164.9524529
         4140000000       0.9999999722         164.9162081
         4150000000       0.9999999722         164.8799633
         4160000000       0.9999999721         164.8437185
         4170000000       0.9999999721         164.8074736
         4180000000        0.999999972         164.7712288
         4190000000        0.999999972          164.734984
         4200000000       0.9999999719         164.6987392
         4210000000       0.9999999718         164.6625228
         4220000000       0.9999999718         164.6263064
         4230000000       0.9999999717           164.59009
         4240000000       0.9999999717         164.5538736
         4250000000       0.9999999716         164.5176572
         4260000000       0.9999999716         164.4814408
         4270000000       0.9999999715         164.4452244
         4280000000       0.9999999715          164.409008
         4290000000       0.9999999714         164.3727916
         4300000000       0.9999999714         164.3365753
         4310000000       0.9999999713         164.3003589
         4320000000       0.9999999712         164.2641425
         4330000000       0.9999999712         164.2279261
         4340000000       0.9999999711         164.1917097
         4350000000       0.9999999711         164.1554933
