! Created Mon Nov 11 18:41:52 2024
# hz S ma R 50
! 2 Port Network Data from SP1.SP block
! freq  magS11  angS11  magS21  angS21  magS12  angS12  magS22  angS22  
!     
         1000000000      0.03210273499        -88.98752576        0.9954490713        -6.161915914        0.9954490713        -6.161915914       0.03212157127        -88.94777721
         1010000000      0.03243203623          -89.097732         0.995428716        -6.222674172         0.995428716        -6.222674172         0.032451143        -89.05778518
         1020000000      0.03276133748        -89.20793823        0.9954083608         -6.28343243        0.9954083608         -6.28343243       0.03278071472        -89.16779314
         1030000000      0.03309063873        -89.31814447        0.9953880055        -6.344190689        0.9953880055        -6.344190689       0.03311028644        -89.27780111
         1040000000      0.03341993997         -89.4283507        0.9953676502        -6.404948947        0.9953676502        -6.404948947       0.03343985817        -89.38780908
         1050000000      0.03374924122        -89.53855694        0.9953472949        -6.465707205        0.9953472949        -6.465707205       0.03376942989        -89.49781705
         1060000000      0.03407854246        -89.64876317        0.9953269396        -6.526465463        0.9953269396        -6.526465463       0.03409900161        -89.60782501
         1070000000      0.03440784371        -89.75896941        0.9953065844        -6.587223721        0.9953065844        -6.587223721       0.03442857334        -89.71783298
         1080000000      0.03473714496        -89.86917564        0.9952862291         -6.64798198        0.9952862291         -6.64798198       0.03475814506        -89.82784095
         1090000000       0.0350664462        -89.97938188        0.9952658738        -6.708740238        0.9952658738        -6.708740238       0.03508771678        -89.93784892
         1100000000      0.03539574745        -90.08958812        0.9952455185        -6.769498496        0.9952455185        -6.769498496       0.03541728851        -90.04785688
         1110000000       0.0357250487        -90.19979435        0.9952251632        -6.830256754        0.9952251632        -6.830256754       0.03574686023        -90.15786485
         1120000000      0.03605434994        -90.31000059         0.995204808        -6.891015012         0.995204808        -6.891015012       0.03607643196        -90.26787282
         1130000000      0.03638365119        -90.42020682        0.9951844527        -6.951773271        0.9951844527        -6.951773271       0.03640600368        -90.37788079
         1140000000      0.03671295244        -90.53041306        0.9951640974        -7.012531529        0.9951640974        -7.012531529        0.0367355754        -90.48788876
         1150000000      0.03704225368        -90.64061929        0.9951437421        -7.073289787        0.9951437421        -7.073289787       0.03706514713        -90.59789672
         1160000000      0.03737155493        -90.75082553        0.9951233868        -7.134048045        0.9951233868        -7.134048045       0.03739471885        -90.70790469
         1170000000      0.03770085618        -90.86103176        0.9951030316        -7.194806303        0.9951030316        -7.194806303       0.03772429057        -90.81791266
         1180000000      0.03803015742          -90.971238        0.9950826763        -7.255564562        0.9950826763        -7.255564562        0.0380538623        -90.92792063
         1190000000      0.03835945867        -91.08144423         0.995062321         -7.31632282         0.995062321         -7.31632282       0.03838343402        -91.03792859
         1200000000      0.03868875992        -91.19165047        0.9950419657        -7.377081078        0.9950419657        -7.377081078       0.03871300574        -91.14793656
         1210000000      0.03901684168        -91.28889167        0.9950206143        -7.437834628        0.9950206143        -7.437834628       0.03904136396        -91.24497387
         1220000000      0.03934492344        -91.38613286        0.9949992628        -7.498588177        0.9949992628        -7.498588177       0.03936972217        -91.34201117
         1230000000       0.0396730052        -91.48337406        0.9949779113        -7.559341727        0.9949779113        -7.559341727       0.03969808038        -91.43904848
         1240000000      0.04000108696        -91.58061526        0.9949565599        -7.620095276        0.9949565599        -7.620095276        0.0400264386        -91.53608579
         1250000000      0.04032916872        -91.67785646        0.9949352084        -7.680848826        0.9949352084        -7.680848826       0.04035479681         -91.6331231
         1260000000      0.04065725048        -91.77509765         0.994913857        -7.741602376         0.994913857        -7.741602376       0.04068315502         -91.7301604
         1270000000      0.04098533224        -91.87233885        0.9948925055        -7.802355925        0.9948925055        -7.802355925       0.04101151324        -91.82719771
         1280000000        0.041313414        -91.96958005         0.994871154        -7.863109475         0.994871154        -7.863109475       0.04133987145        -91.92423502
         1290000000      0.04164149576        -92.06682124        0.9948498026        -7.923863024        0.9948498026        -7.923863024       0.04166822967        -92.02127232
         1300000000      0.04196957752        -92.16406244        0.9948284511        -7.984616574        0.9948284511        -7.984616574       0.04199658788        -92.11830963
         1310000000      0.04229765928        -92.26130364        0.9948070997        -8.045370123        0.9948070997        -8.045370123       0.04232494609        -92.21534694
         1320000000      0.04262574104        -92.35854484        0.9947857482        -8.106123673        0.9947857482        -8.106123673       0.04265330431        -92.31238424
         1330000000       0.0429538228        -92.45578603        0.9947643968        -8.166877223        0.9947643968        -8.166877223       0.04298166252        -92.40942155
         1340000000      0.04328190456        -92.55302723        0.9947430453        -8.227630772        0.9947430453        -8.227630772       0.04331002073        -92.50645886
         1350000000      0.04360998632        -92.65026843        0.9947216938        -8.288384322        0.9947216938        -8.288384322       0.04363837895        -92.60349617
         1360000000      0.04393806808        -92.74750962        0.9947003424        -8.349137871        0.9947003424        -8.349137871       0.04396673716        -92.70053347
         1370000000      0.04426614984        -92.84475082        0.9946789909        -8.409891421        0.9946789909        -8.409891421       0.04429509537        -92.79757078
         1380000000       0.0445942316        -92.94199202        0.9946576395        -8.470644971        0.9946576395        -8.470644971       0.04462345359        -92.89460809
         1390000000      0.04492231336        -93.03923322         0.994636288         -8.53139852         0.994636288         -8.53139852        0.0449518118        -92.99164539
         1400000000      0.04525039512        -93.13647441        0.9946149365         -8.59215207        0.9946149365         -8.59215207       0.04528017001         -93.0886827
         1410000000       0.0455770757        -93.22516866        0.9945921176        -8.652891617        0.9945921176        -8.652891617       0.04560713317        -93.17716669
         1420000000      0.04590375628         -93.3138629        0.9945692987        -8.713631165        0.9945692987        -8.713631165       0.04593409633        -93.26565069
         1430000000      0.04623043686        -93.40255714        0.9945464797        -8.774370713        0.9945464797        -8.774370713       0.04626105949        -93.35413468
         1440000000      0.04655711744        -93.49125139        0.9945236608        -8.835110261        0.9945236608        -8.835110261       0.04658802264        -93.44261867
         1450000000      0.04688379802        -93.57994563        0.9945008418        -8.895849808        0.9945008418        -8.895849808        0.0469149858        -93.53110267
         1460000000      0.04721047861        -93.66863987        0.9944780229        -8.956589356        0.9944780229        -8.956589356       0.04724194896        -93.61958666
         1470000000      0.04753715919        -93.75733412        0.9944552039        -9.017328904        0.9944552039        -9.017328904       0.04756891212        -93.70807065
         1480000000      0.04786383977        -93.84602836         0.994432385        -9.078068451         0.994432385        -9.078068451       0.04789587528        -93.79655464
         1490000000      0.04819052035         -93.9347226         0.994409566        -9.138807999         0.994409566        -9.138807999       0.04822283843        -93.88503864
         1500000000      0.04851720093        -94.02341685        0.9943867471        -9.199547547        0.9943867471        -9.199547547       0.04854980159        -93.97352263
         1510000000      0.04884388151        -94.11211109        0.9943639282        -9.260287095        0.9943639282        -9.260287095       0.04887676475        -94.06200662
         1520000000      0.04917056209        -94.20080534        0.9943411092        -9.321026642        0.9943411092        -9.321026642       0.04920372791        -94.15049062
         1530000000      0.04949724267        -94.28949958        0.9943182903         -9.38176619        0.9943182903         -9.38176619       0.04953069107        -94.23897461
         1540000000      0.04982392325        -94.37819382        0.9942954713        -9.442505738        0.9942954713        -9.442505738       0.04985765422         -94.3274586
         1550000000      0.05015060383        -94.46688807        0.9942726524        -9.503245285        0.9942726524        -9.503245285       0.05018461738         -94.4159426
         1560000000      0.05047728441        -94.55558231        0.9942498334        -9.563984833        0.9942498334        -9.563984833       0.05051158054        -94.50442659
         1570000000      0.05080396499        -94.64427655        0.9942270145        -9.624724381        0.9942270145        -9.624724381        0.0508385437        -94.59291058
         1580000000      0.05113064557         -94.7329708        0.9942041955        -9.685463928        0.9942041955        -9.685463928       0.05116550686        -94.68139457
         1590000000      0.05145732615        -94.82166504        0.9941813766        -9.746203476        0.9941813766        -9.746203476       0.05149247001        -94.76987857
         1600000000      0.05178400673        -94.91035928        0.9941585577        -9.806943024        0.9941585577        -9.806943024       0.05181943317        -94.85836256
         1610000000      0.05210913965        -94.99310289        0.9941339929        -9.867658936        0.9941339929        -9.867658936        0.0521448556        -94.94089026
         1620000000      0.05243427257        -95.07584649        0.9941094282        -9.928374849        0.9941094282        -9.928374849       0.05247027802        -95.02341796
         1630000000      0.05275940549        -95.15859009        0.9940848635        -9.989090761        0.9940848635        -9.989090761       0.05279570044        -95.10594565
         1640000000      0.05308453841        -95.24133369        0.9940602988        -10.04980667        0.9940602988        -10.04980667       0.05312112286        -95.18847335
         1650000000      0.05340967132        -95.32407729        0.9940357341        -10.11052259        0.9940357341        -10.11052259       0.05344654528        -95.27100105
         1660000000      0.05373480424        -95.40682089        0.9940111694         -10.1712385        0.9940111694         -10.1712385       0.05377196771        -95.35352875
         1670000000      0.05405993716        -95.48956449        0.9939866047        -10.23195441        0.9939866047        -10.23195441       0.05409739013        -95.43605644
         1680000000      0.05438507008        -95.57230809          0.99396204        -10.29267032          0.99396204        -10.29267032       0.05442281255        -95.51858414
         1690000000        0.054710203        -95.65505169        0.9939374753        -10.35338624        0.9939374753        -10.35338624       0.05474823497        -95.60111184
         1700000000      0.05503533591        -95.73779529        0.9939129106        -10.41410215        0.9939129106        -10.41410215        0.0550736574        -95.68363954
         1710000000      0.05536046883        -95.82053889        0.9938883459        -10.47481806        0.9938883459        -10.47481806       0.05539907982        -95.76616724
         1720000000      0.05568560175         -95.9032825        0.9938637812        -10.53553397        0.9938637812        -10.53553397       0.05572450224        -95.84869493
         1730000000      0.05601073467         -95.9860261        0.9938392165        -10.59624988        0.9938392165        -10.59624988       0.05604992466        -95.93122263
         1740000000      0.05633586759         -96.0687697        0.9938146518         -10.6569658        0.9938146518         -10.6569658       0.05637534709        -96.01375033
         1750000000      0.05666100051         -96.1515133        0.9937900871        -10.71768171        0.9937900871        -10.71768171       0.05670076951        -96.09627803
         1760000000      0.05698613342         -96.2342569        0.9937655224        -10.77839762        0.9937655224        -10.77839762       0.05702619193        -96.17880572
         1770000000      0.05731126634         -96.3170005        0.9937409577        -10.83911353        0.9937409577        -10.83911353       0.05735161435        -96.26133342
         1780000000      0.05763639926         -96.3997441         0.993716393        -10.89982945         0.993716393        -10.89982945       0.05767703678        -96.34386112
         1790000000      0.05796153218         -96.4824877        0.9936918283        -10.96054536        0.9936918283        -10.96054536        0.0580024592        -96.42638882
         1800000000       0.0582866651         -96.5652313        0.9936672636        -11.02126127        0.9936672636        -11.02126127       0.05832788162        -96.50891651
         1810000000      0.05861011607        -96.64365559        0.9936407881        -11.08194432        0.9936407881        -11.08194432       0.05865163003        -96.58712033
         1820000000      0.05893356704        -96.72207988        0.9936143127        -11.14262738        0.9936143127        -11.14262738       0.05897537844        -96.66532414
         1830000000      0.05925701801        -96.80050417        0.9935878372        -11.20331043        0.9935878372        -11.20331043       0.05929912685        -96.74352795
         1840000000      0.05958046898        -96.87892845        0.9935613617        -11.26399348        0.9935613617        -11.26399348       0.05962287526        -96.82173176
         1850000000      0.05990391995        -96.95735274        0.9935348863        -11.32467654        0.9935348863        -11.32467654       0.05994662367        -96.89993557
         1860000000      0.06022737092        -97.03577703        0.9935084108        -11.38535959        0.9935084108        -11.38535959       0.06027037209        -96.97813939
         1870000000      0.06055082189        -97.11420132        0.9934819353        -11.44604264        0.9934819353        -11.44604264        0.0605941205         -97.0563432
         1880000000      0.06087427286         -97.1926256        0.9934554599        -11.50672569        0.9934554599        -11.50672569       0.06091786891        -97.13454701
         1890000000      0.06119772383        -97.27104989        0.9934289844        -11.56740875        0.9934289844        -11.56740875       0.06124161732        -97.21275082
         1900000000       0.0615211748        -97.34947418        0.9934025089         -11.6280918        0.9934025089         -11.6280918       0.06156536573        -97.29095463
         1910000000      0.06184462577        -97.42789846        0.9933760335        -11.68877485        0.9933760335        -11.68877485       0.06188911414        -97.36915845
         1920000000      0.06216807674        -97.50632275         0.993349558        -11.74945791         0.993349558        -11.74945791       0.06221286255        -97.44736226
         1930000000      0.06249152771        -97.58474704        0.9933230825        -11.81014096        0.9933230825        -11.81014096       0.06253661096        -97.52556607
         1940000000      0.06281497868        -97.66317133        0.9932966071        -11.87082401        0.9932966071        -11.87082401       0.06286035937        -97.60376988
         1950000000      0.06313842965        -97.74159561        0.9932701316        -11.93150706        0.9932701316        -11.93150706       0.06318410778        -97.68197369
         1960000000      0.06346188062         -97.8200199        0.9932436561        -11.99219012        0.9932436561        -11.99219012        0.0635078562        -97.76017751
         1970000000      0.06378533159        -97.89844419        0.9932171807        -12.05287317        0.9932171807        -12.05287317       0.06383160461        -97.83838132
         1980000000      0.06410878256        -97.97686848        0.9931907052        -12.11355622        0.9931907052        -12.11355622       0.06415535302        -97.91658513
         1990000000      0.06443223353        -98.05529276        0.9931642298        -12.17423928        0.9931642298        -12.17423928       0.06447910143        -97.99478894
         2000000000       0.0647556845        -98.13371705        0.9931377543        -12.23492233        0.9931377543        -12.23492233       0.06480284984        -98.07299275
         2010000000      0.06507732251        -98.20890075        0.9931092739         -12.2955639        0.9931092739         -12.2955639       0.06512479422        -98.14795246
         2020000000      0.06539896053        -98.28408446        0.9930807935        -12.35620548        0.9930807935        -12.35620548        0.0654467386        -98.22291218
         2030000000      0.06572059855        -98.35926816        0.9930523131        -12.41684705        0.9930523131        -12.41684705       0.06576868298        -98.29787189
         2040000000      0.06604223656        -98.43445186        0.9930238327        -12.47748863        0.9930238327        -12.47748863       0.06609062737         -98.3728316
         2050000000      0.06636387458        -98.50963557        0.9929953523         -12.5381302        0.9929953523         -12.5381302       0.06641257175        -98.44779131
         2060000000      0.06668551259        -98.58481927        0.9929668719        -12.59877178        0.9929668719        -12.59877178       0.06673451613        -98.52275102
         2070000000      0.06700715061        -98.66000297        0.9929383915        -12.65941335        0.9929383915        -12.65941335       0.06705646051        -98.59771073
         2080000000      0.06732878862        -98.73518668        0.9929099111        -12.72005493        0.9929099111        -12.72005493       0.06737840489        -98.67267045
         2090000000      0.06765042664        -98.81037038        0.9928814307         -12.7806965        0.9928814307         -12.7806965       0.06770034927        -98.74763016
